7704.647 [RX] 01 03 15 1C 00 20 81 D8 
7704.661 [RX] 01 03 40 C3 64 3D 71 C3 1F 43 96 00 00 00 00 C2 89 A9 FC C3 2E 87 2B C1 AF 1A A0 00 00 00 00 C3 18 7E FA 43 8D E9 79 43 20 D9 17 00 00 00 00 43 27 0A 3D BF 4D 4F DF BF 7D 70 A4 00 00 00 00 BE D2 6E 98 CE 97 
7704.858 [RX] 01 03 15 4E 00 02 A0 10 
7704.874 [RX] 01 03 04 42 6F EB 85 51 05 
7704.988 [RX] 01 03 18 1E 00 12 A3 61 
7705.007 [RX] 01 03 24 47 EF E0 B1 47 11 BA CD 47 1A 3D ED 47 33 C8 A6 47 EB FA EE 48 25 E4 21 47 85 50 73 47 32 19 C6 47 5A D5 DA 7D 7C 
7709.328 [RX] 01 03 15 1C 00 20 81 D8 
7709.344 [RX] 01 03 40 C3 65 64 5A C3 1F D7 0A 00 00 00 00 C2 8A D0 E5 C3 2E AC 08 C1 AF 1A A0 00 00 00 00 C3 18 A3 D7 43 8E A1 CB 43 21 6C 8B 00 00 00 00 43 27 E7 6D BF 4D 91 68 BF 7D 2F 1B 00 00 00 00 BE D2 F1 AA 69 E0 
7709.523 [RX] 01 03 15 4E 00 02 A0 10 
7709.539 [RX] 01 03 04 42 6F E1 48 96 30 
7709.654 [RX] 01 03 18 1E 00 12 A3 61 
7709.671 [RX] 01 03 24 47 EF E0 B1 47 11 BA CD 47 1A 3D ED 47 33 C8 A6 47 EB FA EE 48 25 E4 21 47 85 50 73 47 32 19 C6 47 5A D5 DA 7D 7C 
7714.040 [RX] 01 03 15 1C 00 20 81 D8 
7714.054 [RX] 01 03 40 C3 67 B2 2D C3 21 22 D1 00 00 00 00 C2 8D 1E B8 C3 2F 1A A0 C1 AA 7E FA 00 00 00 00 C3 19 A5 E3 43 8F B6 46 43 22 93 75 00 00 00 00 43 29 33 33 BF 4E D9 17 BF 7D B2 2D 00 00 00 00 BE D6 87 2B A7 63 
7714.220 [RX] 01 03 15 4E 00 02 A0 10 
7714.235 [RX] 01 03 04 42 6F E1 48 96 30 
7714.345 [RX] 01 03 18 1E 00 12 A3 61 
7714.359 [RX] 01 03 24 47 EF E0 B1 47 11 BA CD 47 1A 3D ED 47 33 C8 A6 47 EB FA EE 48 25 E4 3F 47 85 50 90 47 32 19 C6 47 5A D6 12 89 30 
7717.727 [RX] 01 03 15 1C 00 20 81 D8 
7717.743 [RX] 01 03 40 C3 6D 99 9A C3 24 97 8D 00 00 00 00 C2 91 BA 5E C3 31 68 73 C1 A2 6E 98 00 00 00 00 C3 1D 1A A0 43 92 E1 48 43 26 08 31 00 00 00 00 43 2D 3B 64 BF 4E 56 04 BF 7D 70 A4 00 00 00 00 BE D4 FD F4 C8 34 
7717.914 [RX] 01 03 15 4E 00 02 A0 10 
7717.928 [RX] 01 03 04 42 6F E1 48 96 30 
7718.019 [RX] 01 03 18 1E 00 12 A3 61 
7718.034 [RX] 01 03 24 47 EF E0 B1 47 11 BA CD 47 1A 3D ED 47 33 C8 A6 47 EB FA EE 48 25 E4 4D 47 85 50 AD 47 32 19 C6 47 5A D6 12 3D D3 
7721.989 [RX] 01 03 15 1C 00 20 81 D8 
7722.005 [RX] 01 03 40 C3 66 F9 DB C3 20 6A 7F 00 00 00 00 C2 8D 1E B8 C3 2E 62 4E C1 A7 0A 3D 00 00 00 00 C3 19 5C 29 43 8F 35 3F 43 21 DB 23 00 00 00 00 43 28 E9 79 BF 4D D2 F2 BF 7D 70 A4 00 00 00 00 BE D3 F7 CF 42 0E 
7722.174 [RX] 01 03 15 4E 00 02 A0 10 
7722.190 [RX] 01 03 04 42 6F D7 0A 01 A1 
7722.306 [RX] 01 03 18 1E 00 12 A3 61 
7722.325 [RX] 01 03 24 47 EF E0 B1 47 11 BA CD 47 1A 3D ED 47 33 C8 A6 47 EB FA EE 48 25 E4 5B 47 85 50 CA 47 32 19 C6 47 5A D6 12 84 B7 
7725.977 [RX] 01 03 15 1C 00 20 81 D8 
7725.993 [RX] 01 03 40 C3 6A 00 00 C3 22 24 DD 00 00 00 00 C2 8F 6C 8B C3 2F 1A A0 C1 A0 20 C5 00 00 00 00 C3 1B 3B 64 43 90 CA C1 43 23 70 A4 00 00 00 00 43 2A ED 91 BF 4E 14 7B BF 7D B2 2D 00 00 00 00 BE D4 FD F4 BD 83 
7726.182 [RX] 01 03 15 4E 00 02 A0 10 
7726.196 [RX] 01 03 04 42 6F E1 48 96 30 
7726.303 [RX] 01 03 18 1E 00 12 A3 61 
7726.320 [RX] 01 03 24 47 EF E0 B1 47 11 BA CD 47 1A 3D ED 47 33 C8 A6 47 EB FA EE 48 25 E4 78 47 85 50 E6 47 32 19 C6 47 5A D6 4D 72 ED 
7730.273 [RX] 01 03 15 1C 00 20 81 D8 
7730.289 [RX] 01 03 40 C3 72 5A 1D C3 28 7A E1 00 00 00 00 C2 93 74 BC C3 37 06 25 C1 B2 8F 5C 00 00 00 00 C3 20 8F 5C 43 96 31 27 43 2A 10 62 00 00 00 00 43 30 D4 FE BF 4E D9 17 BF 7D 70 A4 00 00 00 00 BE D6 04 19 E1 EC 
7730.484 [RX] 01 03 15 4E 00 02 A0 10 
7730.499 [RX] 01 03 04 42 6F EB 85 51 05 
7730.634 [RX] 01 03 18 1E 00 12 A3 61 
7730.651 [RX] 01 03 24 47 EF E0 B1 47 11 BA CD 47 1A 3D ED 47 33 C8 A6 47 EB FA EE 48 25 E4 86 47 85 51 03 47 32 19 C6 47 5A D6 4D 83 C3 
7734.455 [RX] 01 03 15 1C 00 20 81 D8 
7734.473 [RX] 01 03 40 C3 72 ED 91 C3 28 56 04 00 00 00 00 C2 94 E5 60 C3 37 2B 02 C1 B4 DD 2F 00 00 00 00 C3 20 8F 5C 43 96 43 96 43 29 EB 85 00 00 00 00 43 30 F9 DB BF 4F 5C 29 BF 7D B2 2D 00 00 00 00 BE D8 93 75 33 EE 
7734.641 [RX] 01 03 15 4E 00 02 A0 10 
7734.657 [RX] 01 03 04 42 6F F5 C3 D9 57 
7734.762 [RX] 01 03 18 1E 00 12 A3 61 
7734.778 [RX] 01 03 24 47 EF E0 B1 47 11 BA CD 47 1A 3D ED 47 33 C8 A6 47 EB FA EE 48 25 E4 A4 47 85 51 20 47 32 19 C6 47 5A D6 88 B6 83 
7738.482 [RX] 01 03 15 1C 00 20 81 D8 
7738.496 [RX] 01 03 40 C3 73 12 6F C3 28 C4 9C 00 00 00 00 C2 94 9B A6 C3 36 E1 48 C1 B6 04 19 00 00 00 00 C3 1F FB E7 43 96 31 27 43 2A 5A 1D 00 00 00 00 43 30 8B 44 BF 4E 14 7B BF 7D 2F 1B 00 00 00 00 BE D4 FD F4 AE C9 
7738.683 [RX] 01 03 15 4E 00 02 A0 10 
7738.696 [RX] 01 03 04 42 70 00 00 EF 90 
7738.803 [RX] 01 03 18 1E 00 12 A3 61 
7738.820 [RX] 01 03 24 47 EF E0 B1 47 11 BA CD 47 1A 3D ED 47 33 C8 A6 47 EB FA EE 48 25 E4 A4 47 85 51 20 47 32 19 C6 47 5A D6 88 B6 83 
7742.684 [RX] 01 03 15 1C 00 20 81 D8 
7742.700 [RX] 01 03 40 C3 6D 74 BC C3 25 06 25 00 00 00 00 C2 90 DD 2F C3 34 93 75 C1 B1 68 73 00 00 00 00 C3 1E 41 89 43 93 87 2B 43 26 9B A6 00 00 00 00 43 2E 18 93 BF 4E 56 04 BF 7D 70 A4 00 00 00 00 BE D5 81 06 89 CF 
7742.874 [RX] 01 03 15 4E 00 02 A0 10 
7742.889 [RX] 01 03 04 42 70 00 00 EF 90 
7743.004 [RX] 01 03 18 1E 00 12 A3 61 
7743.020 [RX] 01 03 24 47 EF E0 B1 47 11 BA CD 47 1A 3D ED 47 33 C8 A6 47 EB FA EE 48 25 E4 B2 47 85 51 3D 47 32 19 C6 47 5A D6 88 14 85 
7748.114 [RX] 01 03 15 1C 00 20 81 D8 
7748.129 [RX] 01 03 40 C3 6C E1 48 C3 24 BC 6A 00 00 00 00 C2 90 00 00 C3 34 DD 2F C1 B3 B6 46 00 00 00 00 C3 1E 66 66 43 93 62 4E 43 26 51 EC 00 00 00 00 43 2E 18 93 BF 4E 56 04 BF 7D 70 A4 00 00 00 00 BE D4 FD F4 3C F5 
7748.314 [RX] 01 03 15 4E 00 02 A0 10 
7748.328 [RX] 01 03 04 42 6F EB 85 51 05 
7748.435 [RX] 01 03 18 1E 00 12 A3 61 
7748.452 [RX] 01 03 24 47 EF E0 B1 47 11 BA CD 47 1A 3D ED 47 33 C8 A6 47 EB FA EE 48 25 E4 CE 47 85 51 5A 47 32 19 C6 47 5A D6 C0 34 7D 
7755.820 [RX] 01 03 15 10 00 14 40 0C 
7755.837 [RX] 01 03 28 00 00 00 00 00 00 00 00 00 00 00 00 41 46 87 2B 41 49 FB E7 41 4D 70 A4 C3 72 5A 1D C3 28 E9 79 00 00 00 00 C2 92 97 8D 39 20 
7756.225 [RX] 01 03 15 10 00 14 40 0C 
7756.241 [RX] 01 03 28 00 00 00 00 00 00 00 00 00 00 00 00 41 43 A5 E3 41 46 E9 79 41 4A 5E 35 C3 73 37 4C C3 29 33 33 00 00 00 00 C2 94 08 31 0A 8D 
7756.615 [RX] 01 03 15 10 00 14 40 0C 
7756.632 [RX] 01 03 28 00 00 00 00 00 00 00 00 00 00 00 00 41 45 60 42 41 48 A3 D7 41 4C 18 93 C3 74 83 12 C3 2A 10 62 00 00 00 00 C2 94 E5 60 0C 7B 
7757.015 [RX] 01 03 15 10 00 14 40 0C 
7757.032 [RX] 01 03 28 00 00 00 00 00 00 00 00 00 00 00 00 41 45 60 42 41 48 A3 D7 41 4C 18 93 C3 72 7E FA C3 28 C4 9C 00 00 00 00 C2 93 74 BC CC 05 
7757.430 [RX] 01 03 15 10 00 14 40 0C 
7757.446 [RX] 01 03 28 00 00 00 00 00 00 00 00 00 00 00 00 41 43 74 BC 41 46 B8 52 41 4A 2D 0E C3 6F C2 8F C3 27 0A 3D 00 00 00 00 C2 91 26 E9 42 78 
7757.826 [RX] 01 03 15 10 00 14 40 0C 
7757.843 [RX] 01 03 28 00 00 00 00 00 00 00 00 00 00 00 00 41 41 BA 5E 41 45 91 68 41 49 37 4C C3 70 31 27 C3 27 0A 3D 00 00 00 00 C2 92 4D D3 48 75 
7758.223 [RX] 01 03 15 10 00 14 40 0C 
7758.240 [RX] 01 03 28 00 00 00 00 00 00 00 00 00 00 00 00 41 41 BA 5E 41 45 91 68 41 49 37 4C C3 71 0E 56 C3 27 9D B2 00 00 00 00 C2 92 E1 48 A0 C1 
7758.644 [RX] 01 03 15 10 00 14 40 0C 
7758.659 [RX] 01 03 28 00 00 00 00 00 00 00 00 00 00 00 00 41 42 4D D3 41 46 24 DD 41 49 FB E7 C3 6E C0 83 C3 26 51 EC 00 00 00 00 C2 90 DD 2F 5D 97 
7759.015 [RX] 01 03 15 10 00 14 40 0C 
7759.031 [RX] 01 03 28 00 00 00 00 00 00 00 00 00 00 00 00 41 3F 3B 64 41 43 12 6F 41 46 E9 79 C3 6C 28 F6 C3 24 72 B0 00 00 00 00 C2 8F 22 D1 79 DA 
7759.413 [RX] 01 03 15 10 00 14 40 0C 
7759.428 [RX] 01 03 28 00 00 00 00 00 00 00 00 00 00 00 00 41 3F 3B 64 41 43 12 6F 41 46 E9 79 C3 6D 99 9A C3 25 74 BC 00 00 00 00 C2 90 49 BA 77 FD 
7759.825 [RX] 01 03 15 10 00 14 40 0C 
7759.839 [RX] 01 03 28 00 00 00 00 00 00 00 00 00 00 00 00 41 40 31 27 41 44 08 31 41 47 DF 3B C3 70 0C 4A C3 26 51 EC 00 00 00 00 C2 92 04 19 F5 3F 
7760.221 [RX] 01 03 15 10 00 14 40 0C 
7760.271 [RX] 01 03 28 00 00 00 00 00 00 00 00 00 00 00 00 41 44 39 58 41 48 10 62 41 4B E7 6D C3 74 83 12 C3 29 A1 CB 00 00 00 00 C2 95 C2 8F 36 AC 
7760.628 [RX] 01 03 15 10 00 14 40 0C 
7760.643 [RX] 01 03 28 00 00 00 00 00 00 00 00 00 00 00 00 41 44 39 58 41 48 10 62 41 4B E7 6D C3 74 CC CD C3 2A 10 62 00 00 00 00 C2 95 78 D5 6B 27 
7761.016 [RX] 01 03 15 10 00 14 40 0C 
7761.032 [RX] 01 03 28 00 00 00 00 00 00 00 00 00 00 00 00 41 44 6A 7F 41 48 41 89 41 4C 18 93 C3 6D BE 77 C3 25 BE 77 00 00 00 00 C2 8F B6 46 61 38 
7761.423 [RX] 01 03 15 10 00 14 40 0C 
7761.436 [RX] 01 03 28 00 00 00 00 00 00 00 00 00 00 00 00 41 3C 5A 1D 41 40 93 75 41 44 CC CD C3 67 43 96 C3 22 24 DD 00 00 00 00 C2 8A 3D 71 FD 18 
7761.820 [RX] 01 03 15 10 00 14 40 0C 
7761.837 [RX] 01 03 28 00 00 00 00 00 00 00 00 00 00 00 00 41 3C 5A 1D 41 40 93 75 41 44 CC CD C3 66 1C AC C3 21 6C 8B 00 00 00 00 C2 89 16 87 0F D2 
7762.226 [RX] 01 03 15 10 00 14 40 0C 
7762.241 [RX] 01 03 28 00 00 00 00 00 00 00 00 00 00 00 00 41 3B 64 5A 41 3F 6C 8B 41 43 74 BC C3 65 89 37 C3 20 FD F4 00 00 00 00 C2 88 CC CD D2 03 
7762.626 [RX] 01 03 15 10 00 14 40 0C 
7762.643 [RX] 01 03 28 00 00 00 00 00 00 00 00 00 00 00 00 41 3A 6E 98 41 3E A7 F0 41 42 B0 21 C3 64 62 4E C3 20 45 A2 00 00 00 00 C2 88 39 58 9B CF 
7763.016 [RX] 01 03 15 10 00 14 40 0C 
7763.034 [RX] 01 03 28 00 00 00 00 00 00 00 00 00 00 00 00 41 3A 6E 98 41 3E A7 F0 41 42 B0 21 C3 65 1A A0 C3 20 8F 5C 00 00 00 00 C2 88 CC CD A0 1F 
7763.421 [RX] 01 03 15 10 00 14 40 0C 
7763.435 [RX] 01 03 28 00 00 00 00 00 00 00 00 00 00 00 00 41 3B 02 0C 41 3F 3B 64 41 43 74 BC C3 63 60 42 C3 1F B2 2D 00 00 00 00 C2 87 5C 29 A7 A8 
7763.836 [RX] 01 03 15 10 00 14 40 0C 
7763.851 [RX] 01 03 28 00 00 00 00 00 00 00 00 00 00 00 00 41 36 F9 DB 41 3B 02 0C 41 3F 0A 3D C3 5C 76 C9 C3 1B A9 FC 00 00 00 00 C2 81 4F DF 72 53 
7764.232 [RX] 01 03 15 10 00 14 40 0C 
7764.248 [RX] 01 03 28 00 00 00 00 00 00 00 00 00 00 00 00 41 36 F9 DB 41 3B 02 0C 41 3F 0A 3D C3 5A 4D D3 C3 1A 39 58 00 00 00 00 C2 7F BE 77 05 A8 
7764.635 [RX] 01 03 15 10 00 14 40 0C 
7764.648 [RX] 01 03 28 00 00 00 00 00 00 00 00 00 00 00 00 41 33 53 F8 41 37 8D 50 41 3B 95 81 C3 61 12 6F C3 1E 1C AC 00 00 00 00 C2 85 EB 85 63 52 
7765.045 [RX] 01 03 15 10 00 14 40 0C 
7765.060 [RX] 01 03 28 00 00 00 00 00 00 00 00 00 00 00 00 41 3F 6C 8B 41 43 A5 E3 41 47 DF 3B C3 71 0E 56 C3 28 0C 4A 00 00 00 00 C2 91 BA 5E 8E 40 
7765.451 [RX] 01 03 15 10 00 14 40 0C 
7765.468 [RX] 01 03 28 00 00 00 00 00 00 00 00 00 00 00 00 41 3F 6C 8B 41 43 A5 E3 41 47 DF 3B C3 75 A9 FC C3 2B 37 4C 00 00 00 00 C2 94 E5 60 49 50 
7765.832 [RX] 01 03 15 10 00 14 40 0C 
7765.847 [RX] 01 03 28 00 00 00 00 00 00 00 00 00 00 00 00 41 46 56 04 41 4A 8F 5C 41 4E C8 B4 C3 74 83 12 C3 2A 7E FA 00 00 00 00 C2 94 08 31 91 20 
7766.228 [RX] 01 03 15 10 00 14 40 0C 
7766.244 [RX] 01 03 28 00 00 00 00 00 00 00 00 00 00 00 00 41 44 CC CD 41 49 06 25 41 4D 3F 7D C3 72 ED 91 C3 29 7C EE 00 00 00 00 C2 92 E1 48 65 DC 
7766.639 [RX] 01 03 15 10 00 14 40 0C 
7766.655 [RX] 01 03 28 00 00 00 00 00 00 00 00 00 00 00 00 41 44 CC CD 41 49 06 25 41 4D 3F 7D C3 71 33 33 C3 28 56 04 00 00 00 00 C2 91 70 A4 71 2F 
7767.035 [RX] 01 03 15 10 00 14 40 0C 
7767.048 [RX] 01 03 28 00 00 00 00 00 00 00 00 00 00 00 00 41 43 43 96 41 47 4B C7 41 4B 53 F8 C3 70 0C 4A C3 27 78 D5 00 00 00 00 C2 90 DD 2F C0 00 
7767.431 [RX] 01 03 15 10 00 14 40 0C 
7767.446 [RX] 01 03 28 00 00 00 00 00 00 00 00 00 00 00 00 41 41 89 37 41 45 F3 B6 41 4A 2D 0E C3 6E E5 60 C3 26 C0 83 00 00 00 00 C2 90 00 00 D7 C3 
7767.841 [RX] 01 03 15 10 00 14 40 0C 
7767.857 [RX] 01 03 28 00 00 00 00 00 00 00 00 00 00 00 00 41 41 89 37 41 45 F3 B6 41 4A 2D 0E C3 70 31 27 C3 27 9D B2 00 00 00 00 C2 90 DD 2F BF C2 
7768.237 [RX] 01 03 15 10 00 14 40 0C 
7768.251 [RX] 01 03 28 00 00 00 00 00 00 00 00 00 00 00 00 41 42 1C AC 41 46 B8 52 41 4B 22 D1 C3 6E C0 83 C3 26 E5 60 00 00 00 00 C2 8F 6C 8B AB F8 
7768.644 [RX] 01 03 15 10 00 14 40 0C 
7768.659 [RX] 01 03 28 00 00 00 00 00 00 00 00 00 00 00 00 41 40 93 75 41 44 CC CD 41 49 06 25 C3 6D E3 54 C3 26 51 EC 00 00 00 00 C2 8E D9 17 65 6F 
7769.042 [RX] 01 03 15 10 00 14 40 0C 
7769.055 [RX] 01 03 28 00 00 00 00 00 00 00 00 00 00 00 00 41 40 93 75 41 44 CC CD 41 49 06 25 C3 6F 2F 1B C3 27 0A 3D 00 00 00 00 C2 90 49 BA EA DB 
7769.443 [RX] 01 03 15 10 00 14 40 0C 
7769.458 [RX] 01 03 28 00 00 00 00 00 00 00 00 00 00 00 00 41 41 89 37 41 45 C2 8F 41 49 CA C1 C3 64 62 4E C3 20 B4 39 00 00 00 00 C2 87 5C 29 05 DF 
7769.838 [RX] 01 03 15 10 00 14 40 0C 
7769.852 [RX] 01 03 28 00 00 00 00 00 00 00 00 00 00 00 00 41 34 49 BA 41 38 83 12 41 3C BC 6A C3 5B 2B 02 C3 1A A7 F0 00 00 00 00 C2 81 06 25 4B 57 
7770.239 [RX] 01 03 15 10 00 14 40 0C 
7770.253 [RX] 01 03 28 00 00 00 00 00 00 00 00 00 00 00 00 41 34 49 BA 41 38 83 12 41 3C BC 6A C3 66 B0 21 C3 21 47 AE 00 00 00 00 C2 8A D0 E5 17 5D 
7770.640 [RX] 01 03 15 10 00 14 40 0C 
7770.654 [RX] 01 03 28 00 00 00 00 00 00 00 00 00 00 00 00 41 3C BC 6A 41 41 58 10 41 45 F3 B6 C3 6F 78 D5 C3 26 C0 83 00 00 00 00 C2 91 26 E9 FA DF 
7771.040 [RX] 01 03 15 10 00 14 40 0C 
7771.055 [RX] 01 03 28 00 00 00 00 00 00 00 00 00 00 00 00 41 43 74 BC 41 48 10 62 41 4C 7A E1 C3 72 A3 D7 C3 28 E9 79 00 00 00 00 C2 93 2B 02 8C 7B 
7771.442 [RX] 01 03 15 10 00 14 40 0C 
7771.473 [RX] 01 03 28 00 00 00 00 00 00 00 00 00 00 00 00 41 43 74 BC 41 48 10 62 41 4C 7A E1 C3 74 14 7B C3 29 EB 85 00 00 00 00 C2 94 08 31 30 75 
7771.852 [RX] 01 03 15 10 00 14 40 0C 
7771.867 [RX] 01 03 28 00 00 00 00 00 00 00 00 00 00 00 00 41 44 CC CD 41 49 37 4C 41 4D A1 CB C3 70 7A E1 C3 27 E7 6D 00 00 00 00 C2 90 DD 2F C3 B2 
7772.254 [RX] 01 03 15 10 00 14 40 0C 
7772.271 [RX] 01 03 28 00 00 00 00 00 00 00 00 00 00 00 00 41 41 26 E9 41 45 60 42 41 49 99 9A C3 6E 51 EC C3 26 76 C9 00 00 00 00 C2 8F B6 46 F9 84 
7772.639 [RX] 01 03 15 10 00 14 40 0C 
7772.653 [RX] 01 03 28 00 00 00 00 00 00 00 00 00 00 00 00 41 41 26 E9 41 45 60 42 41 49 99 9A C3 6E E5 60 C3 26 C0 83 00 00 00 00 C2 90 49 BA 7B 21 
7773.051 [RX] 01 03 15 10 00 14 40 0C 
7773.065 [RX] 01 03 28 00 00 00 00 00 00 00 00 00 00 00 00 41 41 58 10 41 46 24 DD 41 4A C0 83 C3 70 E9 79 C3 27 E7 6D 00 00 00 00 C2 92 04 19 9B 57 
7773.447 [RX] 01 03 15 10 00 14 40 0C 
7773.462 [RX] 01 03 28 00 00 00 00 00 00 00 00 00 00 00 00 41 41 EB 85 41 46 B8 52 41 4B 53 F8 C3 6E C0 83 C3 26 9B A6 00 00 00 00 C2 90 49 BA 27 DD 
7773.848 [RX] 01 03 15 10 00 14 40 0C 
7773.862 [RX] 01 03 28 00 00 00 00 00 00 00 00 00 00 00 00 41 41 EB 85 41 46 B8 52 41 4B 53 F8 C3 6C BC 6A C3 25 74 BC 00 00 00 00 C2 8E 8F 5C 81 A6 
7774.255 [RX] 01 03 15 10 00 14 40 0C 
7774.270 [RX] 01 03 28 00 00 00 00 00 00 00 00 00 00 00 00 41 3F CE D9 41 44 08 31 41 48 41 89 C3 6C E1 48 C3 25 4F DF 00 00 00 00 C2 8F 22 D1 A2 63 
7774.645 [RX] 01 03 15 10 00 14 40 0C 
7774.661 [RX] 01 03 28 00 00 00 00 00 00 00 00 00 00 00 00 41 3F CE D9 41 44 39 58 41 48 A3 D7 C3 6A DD 2F C3 24 28 F6 00 00 00 00 C2 8D 1E B8 7A 85 
7775.047 [RX] 01 03 15 10 00 14 40 0C 
7775.061 [RX] 01 03 28 00 00 00 00 00 00 00 00 00 00 00 00 41 3F CE D9 41 44 39 58 41 48 A3 D7 C3 5F C6 A8 C3 1D 3F 7D 00 00 00 00 C2 84 C4 9C 98 53 
7775.449 [RX] 01 03 15 10 00 14 40 0C 
7775.464 [RX] 01 03 28 00 00 00 00 00 00 00 00 00 00 00 00 41 36 66 66 41 3B 02 0C 41 3F 9D B2 C3 62 A7 F0 C3 1E D4 FE 00 00 00 00 C2 87 5C 29 9E E2 
7775.861 [RX] 01 03 15 10 00 14 40 0C 
7775.876 [RX] 01 03 28 00 00 00 00 00 00 00 00 00 00 00 00 41 3C BC 6A 41 41 89 37 41 46 24 DD C3 6C 4D D3 C3 24 97 8D 00 00 00 00 C2 8F 22 D1 DD D6 
7776.269 [RX] 01 03 15 10 00 14 40 0C 
7776.284 [RX] 01 03 28 00 00 00 00 00 00 00 00 00 00 00 00 41 3C BC 6A 41 41 89 37 41 46 24 DD C3 72 10 62 C3 28 7A E1 00 00 00 00 C2 93 2B 02 72 06 
7776.660 [RX] 01 03 15 10 00 14 40 0C 
7776.674 [RX� 01 03 28 00 00 00 00 00 00 00 00 00 00 00 00 41 43 A5 E3 41 48 41 89 41 4C AC 08 C3 74 39 58 C3 29 C6 A8 00 00 00 00 C2 94 E5 60 A5 84 
7777.056 [RX] 01 03 15 10 00 14 40 0C 
7777.072 [RX] 01 03 28 00 00 00 00 00 00 00 00 00 00 00 00 41 44 CC CD 41 49 68 73 41 4D D2 F2 C3 73 5C 29 C3 29 58 10 00 00 00 00 C2 93 BE 77 56 3C 
7777.451 [RX] 01 03 15 10 00 14 40 0C 
7777.465 [RX] 01 03 28 00 00 00 00 00 00 00 00 00 00 00 00 41 44 CC CD 41 49 68 73 41 4D D2 F2 C3 70 E9 79 C3 27 9D B2 00 00 00 00 C2 92 4D D3 B5 30 
7777.848 [RX] 01 03 15 10 00 14 40 0C 
7777.863 [RX] 01 03 28 00 00 00 00 00 00 00 00 00 00 00 00 41 41 EB 85 41 46 B8 52 41 4B 85 1F C3 6E E5 60 C3 26 51 EC 00 00 00 00 C2 91 26 E9 0D 5F 
7778.251 [RX] 01 03 15 10 00 14 40 0C 
7778.265 [RX] 01 03 28 00 00 00 00 00 00 00 00 00 00 00 00 41 41 BA 5E 41 46 87 2B 41 4B 53 F8 C3 71 0E 56 C3 27 9D B2 00 00 00 00 C2 92 E1 48 6F 45 
7778.672 [RX] 01 03 15 10 00 14 40 0C 
7778.686 [RX] 01 03 28 00 00 00 00 00 00 00 00 00 00 00 00 41 41 BA 5E 41 46 87 2B 41 4B 53 F8 C3 70 E9 79 C3 27 C2 8F 00 00 00 00 C2 92 4D D3 21 86 
7779.068 [RX] 01 03 15 10 00 14 40 0C 
7779.083 [RX] 01 03 28 00 00 00 00 00 00 00 00 00 00 00 00 41 42 7E FA 41 47 1A A0 41 4B 85 1F C3 6E 9B A6 C3 26 51 EC 00 00 00 00 C2 90 49 BA CF 4B 
7779.457 [RX] 01 03 15 10 00 14 40 0C 
7779.474 [RX] 01 03 28 00 00 00 00 00 00 00 00 00 00 00 00 41 40 00 00 41 44 9B A6 41 49 37 4C C3 6D BE 77 C3 25 BE 77 00 00 00 00 C2 90 00 00 51 55 
7779.851 [RX] 01 03 15 10 00 14 40 0C 
7779.866 [RX] 01 03 28 00 00 00 00 00 00 00 00 00 00 00 00 41 40 00 00 41 44 9B A6 41 49 37 4C C3 6F E7 6D C3 27 0A 3D 00 00 00 00 C2 91 70 A4 DB 35 
7780.253 [RX] 01 03 15 10 00 14 40 0C 
7780.268 [RX] 01 03 28 00 00 00 00 00 00 00 00 00 00 00 00 41 41 58 10 41 46 24 DD 41 4A F1 AA C3 66 D4 FE C3 21 91 68 00 00 00 00 C2 8A 3D 71 04 1C 
7780.648 [RX] 01 03 15 10 00 14 40 0C 
7780.665 [RX] 01 03 28 00 00 00 00 00 00 00 00 00 00 00 00 41 35 D2 F2 41 3A 9F BE 41 3F 6C 8B C3 5E 7A E1 C3 1C 62 4E 00 00 00 00 C2 83 E7 6D 97 FF 
7781.064 [RX] 01 03 15 10 00 14 40 0C 
7781.080 [RX] 01 03 28 00 00 00 00 00 00 00 00 00 00 00 00 41 35 D2 F2 41 3A 9F BE 41 3F 6C 8B C3 65 AE 14 C3 20 45 A2 00 00 00 00 C2 8A 87 2B E1 18 
7781.454 [RX] 01 03 15 10 00 14 40 0C 
7781.472 [RX] 01 03 28 00 00 00 00 00 00 00 00 00 00 00 00 41 3B 33 33 41 3F 6C 8B 41 43 A5 E3 C3 6D 99 9A C3 25 4F DF 00 00 00 00 C2 90 93 75 F0 09 
7781.855 [RX] 01 03 15 10 00 14 40 0C 
7781.873 [RX] 01 03 28 00 00 00 00 00 00 00 00 00 00 00 00 41 41 BA 5E 41 46 56 04 41 4A F1 AA C3 72 5A 1D C3 28 31 27 00 00 00 00 C2 94 51 EC 9A 09 
7782.276 [RX] 01 03 15 10 00 14 40 0C 
7782.295 [RX] 01 03 28 00 00 00 00 00 00 00 00 00 00 00 00 41 41 BA 5E 41 46 56 04 41 4A F1 AA C3 75 60 42 C3 2A 5A 1D 00 00 00 00 C2 96 0C 4A 79 06 
7782.676 [RX] 01 03 15 10 00 14 40 0C 
7782.692 [RX] 01 03 28 00 00 00 00 00 00 00 00 00 00 00 00 41 45 2F 1B 41 49 FB E7 41 4E C8 B4 C3 6F 9D B2 C3 27 0A 3D 00 00 00 00 C2 91 26 E9 AC F5 
7783.064 [RX] 01 03 15 10 00 14 40 0C 
7783.082 [RX] 01 03 28 00 00 00 00 00 00 00 00 00 00 00 00 41 40 31 27 41 43 D7 0A 41 47 7C EE C3 6C 04 19 C3 24 BC 6A 00 00 00 00 C2 8E 45 A2 57 BB 
7783.506 [RX] 01 03 15 10 00 14 40 0C 
7783.522 [RX] 01 03 28 00 00 00 00 00 00 00 00 00 00 00 00 41 40 31 27 41 43 D7 0A 41 47 7C EE C3 6C 72 B0 C3 24 E1 48 00 00 00 00 C2 8E D9 17 07 C8 
7783.877 [RX] 01 03 15 10 00 14 40 0C 
7783.894 [RX] 01 03 28 00 00 00 00 00 00 00 00 00 00 00 00 41 3F 6C 8B 41 43 12 6F 41 46 B8 52 C3 6E 51 EC C3 26 2D 0E 00 00 00 00 C2 90 49 BA E8 55 
7784.277 [RX] 01 03 15 10 00 14 40 0C 
7784.294 [RX] 01 03 28 00 00 00 00 00 00 00 00 00 00 00 00 41 40 C4 9C 41 44 6A 7F 41 48 10 62 C3 6C BC 6A C3 25 74 BC 00 00 00 00 C2 8E 8F 5C 2D 68 
7784.677 [RX] 01 03 15 10 00 14 40 0C 
7784.694 [RX] 01 03 28 00 00 00 00 00 00 00 00 00 00 00 00 41 40 C4 9C 41 44 6A 7F 41 48 10 62 C3 6A DD 2F C3 24 28 F6 00 00 00 00 C2 8D 68 73 4B C3 
7785.080 [RX] 01 03 15 10 00 14 40 0C 
7785.127 [RX] 01 03 28 00 00 00 00 00 00 00 00 00 00 00 00 41 3E 45 A2 41 42 1C AC 41 45 C2 8F C3 6B 95 81 C3 24 72 B0 00 00 00 00 C2 8D FB E7 58 EA 
7785.470 [RX] 01 03 15 10 00 14 40 0C 
7785.486 [RX] 01 03 28 00 00 00 00 00 00 00 00 00 00 00 00 41 3F 3B 64 41 42 E1 48 41 46 87 2B C3 6A 24 DD C3 23 BA 5E 00 00 00 00 C2 8C 8B 44 32 95 
7785.886 [RX] 01 03 15 10 00 14 40 0C 
7785.904 [RX] 01 03 28 00 00 00 00 00 00 00 00 00 00 00 00 41 3F 3B 64 41 42 E1 48 41 46 87 2B C3 5D E7 6D C3 1C 62 4E 00 00 00 00 C2 82 C0 83 A9 47 
7786.278 [RX] 01 03 15 10 00 14 40 0C 
7786.294 [RX] 01 03 28 00 00 00 00 00 00 00 00 00 00 00 00 41 34 DD 2F 41 38 51 EC 41 3B C6 A8 C3 5F EB 85 C3 1D 3F 7D 00 00 00 00 C2 85 58 10 4F 7E 
7786.684 [RX] 01 03 15 10 00 14 40 0C 
7786.698 [RX] 01 03 28 00 00 00 00 00 00 00 00 00 00 00 00 41 3B 64 5A 41 3F 0A 3D 41 42 7E FA C3 6A 00 00 C3 23 70 A4 00 00 00 00 C2 8D 1E B8 37 E0 
7787.084 [RX] 01 03 15 10 00 14 40 0C 
7787.099 [RX] 01 03 28 00 00 00 00 00 00 00 00 00 00 00 00 41 3B 64 5A 41 3F 0A 3D 41 42 7E FA C3 6E E5 60 C3 26 9B A6 00 00 00 00 C2 90 49 BA 04 8E 
7787.480 [RX] 01 03 15 10 00 14 40 0C 
7787.495 [RX] 01 03 28 00 00 00 00 00 00 00 00 00 00 00 00 41 41 58 10 41 44 FD F4 41 48 72 B0 C3 71 58 10 C3 27 E7 6D 00 00 00 00 C2 92 97 8D A3 71 
7787.881 [RX] 01 03 15 10 00 14 40 0C 
7787.928 [RX] 01 03 28 00 00 00 00 00 00 00 00 00 00 00 00 41 42 B0 21 41 46 87 2B 41 4A 2D 0E C3 6F E7 6D C3 27 53 F8 00 00 00 00 C2 90 DD 2F EB C8 
7788.290 [RX] 01 03 15 10 00 14 40 0C 
7788.306 [RX] 01 03 28 00 00 00 00 00 00 00 00 00 00 00 00 41 42 B0 21 41 46 87 2B 41 4A 2D 0E C3 6C 28 F6 C3 24 E1 48 00 00 00 00 C2 8E 45 A2 EB 21 
7788.691 [RX] 01 03 15 10 00 14 40 0C 
7788.707 [RX] 01 03 28 00 00 00 00 00 00 00 00 00 00 00 00 41 3F 6C 8B 41 43 12 6F 41 46 B8 52 C3 6A DD 2F C3 23 DF 3B 00 00 00 00 C2 8D B2 2D 29 D4 
7789.083 [RX] 01 03 15 10 00 14 40 0C 
7789.098 [RX] 01 03 28 00 00 00 00 00 00 00 00 00 00 00 00 41 3F 0A 3D 41 42 E1 48 41 46 87 2B C3 6D 4F DF C3 25 4F DF 00 00 00 00 C2 8F B6 46 A5 6E 
7789.485 [RX] 01 03 15 10 00 14 40 0C 
7789.502 [RX] 01 03 28 00 00 00 00 00 00 00 00 00 00 00 00 41 3F 0A 3D 41 42 E1 48 41 46 87 2B C3 6D 4F DF C3 25 74 BC 00 00 00 00 C2 8F B6 46 68 86 
7789.885 [RX] 01 03 15 10 00 14 40 0C 
7789.902 [RX] 01 03 28 00 00 00 00 00 00 00 00 00 00 00 00 41 40 00 00 41 43 D7 0A 41 47 7C EE C3 6B 70 A4 C3 24 28 F6 00 00 00 00 C2 8E 45 A2 31 A4 
7790.280 [RX] 01 03 15 10 00 14 40 0C 
7790.295 [RX] 01 03 28 00 00 00 00 00 00 00 00 00 00 00 00 41 3E 76 C9 41 42 7E FA 41 46 87 2B C3 6B DF 3B C3 24 72 B0 00 00 00 00 C2 8E D9 17 C5 7B 
7790.686 [RX] 01 03 15 10 00 14 40 0C 
7790.702 [RX] 01 03 28 00 00 00 00 00 00 00 00 00 00 00 00 41 3E 76 C9 41 42 7E FA 41 46 87 2B C3 6D 2B 02 C3 25 2B 02 00 00 00 00 C2 90 00 00 6A D9 
7791.081 [RX] 01 03 15 10 00 14 40 0C 
7791.095 [RX] 01 03 28 00 00 00 00 00 00 00 00 00 00 00 00 41 3F 9D B2 41 43 A5 E3 41 47 AE 14 C3 64 D0 E5 C3 20 45 A2 00 00 00 00 C2 89 16 87 8A CE 
7791.499 [RX] 01 03 15 10 00 14 40 0C 
7791.514 [RX] 01 03 28 00 00 00 00 00 00 00 00 00 00 00 00 41 33 E7 6D 41 37 EF 9E 41 3B C6 A8 C3 5B 99 9A C3 1A 83 12 00 00 00 00 C2 82 2D 0E 39 5A 
7791.896 [RX] 01 03 15 10 00 14 40 0C 
7791.926 [RX] 01 03 28 00 00 00 00 00 00 00 00 00 00 00 00 41 33 E7 6D 41 37 EF 9E 41 3B C6 A8 C3 66 1C AC C3 20 45 A2 00 00 00 00 C2 8B 64 5A E0 69 
7792.291 [RX] 01 03 15 10 00 14 40 0C 
7792.306 [RX] 01 03 28 00 00 00 00 00 00 00 00 00 00 00 00 41 3B C6 A8 41 3F CE D9 41 43 D7 0A C3 6D E3 54 C3 25 74 BC 00 00 00 00 C2 90 93 75 F0 B3 
7792.687 [RX] 01 03 15 10 00 14 40 0C 
7792.703 [RX] 01 03 28 00 00 00 00 00 00 00 00 00 00 00 00 41 41 58 10 41 45 60 42 41 49 68 73 C3 71 33 33 C3 27 9D B2 00 00 00 00 C2 93 2B 02 13 F1 
7793.088 [RX] 01 03 15 10 00 14 40 0C 
7793.102 [RX] 01 03 28 00 00 00 00 00 00 00 00 00 00 00 00 41 41 58 10 41 45 60 42 41 49 68 73 C3 71 A1 CB C3 28 0C 4A 00 00 00 00 C2 93 2B 02 DB 72 
7793.473 [RX] 01 03 15 10 00 14 40 0C 
7793.487 [RX] 01 03 28 00 00 00 00 00 00 00 00 00 00 00 00 41 42 7E FA 41 46 87 2B 41 4A 8F 5C C3 6E E5 60 C3 26 2D 0E 00 00 00 00 C2 91 26 E9 25 9E 
7793.899 [RX] 01 03 15 10 00 14 40 0C 
7793.913 [RX] 01 03 28 00 00 00 00 00 00 00 00 00 00 00 00 41 3F 6C 8B 41 43 74 BC 41 47 7C EE C3 6B 4B C7 C3 24 28 F6 00 00 00 00 C2 8E 45 A2 CE B8 
7794.285 [RX] 01 03 15 10 00 14 40 0C 
7794.299 [RX] 01 03 28 00 00 00 00 00 00 00 00 00 00 00 00 41 3F 6C 8B 41 43 74 BC 41 47 7C EE C3 6B 02 0C C3 23 DF 3B 00 00 00 00 C2 8E 45 A2 3B 43 
7794.705 [RX] 01 03 15 10 00 14 40 0C 
7794.721 [RX] 01 03 28 00 00 00 00 00 00 00 00 00 00 00 00 41 3E A7 F0 41 42 7E FA 41 46 56 04 C3 6E 2D 0E C3 25 E3 54 00 00 00 00 C2 90 93 75 17 42 
7795.115 [RX] 01 03 15 10 00 14 40 0C 
7795.129 [RX] 01 03 28 00 00 00 00 00 00 00 00 00 00 00 00 41 3F CE D9 41 43 D7 0A 41 47 DF 3B C3 6C 4D D3 C3 24 BC 6A 00 00 00 00 C2 8F 22 D1 69 69 
7795.492 [RX] 01 03 15 10 00 14 40 0C 
7795.507 [RX] 01 03 28 00 00 00 00 00 00 00 00 00 00 00 00 41 3F CE D9 41 43 D7 0A 41 47 DF 3B C3 6B 4B C7 C3 24 04 19 00 00 00 00 C2 8E 8F 5C 02 83 
7795.894 [RX] 01 03 15 10 00 14 40 0C 
7795.908 [RX] 01 03 28 00 00 00 00 00 00 00 00 00 00 00 00 41 3E 14 7B 41 42 1C AC 41 45 F3 B6 C3 6C 72 B0 C3 24 BC 6A 00 00 00 00 C2 8F 22 D1 B0 1D 
7796.289 [RX] 01 03 15 10 00 14 40 0C 
7796.304 [RX] 01 03 28 00 00 00 00 00 00 00 00 00 00 00 00 41 3F 6C 8B 41 43 74 BC 41 47 4B C7 C3 6A 93 75 C3 23 95 81 00 00 00 00 C2 8D B2 2D 27 0E 
7796.700 [RX] 01 03 15 10 00 14 40 0C 
7796.714 [RX] 01 03 28 00 00 00 00 00 00 00 00 00 00 00 00 41 3F 6C 8B 41 43 74 BC 41 47 4B C7 C3 5E E9 79 C3 1C AC 08 00 00 00 00 C2 84 31 27 5C 08 
7797.105 [RX] 01 03 15 10 00 14 40 0C 
7797.123 [RX] 01 03 28 00 00 00 00 00 00 00 00 00 00 00 00 41 35 3F 7D 41 39 16 87 41 3C ED 91 C3 61 EF 9E C3 1D F7 CF 00 00 00 00 C2 87 A5 E3 CB B1 
7797.500 [RX] 01 03 15 10 00 14 40 0C 
7797.516 [RX] 01 03 28 00 00 00 00 00 00 00 00 00 00 00 00 41 3B 95 81 41 3F 9D B2 41 43 74 BC C3 6B 26 E9 C3 23 BA 5E 00 00 00 00 C2 8E D9 17 4C EB 
7797.921 [RX] 01 03 15 10 00 14 40 0C 
7797.937 [RX] 01 03 28 00 00 00 00 00 00 00 00 00 00 00 00 41 3B 95 81 41 3F 9D B2 41 43 74 BC C3 70 9F BE C3 27 2F 1B 00 00 00 00 C2 92 97 8D 1D 4D 
7798.297 [RX] 01 03 15 10 00 14 40 0C 
7798.313 [RX] 01 03 28 00 00 00 00 00 00 00 00 00 00 00 00 41 41 BA 5E 41 45 C2 8F 41 49 CA C1 C3 73 A5 E3 C3 29 33 33 00 00 00 00 C2 94 E5 60 15 9B 
7798.719 [RX] 01 03 15 10 00 14 40 0C 
7798.735 [RX] 01 03 28 00 00 00 00 00 00 00 00 00 00 00 00 41 44 39 58 41 48 41 89 41 4C 49 BA C3 72 35 3F C3 28 31 27 00 00 00 00 C2 93 BE 77 E7 66 
7799.094 [RX] 01 03 15 10 00 14 40 0C 
7799.110 [RX] 01 03 28 00 00 00 00 00 00 00 00 00 00 00 00 41 44 39 58 41 48 41 89 41 4C 49 BA C3 6E 2D 0E C3 25 BE 77 00 00 00 00 C2 90 93 75 3C E0 
