7657.987 [RX] 01 03 15 10 00 14 40 0C 
7658.003 [RX] 01 03 28 00 00 00 00 00 00 00 00 00 00 00 00 41 3E D9 17 41 43 74 BC 41 48 10 62 C3 73 CA C1 C3 27 9D B2 00 00 00 00 C2 98 10 62 47 AC 
7658.363 [RX] 01 03 15 10 00 14 40 0C 
7658.378 [RX] 01 03 28 00 00 00 00 00 00 00 00 00 00 00 00 41 41 89 37 41 46 24 DD 41 4A C0 83 C3 71 C6 A8 C3 26 76 C9 00 00 00 00 C2 96 56 04 FE C5 
7658.768 [RX] 01 03 15 10 00 14 40 0C 
7658.807 [RX] 01 03 28 00 00 00 00 00 00 00 00 00 00 00 00 41 3F CE D9 41 44 08 31 41 48 41 89 C3 70 0C 4A C3 26 2D 0E 00 00 00 00 C2 93 BE 77 41 1C 
7659.180 [RX] 01 03 15 10 00 14 40 0C 
7659.197 [RX] 01 03 28 00 00 00 00 00 00 00 00 00 00 00 00 41 3F CE D9 41 44 08 31 41 48 41 89 C3 72 10 62 C3 26 E5 60 00 00 00 00 C2 96 56 04 C1 B9 
7659.575 [RX] 01 03 15 10 00 14 40 0C 
7659.590 [RX] 01 03 28 00 00 00 00 00 00 00 00 00 00 00 00 41 40 F5 C3 41 45 91 68 41 4A 2D 0E C3 71 7C EE C3 26 51 EC 00 00 00 00 C2 96 56 04 19 28 
7659.976 [RX] 01 03 15 10 00 14 40 0C 
7659.991 [RX] 01 03 28 00 00 00 00 00 00 00 00 00 00 00 00 41 3E 14 7B 41 42 B0 21 41 47 1A A0 C3 6D 99 9A C3 24 04 19 00 00 00 00 C2 93 2B 02 DA 1E 
7660.396 [RX] 01 03 15 10 00 14 40 0C 
7660.413 [RX] 01 03 28 00 00 00 00 00 00 00 00 00 00 00 00 41 3E 14 7B 41 42 B0 21 41 47 1A A0 C3 6A DD 2F C3 22 49 BA 00 00 00 00 C2 91 26 E9 EF 22 
7660.761 [RX] 01 03 15 10 00 14 40 0C 
7660.777 [RX] 01 03 28 00 00 00 00 00 00 00 00 00 00 00 00 41 3B 95 81 41 40 31 27 41 44 9B A6 C3 6C 28 F6 C3 23 02 0C 00 00 00 00 C2 92 04 19 12 3B 
7661.168 [RX] 01 03 15 10 00 14 40 0C 
7661.184 [RX] 01 03 28 00 00 00 00 00 00 00 00 00 00 00 00 41 3C 8B 44 41 41 58 10 41 45 F3 B6 C3 6C 28 F6 C3 23 02 0C 00 00 00 00 C2 92 04 19 40 4D 
7661.568 [RX] 01 03 15 10 00 14 40 0C 
7661.584 [RX] 01 03 28 00 00 00 00 00 00 00 00 00 00 00 00 41 3C 8B 44 41 41 58 10 41 45 F3 B6 C3 6A 24 DD C3 21 B6 46 00 00 00 00 C2 90 DD 2F D7 F7 
7661.970 [RX] 01 03 15 10 00 14 40 0C 
7661.985 [RX] 01 03 28 00 00 00 00 00 00 00 00 00 00 00 00 41 3A 3D 71 41 3F 0A 3D 41 43 A5 E3 C3 68 FD F4 C3 20 FD F4 00 00 00 00 C2 90 00 00 A4 34 
7662.367 [RX] 01 03 15 10 00 14 40 0C 
7662.383 [RX] 01 03 28 00 00 00 00 00 00 00 00 00 00 00 00 41 3B 64 5A 41 40 00 00 41 44 6A 7F C3 6B 26 E9 C3 22 49 BA 00 00 00 00 C2 91 BA 5E C3 6C 
7662.768 [RX] 01 03 15 10 00 14 40 0C 
7662.785 [RX] 01 03 28 00 00 00 00 00 00 00 00 00 00 00 00 41 3B 64 5A 41 40 00 00 41 44 6A 7F C3 6E 9B A6 C3 24 72 B0 00 00 00 00 C2 94 51 EC 9E AB 
7663.169 [RX] 01 03 15 10 00 14 40 0C 
7663.183 [RX] 01 03 28 00 00 00 00 00 00 00 00 00 00 00 00 41 3E A7 F0 41 43 43 96 41 47 AE 14 C3 73 37 4C C3 27 53 F8 00 00 00 00 C2 97 C6 A8 01 63 
7663.590 [RX] 01 03 15 10 00 14 40 0C 
7663.606 [RX] 01 03 28 00 00 00 00 00 00 00 00 00 00 00 00 41 42 1C AC 41 46 E9 79 41 4B 85 1F C3 74 5E 35 C3 28 0C 4A 00 00 00 00 C2 98 A3 D7 44 83 
7663.985 [RX] 01 03 15 10 00 14 40 0C 
7663.999 [RX] 01 03 28 00 00 00 00 00 00 00 00 00 00 00 00 41 42 1C AC 41 46 E9 79 41 4B 85 1F C3 70 9F BE C3 25 99 9A 00 00 00 00 C2 95 C2 8F 6C 66 
7664.386 [RX] 01 03 15 10 00 14 40 0C 
7664.402 [RX] 01 03 28 00 00 00 00 00 00 00 00 00 00 00 00 41 3F 6C 8B 41 44 39 58 41 48 D4 FE C3 71 7C EE C3 26 08 31 00 00 00 00 C2 96 9F BE D1 65 
7664.798 [RX] 01 03 15 10 00 14 40 0C 
7664.814 [RX] 01 03 28 00 00 00 00 00 00 00 00 00 00 00 00 41 40 31 27 41 44 CC CD 41 49 68 73 C3 71 58 10 C3 26 2D 0E 00 00 00 00 C2 96 0C 4A 47 8C 
7665.175 [RX] 01 03 15 10 00 14 40 0C 
7665.189 [RX] 01 03 28 00 00 00 00 00 00 00 00 00 00 00 00 41 40 31 27 41 44 CC CD 41 49 68 73 C3 70 56 04 C3 25 99 9A 00 00 00 00 C2 95 78 D5 F9 7E 
7665.576 [RX] 01 03 15 10 00 14 40 0C 
7665.590 [RX] 01 03 28 00 00 00 00 00 00 00 00 00 00 00 00 41 3E D9 17 41 43 74 BC 41 47 DF 3B C3 6D 06 25 C3 23 95 81 00 00 00 00 C2 92 E1 48 E7 96 
7665.982 [RX] 01 03 15 10 00 14 40 0C 
7665.998 [RX] 01 03 28 00 00 00 00 00 00 00 00 00 00 00 00 41 3C 8B 44 41 41 58 10 41 45 F3 B6 C3 6D 2B 02 C3 23 4B C7 00 00 00 00 C2 93 BE 77 9E B9 
7666.372 [RX] 01 03 15 10 00 14 40 0C 
7666.388 [RX] 01 03 28 00 00 00 00 00 00 00 00 00 00 00 00 41 3C 8B 44 41 41 58 10 41 45 F3 B6 C3 6E 08 31 C3 24 04 19 00 00 00 00 C2 94 08 31 04 0E 
7666.778 [RX] 01 03 15 10 00 14 40 0C 
7666.796 [RX] 01 03 28 00 00 00 00 00 00 00 00 00 00 00 00 41 3D 1E B8 41 41 EB 85 41 46 B8 52 C3 6D 06 25 C3 23 4B C7 00 00 00 00 C2 93 2B 02 75 8D 
7667.174 [RX] 01 03 15 10 00 14 40 0C 
7667.188 [RX] 01 03 28 00 00 00 00 00 00 00 00 00 00 00 00 41 3B 02 0C 41 3F 9D B2 41 44 39 58 C3 6A 24 DD C3 21 DB 23 00 00 00 00 C2 90 49 BA 85 CF 
7667.566 [RX] 01 03 15 10 00 14 40 0C 
7667.582 [RX] 01 03 28 00 00 00 00 00 00 00 00 00 00 00 00 41 3B 02 0C 41 3F 9D B2 41 44 39 58 C3 6A 93 75 C3 22 00 00 00 00 00 00 C2 90 DD 2F F4 07 
7667.988 [RX] 01 03 15 10 00 14 40 0C 
7668.004 [RX] 01 03 28 00 00 00 00 00 00 00 00 00 00 00 00 41 3B F7 CF 41 40 62 4E 41 44 CC CD C3 6C 97 8D C3 23 70 A4 00 00 00 00 C2 92 4D D3 24 73 
7668.385 [RX] 01 03 15 10 00 14 40 0C 
7668.402 [RX] 01 03 28 00 00 00 00 00 00 00 00 00 00 00 00 41 3F 0A 3D 41 43 74 BC 41 47 DF 3B C3 72 35 3F C3 26 9B A6 00 00 00 00 C2 96 E9 79 D1 C7 
7668.790 [RX] 01 03 15 10 00 14 40 0C 
7668.806 [RX] 01 03 28 00 00 00 00 00 00 00 00 00 00 00 00 41 3F 0A 3D 41 43 74 BC 41 47 DF 3B C3 75 16 87 C3 28 7A E1 00 00 00 00 C2 98 ED 91 00 9A 
7669.171 [RX] 01 03 15 10 00 14 40 0C 
7669.189 [RX] 01 03 28 00 00 00 00 00 00 00 00 00 00 00 00 41 42 4D D3 41 47 1A A0 41 4B B6 46 C3 72 C8 B4 C3 27 2F 1B 00 00 00 00 C2 96 E9 79 D0 54 
7669.571 [RX] 01 03 15 10 00 14 40 0C 
7669.586 [RX] 01 03 28 00 00 00 00 00 00 00 00 00 00 00 00 41 3F 6C 8B 41 44 6A 7F 41 49 37 4C C3 70 E9 79 C3 26 08 31 00 00 00 00 C2 95 C2 8F 1F 92 
7669.967 [RX] 01 03 15 10 00 14 40 0C 
7669.982 [RX] 01 03 28 00 00 00 00 00 00 00 00 00 00 00 00 41 3F 6C 8B 41 44 6A 7F 41 49 37 4C C3 72 35 3F C3 26 E5 60 00 00 00 00 C2 96 9F BE DA F2 
7670.377 [RX] 01 03 15 10 00 14 40 0C 
7670.393 [RX] 01 03 28 00 00 00 00 00 00 00 00 00 00 00 00 41 40 F5 C3 41 45 91 68 41 49 FB E7 C3 71 EB 85 C3 26 C0 83 00 00 00 00 C2 96 56 04 A9 8E 
7670.782 [RX] 01 03 15 10 00 14 40 0C 
7670.796 [RX] 01 03 28 00 00 00 00 00 00 00 00 00 00 00 00 41 3F 0A 3D 41 43 A5 E3 41 48 10 62 C3 6F 2F 1B C3 25 2B 02 00 00 00 00 C2 94 08 31 51 88 
7671.181 [RX] 01 03 15 10 00 14 40 0C 
7671.196 [RX] 01 03 28 00 00 00 00 00 00 00 00 00 00 00 00 41 3F 0A 3D 41 43 A5 E3 41 48 10 62 C3 6E 2D 0E C3 24 4D D3 00 00 00 00 C2 93 BE 77 90 84 
7671.571 [RX] 01 03 15 10 00 14 40 0C 
7671.586 [RX] 01 03 28 00 00 00 00 00 00 00 00 00 00 00 00 41 3D B2 2D 41 42 4D D3 41 46 E9 79 C3 6E 9B A6 C3 24 72 B0 00 00 00 00 C2 94 08 31 69 DA 
7671.963 [RX] 01 03 15 10 00 14 40 0C 
7671.979 [RX] 01 03 28 00 00 00 00 00 00 00 00 00 00 00 00 41 3D 4F DF 41 42 1C AC 41 46 E9 79 C3 6D 99 9A C3 24 04 19 00 00 00 00 C2 93 2B 02 DA 50 
7672.374 [RX] 01 03 15 10 00 14 40 0C 
7672.390 [RX] 01 03 28 00 00 00 00 00 00 00 00 00 00 00 00 41 3D 4F DF 41 42 1C AC 41 46 E9 79 C3 6A B8 52 C3 22 24 DD 00 00 00 00 C2 90 DD 2F A8 A0 
7672.789 [RX] 01 03 15 10 00 14 40 0C 
7672.804 [RX] 01 03 28 00 00 00 00 00 00 00 00 00 00 00 00 41 3B 02 0C 41 3F 6C 8B 41 43 A5 E3 C3 69 22 D1 C3 21 47 AE 00 00 00 00 C2 8F B6 46 84 55 
7673.184 [RX] 01 03 15 10 00 14 40 0C 
7673.200 [RX] 01 03 28 00 00 00 00 00 00 00 00 00 00 00 00 41 3B C6 A8 41 40 62 4E 41 44 CC CD C3 6B BA 5E C3 22 B8 52 00 00 00 00 C2 91 BA 5E BD BB 
7673.575 [RX] 01 03 15 10 00 14 40 0C 
7673.589 [RX] 01 03 28 00 00 00 00 00 00 00 00 00 00 00 00 41 3B C6 A8 41 40 62 4E 41 44 CC CD C3 6E 51 EC C3 24 4D D3 00 00 00 00 C2 94 08 31 69 A0 
7673.977 [RX] 01 03 15 10 00 14 40 0C 
7674.011 [RX] 01 03 28 00 00 00 00 00 00 00 00 00 00 00 00 41 3F 0A 3D 41 43 D7 0A 41 48 A3 D7 C3 74 CC CD C3 28 31 27 00 00 00 00 C2 99 37 4C 29 75 
7674.373 [RX] 01 03 15 10 00 14 40 0C 
7674.390 [RX] 01 03 28 00 00 00 00 00 00 00 00 00 00 00 00 41 42 4D D3 41 47 4B C7 41 4C 18 93 C3 74 5E 35 C3 28 31 27 00 00 00 00 C2 98 5A 1D 58 1C 
7674.779 [RX] 01 03 15 10 00 14 40 0C 
7674.794 [RX] 01 03 28 00 00 00 00 00 00 00 00 00 00 00 00 41 42 4D D3 41 47 4B C7 41 4C 18 93 C3 70 C4 9C C3 26 08 31 00 00 00 00 C2 95 78 D5 D1 40 
7675.180 [RX] 01 03 15 10 00 14 40 0C 
7675.194 [RX] 01 03 28 00 00 00 00 00 00 00 00 00 00 00 00 41 3F 0A 3D 41 43 A5 E3 41 48 10 62 C3 71 33 33 C3 26 76 C9 00 00 00 00 C2 95 2F 1B C7 51 
