7799.499 [RX] 01 03 15 10 00 14 40 0C 
7799.513 [RX] 01 03 28 00 00 00 00 00 00 00 00 00 00 00 00 41 40 31 27 41 44 39 58 41 48 41 89 C3 6D 4F DF C3 25 2B 02 00 00 00 00 C2 90 00 00 B2 70 
7799.909 [RX] 01 03 15 10 00 14 40 0C 
7799.925 [RX] 01 03 28 00 00 00 00 00 00 00 00 00 00 00 00 41 41 26 E9 41 45 60 42 41 49 99 9A C3 71 7C EE C3 27 9D B2 00 00 00 00 C2 93 BE 77 EC 8C 
7800.299 [RX] 01 03 15 10 00 14 40 0C 
7800.314 [RX] 01 03 28 00 00 00 00 00 00 00 00 00 00 00 00 41 41 26 E9 41 45 60 42 41 49 99 9A C3 70 56 04 C3 27 2F 1B 00 00 00 00 C2 92 4D D3 40 0C 
7800.705 [RX] 01 03 15 10 00 14 40 0C 
7800.722 [RX] 01 03 28 00 00 00 00 00 00 00 00 00 00 00 00 41 41 BA 5E 41 45 F3 B6 41 4A 2D 0E C3 6E 2D 0E C3 25 99 9A 00 00 00 00 C2 91 26 E9 CF 7D 
7801.112 [RX] 01 03 15 10 00 14 40 0C 
7801.126 [RX] 01 03 28 00 00 00 00 00 00 00 00 00 00 00 00 41 3F 3B 64 41 43 43 96 41 47 4B C7 C3 6D 06 25 C3 25 06 25 00 00 00 00 C2 8F B6 46 00 ED 
7801.518 [RX] 01 03 15 10 00 14 40 0C 
7801.533 [RX] 01 03 28 00 00 00 00 00 00 00 00 00 00 00 00 41 3F 3B 64 41 43 43 96 41 47 4B C7 C3 6F 78 D5 C3 26 2D 0E 00 00 00 00 C2 92 97 8D E0 98 
7801.913 [RX] 01 03 15 10 00 14 40 0C 
7801.927 [RX] 01 03 28 00 00 00 00 00 00 00 00 00 00 00 00 41 40 C4 9C 41 44 CC CD 41 48 A3 D7 C3 65 AE 14 C3 20 B4 39 00 00 00 00 C2 89 F3 B6 70 BE 
7802.319 [RX] 01 03 15 10 00 14 40 0C 
7802.334 [RX] 01 03 28 00 00 00 00 00 00 00 00 00 00 00 00 41 36 66 66 41 3A 6E 98 41 3E 76 C9 C3 60 C8 B4 C3 1D 3F 7D 00 00 00 00 C2 86 C8 B4 F7 5F 
7802.700 [RX] 01 03 15 10 00 14 40 0C 
7802.716 [RX] 01 03 28 00 00 00 00 00 00 00 00 00 00 00 00 41 36 66 66 41 3A 6E 98 41 3E 76 C9 C3 6A 49 BA C3 22 DD 2F 00 00 00 00 C2 8E 8F 5C D7 C0 
7803.122 [RX] 01 03 15 10 00 14 40 0C 
7803.138 [RX] 01 03 28 00 00 00 00 00 00 00 00 00 00 00 00 41 3E 45 A2 41 42 7E FA 41 46 B8 52 C3 70 31 27 C3 26 C0 83 00 00 00 00 C2 92 E1 48 F3 47 
7803.515 [RX] 01 03 15 10 00 14 40 0C 
7803.531 [RX] 01 03 28 00 00 00 00 00 00 00 00 00 00 00 00 41 43 43 96 41 47 AE 14 41 4B E7 6D C3 74 39 58 C3 29 58 10 00 00 00 00 C2 95 C2 8F 19 07 
7803.919 [RX] 01 03 15 10 00 14 40 0C 
7803.935 [RX] 01 03 28 00 00 00 00 00 00 00 00 00 00 00 00 41 43 43 96 41 47 AE 14 41 4B E7 6D C3 73 EF 9E C3 29 33 33 00 00 00 00 C2 95 2F 1B 32 41 
7804.327 [RX] 01 03 15 10 00 14 40 0C 
7804.343 [RX] 01 03 28 00 00 00 00 00 00 00 00 00 00 00 00 41 44 6A 7F 41 48 72 B0 41 4C 7A E1 C3 71 58 10 C3 27 9D B2 00 00 00 00 C2 93 2B 02 FB 68 
7804.722 [RX] 01 03 15 10 00 14 40 0C 
7804.737 [RX] 01 03 28 00 00 00 00 00 00 00 00 00 00 00 00 41 41 58 10 41 45 91 68 41 49 99 9A C3 6E E5 60 C3 26 08 31 00 00 00 00 C2 91 70 A4 7C 75 
7805.139 [RX] 01 03 15 10 00 14 40 0C 
7805.158 [RX] 01 03 28 00 00 00 00 00 00 00 00 00 00 00 00 41 41 89 37 41 45 F3 B6 41 4A 5E 35 C3 70 7A E1 C3 26 C0 83 00 00 00 00 C2 93 2B 02 CD 87 
7805.514 [RX] 01 03 15 10 00 14 40 0C 
7805.529 [RX] 01 03 28 00 00 00 00 00 00 00 00 00 00 00 00 41 41 89 37 41 45 F3 B6 41 4A 5E 35 C3 72 10 62 C3 27 E7 6D 00 00 00 00 C2 94 51 EC FC EB 
7805.929 [RX] 01 03 15 10 00 14 40 0C 
7805.944 [RX] 01 03 28 00 00 00 00 00 00 00 00 00 00 00 00 41 42 1C AC 41 46 87 2B 41 4A F1 AA C3 6F 78 D5 C3 26 2D 0E 00 00 00 00 C2 92 4D D3 3B 9F 
7806.356 [RX] 01 03 15 10 00 14 40 0C 
7806.370 [RX] 01 03 28 00 00 00 00 00 00 00 00 00 00 00 00 41 40 00 00 41 44 39 58 41 48 41 89 C3 6D E3 54 C3 25 99 9A 00 00 00 00 C2 90 49 BA 66 15 
7806.746 [RX] 01 03 15 10 00 14 40 0C 
7806.760 [RX] 01 03 28 00 00 00 00 00 00 00 00 00 00 00 00 41 40 00 00 41 44 39 58 41 48 41 89 C3 6F 0A 3D C3 26 2D 0E 00 00 00 00 C2 91 70 A4 84 8C 
7807.123 [RX] 01 03 15 10 00 14 40 0C 
7807.139 [RX] 01 03 28 00 00 00 00 00 00 00 00 00 00 00 00 41 41 26 E9 41 45 2F 1B 41 49 06 25 C3 6A 49 BA C3 23 70 A4 00 00 00 00 C2 8D 68 73 75 A9 
7807.528 [RX] 01 03 15 10 00 14 40 0C 
7807.547 [RX] 01 03 28 00 00 00 00 00 00 00 00 00 00 00 00 41 35 A1 CB 41 3A 0C 4A 41 3E 45 A2 C3 5E 7A E1 C3 1C 3D 71 00 00 00 00 C2 84 31 27 5E 60 
7807.928 [RX] 01 03 15 10 00 14 40 0C 
7807.944 [RX] 01 03 28 00 00 00 00 00 00 00 00 00 00 00 00 41 35 A1 CB 41 3A 0C 4A 41 3E 45 A2 C3 64 D0 E5 C3 1F 68 73 00 00 00 00 C2 8A 87 2B 52 8E 
7808.319 [RX] 01 03 15 10 00 14 40 0C 
7808.337 [RX] 01 03 28 00 00 00 00 00 00 00 00 00 00 00 00 41 3D 81 06 41 41 EB 85 41 46 24 DD C3 6E 08 31 C3 25 74 BC 00 00 00 00 C2 91 26 E9 70 D2 
7808.754 [RX] 01 03 15 10 00 14 40 0C 
7808.770 [RX] 01 03 28 00 00 00 00 00 00 00 00 00 00 00 00 41 43 43 96 41 47 7C EE 41 4B B6 46 C3 73 81 06 C3 28 E9 79 00 00 00 00 C2 94 E5 60 B5 6B 
7809.020 [RX] 01 03 15 0A 00 32 E0 11 
7809.038 [RX] 01 03 64 46 59 80 00 46 5A 10 00 46 59 B0 00 00 00 00 00 00 00 00 00 00 00 00 00 41 43 43 96 41 47 7C EE 41 4B B6 46 C3 72 10 62 C3 28 7A E1 00 00 00 00 C2 92 E1 48 C3 38 2D 0E C1 A1 47 AE 00 00 00 00 C3 23 DF 3B 43 97 58 10 43 29 C6 A8 00 00 00 00 43 33 B6 46 BF 4D 91 68 BF 7D B2 2D 00 00 00 00 BE D3 F7 CF 83 16 
7809.247 [RX] 01 03 15 4E 00 02 A0 10 
7809.262 [RX] 01 03 04 42 70 14 7B A0 B3 
7809.387 [RX] 01 03 18 1E 00 14 23 63 
7809.405 [RX] 01 03 28 47 EF E0 B1 47 11 BA CD 47 1A 3D ED 47 33 C8 A6 47 EB FA EE 48 25 E5 D2 47 85 52 D0 47 32 19 C6 47 5A D7 DF 48 23 FD A0 FF D7 
7809.547 [RX] 01 03 15 10 00 14 40 0C 
7809.565 [RX] 01 03 28 00 00 00 00 00 00 00 00 00 00 00 00 41 42 E1 48 41 48 D4 FE 41 4E 66 66 C3 6F 9D B2 C3 27 53 F8 00 00 00 00 C2 90 93 75 71 93 
7809.713 [RX] 01 03 15 10 00 14 40 0C 
7809.731 [RX] 01 03 28 00 00 00 00 00 00 00 00 00 00 00 00 41 42 E1 48 41 48 D4 FE 41 4E 66 66 C3 6E 51 EC C3 26 76 C9 00 00 00 00 C2 8F B6 46 8D D5 
7810.118 [RX] 01 03 15 10 00 14 40 0C 
7810.135 [RX] 01 03 28 00 00 00 00 00 00 00 00 00 00 00 00 41 3E A7 F0 41 44 39 58 41 49 99 9A C3 69 22 D1 C3 23 BA 5E 00 00 00 00 C2 8A D0 E5 C5 6C 
7810.523 [RX] 01 03 15 10 00 14 40 0C 
7810.539 [RX] 01 03 28 00 00 00 00 00 00 00 00 00 00 00 00 41 3E A7 F0 41 44 39 58 41 49 99 9A C3 69 DB 23 C3 24 04 19 00 00 00 00 C2 8B 64 5A 77 33 
7810.930 [RX] 01 03 15 10 00 14 40 0C 
7810.946 [RX] 01 03 28 00 00 00 00 00 00 00 00 00 00 00 00 41 3E 45 A2 41 43 A5 E3 41 48 A3 D7 C3 6A DD 2F C3 24 E1 48 00 00 00 00 C2 8B F7 CF 73 0A 
7811.330 [RX] 01 03 15 10 00 14 40 0C 
7811.346 [RX] 01 03 28 00 00 00 00 00 00 00 00 00 00 00 00 41 3E A7 F0 41 44 08 31 41 49 37 4C C3 69 B6 46 C3 24 04 19 00 00 00 00 C2 8B 64 5A 7B 4E 
7811.716 [RX] 01 03 15 10 00 14 40 0C 
7811.732 [RX] 01 03 28 00 00 00 00 00 00 00 00 00 00 00 00 41 3E A7 F0 41 44 08 31 41 49 37 4C C3 68 8F 5C C3 23 26 E9 00 00 00 00 C2 8A D0 E5 7C 4D 
7812.128 [RX] 01 03 15 10 00 14 40 0C 
7812.144 [RX] 01 03 28 00 00 00 00 00 00 00 00 00 00 00 00 41 3D 1E B8 41 42 7E FA 41 47 AE 14 C3 69 6C 8B C3 23 95 81 00 00 00 00 C2 8B 64 5A 90 8B 
7812.578 [RX] 01 03 15 10 00 14 40 0C 
7812.617 [RX] 01 03 28 00 00 00 00 00 00 00 00 00 00 00 00 41 3D 4F DF 41 42 E1 48 41 48 41 89 C3 64 AC 08 C3 20 B4 39 00 00 00 00 C2 87 EF 9E A7 99 
7812.939 [RX] 01 03 15 10 00 14 40 0C 
7812.956 [RX] 01 03 28 00 00 00 00 00 00 00 00 00 00 00 00 41 33 53 F8 41 39 16 87 41 3E A7 F0 C3 59 26 E9 C3 19 81 06 00 00 00 00 C2 7E 97 8D CF F0 
7813.341 [RX] 01 03 15 10 00 14 40 0C 
7813.356 [RX] 01 03 28 00 00 00 00 00 00 00 00 00 00 00 00 41 33 53 F8 41 39 16 87 41 3E A7 F0 C3 5C 9B A6 C3 1B 85 1F 00 00 00 00 C2 82 2D 0E 42 8D 
7813.739 [RX] 01 03 15 10 00 14 40 0C 
7813.753 [RX] 01 03 28 00 00 00 00 00 00 00 00 00 00 00 00 41 38 51 EC 41 3E 14 7B 41 43 74 BC C3 66 1C AC C3 21 47 AE 00 00 00 00 C2 89 A9 FC 1F 42 
7814.137 [RX] 01 03 15 10 00 14 40 0C 
7814.156 [RX] 01 03 28 00 00 00 00 00 00 00 00 00 00 00 00 41 3E 76 C9 41 44 6A 7F 41 49 FB E7 C3 6B 02 0C C3 24 72 B0 00 00 00 00 C2 8C D4 FE 18 84 
7814.537 [RX] 01 03 15 10 00 14 40 0C 
7814.553 [RX] 01 03 28 00 00 00 00 00 00 00 00 00 00 00 00 41 3E 76 C9 41 44 6A 7F 41 49 FB E7 C3 6F 2F 1B C3 27 0A 3D 00 00 00 00 C2 90 49 BA 18 CB 
7814.927 [RX] 01 03 15 10 00 14 40 0C 
7814.943 [RX] 01 03 28 00 00 00 00 00 00 00 00 00 00 00 00 41 41 26 E9 41 46 E9 79 41 4C 7A E1 C3 6E 2D 0E C3 26 51 EC 00 00 00 00 C2 8F B6 46 B8 C2 
7815.337 [RX] 01 03 15 10 00 14 40 0C 
7815.358 [RX] 01 03 28 00 00 00 00 00 00 00 00 00 00 00 00 41 3D B2 2D 41 43 74 BC 41 49 06 25 C3 69 B6 46 C3 23 95 81 00 00 00 00 C2 8B F7 CF E1 15 
7815.748 [RX] 01 03 15 10 00 14 40 0C 
7815.765 [RX] 01 03 28 00 00 00 00 00 00 00 00 00 00 00 00 41 3D B2 2D 41 43 74 BC 41 49 06 25 C3 68 45 A2 C3 22 6E 98 00 00 00 00 C2 8B 64 5A D8 D6 
7816.160 [RX] 01 03 15 10 00 14 40 0C 
7816.177 [RX] 01 03 28 00 00 00 00 00 00 00 00 00 00 00 00 41 3C ED 91 41 42 E1 48 41 48 72 B0 C3 6A 00 00 C3 23 BA 5E 00 00 00 00 C2 8C 8B 44 13 83 
7816.560 [RX] 01 03 15 10 00 14 40 0C 
7816.574 [RX] 01 03 28 00 00 00 00 00 00 00 00 00 00 00 00 41 3E A7 F0 41 43 A5 E3 41 48 72 B0 C3 69 DB 23 C3 24 72 B0 00 00 00 00 C2 8A 87 2B BB A6 
7816.948 [RX] 01 03 15 10 00 14 40 0C 
7816.964 [RX] 01 03 28 00 00 00 00 00 00 00 00 00 00 00 00 41 3E A7 F0 41 43 A5 E3 41 48 72 B0 C3 67 43 96 C3 22 93 75 00 00 00 00 C2 89 16 87 A7 6D 
7817.334 [RX] 01 03 15 10 00 14 40 0C 
7817.349 [RX] 01 03 28 00 00 00 00 00 00 00 00 00 00 00 00 41 3C 28 F6 41 41 58 10 41 46 56 04 C3 67 68 73 C3 22 93 75 00 00 00 00 C2 89 60 42 2D EC 
7817.747 [RX] 01 03 15 10 00 14 40 0C 
7817.764 [RX] 01 03 28 00 00 00 00 00 00 00 00 00 00 00 00 41 3D E3 54 41 43 43 96 41 48 41 89 C3 69 6C 8B C3 23 DF 3B 00 00 00 00 C2 8A D0 E5 48 DD 
7818.143 [RX] 01 03 15 10 00 14 40 0C 
7818.157 [RX] 01 03 28 00 00 00 00 00 00 00 00 00 00 00 00 41 3D E3 54 41 43 43 96 41 48 41 89 C3 5D 78 D5 C3 1C AC 08 00 00 00 00 C2 81 4F DF 5B E0 
7818.560 [RX] 01 03 15 10 00 14 40 0C 
7818.576 [RX] 01 03 28 00 00 00 00 00 00 00 00 00 00 00 00 41 34 18 93 41 39 78 D5 41 3E 76 C9 C3 5B 99 9A C3 1B 3B 64 00 00 00 00 C2 80 BC 6A F5 64 
7818.965 [RX] 01 03 15 10 00 14 40 0C 
7818.981 [RX] 01 03 28 00 00 00 00 00 00 00 00 00 00 00 00 41 3A 3D 71 41 3F 9D B2 41 44 9B A6 C3 64 62 4E C3 20 6A 7F 00 00 00 00 C2 87 A5 E3 8B B8 
7819.335 [RX] 01 03 15 10 00 14 40 0C 
7819.352 [RX] 01 03 28 00 00 00 00 00 00 00 00 00 00 00 00 41 3A 3D 71 41 3F 9D B2 41 44 9B A6 C3 6A 6E 98 C3 24 4D D3 00 00 00 00 C2 8C 41 89 8D 8D 
7819.747 [RX] 01 03 15 10 00 14 40 0C 
7819.763 [RX] 01 03 28 00 00 00 00 00 00 00 00 00 00 00 00 41 40 C4 9C 41 46 56 04 41 4B 85 1F C3 6E C0 83 C3 27 2F 1B 00 00 00 00 C2 8E D9 17 06 5A 
7820.148 [RX] 01 03 15 10 00 14 40 0C 
7820.163 [RX] 01 03 28 00 00 00 00 00 00 00 00 00 00 00 00 41 41 BA 5E 41 47 1A A0 41 4C 49 BA C3 6E C0 83 C3 27 2F 1B 00 00 00 00 C2 8F 22 D1 97 CD 
7820.568 [RX] 01 03 15 10 00 14 40 0C 
7820.585 [RX] 01 03 28 00 00 00 00 00 00 00 00 00 00 00 00 41 41 BA 5E 41 47 1A A0 41 4C 49 BA C3 6A DD 2F C3 24 E1 48 00 00 00 00 C2 8B F7 CF 03 99 
7820.958 [RX] 01 03 15 10 00 14 40 0C 
7820.972 [RX] 01 03 28 00 00 00 00 00 00 00 00 00 00 00 00 41 3E 14 7B 41 43 74 BC 41 48 A3 D7 C3 68 B4 39 C3 23 95 81 00 00 00 00 C2 8A 3D 71 8F EB 
7821.358 [RX] 01 03 15 10 00 14 40 0C 
7821.373 [RX] 01 03 28 00 00 00 00 00 00 00 00 00 00 00 00 41 3E A7 F0 41 43 A5 E3 41 48 A3 D7 C3 6A 49 BA C3 24 72 B0 00 00 00 00 C2 8B 64 5A 9C 93 
7821.749 [RX] 01 03 15 10 00 14 40 0C 
7821.766 [RX] 01 03 28 00 00 00 00 00 00 00 00 00 00 00 00 41 3E A7 F0 41 43 A5 E3 41 48 A3 D7 C3 6B DF 3B C3 25 99 9A 00 00 00 00 C2 8C 8B 44 DD 92 
7822.164 [RX] 01 03 15 10 00 14 40 0C 
7822.178 [RX] 01 03 28 00 00 00 00 00 00 00 00 00 00 00 00 41 3F 9D B2 41 44 9B A6 41 49 99 9A C3 6B 02 0C C3 25 06 25 00 00 00 00 C2 8B AE 14 B3 F8 
7822.560 [RX] 01 03 15 10 00 14 40 0C 
7822.576 [RX] 01 03 28 00 00 00 00 00 00 00 00 00 00 00 00 41 3E 14 7B 41 43 74 BC 41 48 A3 D7 C3 69 6C 8B C3 23 DF 3B 00 00 00 00 C2 8A D0 E5 0A 2C 
7822.960 [RX] 01 03 15 10 00 14 40 0C 
7822.976 [RX] 01 03 28 00 00 00 00 00 00 00 00 00 00 00 00 41 3E 14 7B 41 43 74 BC 41 48 A3 D7 C3 6A B8 52 C3 24 BC 6A 00 00 00 00 C2 8B F7 CF 6C 18 
7823.362 [RX] 01 03 15 10 00 14 40 0C 
7823.379 [RX] 01 03 28 00 00 00 00 00 00 00 00 00 00 00 00 41 3E A7 F0 41 44 39 58 41 49 68 73 C3 64 D0 E5 C3 21 6C 8B 00 00 00 00 C2 86 C8 B4 0F 20 
7823.758 [RX] 01 03 15 10 00 14 40 0C 
7823.773 [RX] 01 03 28 00 00 00 00 00 00 00 00 00 00 00 00 41 34 AC 08 41 39 A9 FC 41 3E 76 C9 C3 59 BA 5E C3 1A 83 12 00 00 00 00 C2 7C DD 2F 53 28 
7824.165 [RX] 01 03 15 10 00 14 40 0C 
7824.180 [RX] 01 03 28 00 00 00 00 00 00 00 00 00 00 00 00 41 34 AC 08 41 39 A9 FC 41 3E 76 C9 C3 5E 56 04 C3 1D 1A A0 00 00 00 00 C2 82 76 C9 5E 97 
7824.561 [RX] 01 03 15 10 00 14 40 0C 
7824.577 [RX] 01 03 28 00 00 00 00 00 00 00 00 00 00 00 00 41 3A 9F BE 41 3F CE D9 41 44 9B A6 C3 69 B6 46 C3 24 04 19 00 00 00 00 C2 8B 1A A0 F6 AC 
7824.964 [RX] 01 03 15 10 00 14 40 0C 
7824.979 [RX] 01 03 28 00 00 00 00 00 00 00 00 00 00 00 00 41 41 89 37 41 47 1A A0 41 4C 49 BA C3 6F 53 F8 C3 27 78 D5 00 00 00 00 C2 8F 6C 8B CC 8C 
7825.370 [RX] 01 03 15 10 00 14 40 0C 
7825.386 [RX] 01 03 28 00 00 00 00 00 00 00 00 00 00 00 00 41 41 89 37 41 47 1A A0 41 4C 49 BA C3 70 56 04 C3 28 31 27 00 00 00 00 C2 90 00 00 64 96 
7825.770 [RX] 01 03 15 10 00 14 40 0C 
7825.787 [RX] 01 03 28 00 00 00 00 00 00 00 00 00 00 00 00 41 42 B0 21 41 48 41 89 41 4D 70 A4 C3 6E 2D 0E C3 27 0A 3D 00 00 00 00 C2 8E 45 A2 06 A1 
7826.178 [RX] 01 03 15 10 00 14 40 0C 
7826.197 [RX] 01 03 28 00 00 00 00 00 00 00 00 00 00 00 00 41 3E D9 17 41 44 08 31 41 49 06 25 C3 69 B6 46 C3 24 4D D3 00 00 00 00 C2 8A 87 2B 31 C1 
7826.578 [RX] 01 03 15 10 00 14 40 0C 
7826.595 [RX] 01 03 28 00 00 00 00 00 00 00 00 00 00 00 00 41 3E D9 17 41 44 08 31 41 49 06 25 C3 69 22 D1 C3 24 04 19 00 00 00 00 C2 8A 3D 71 61 86 
7826.958 [RX] 01 03 15 10 00 14 40 0C 
7826.974 [RX] 01 03 28 00 00 00 00 00 00 00 00 00 00 00 00 41 3E 45 A2 41 43 A5 E3 41 48 A3 D7 C3 6B DF 3B C3 25 99 9A 00 00 00 00 C2 8C 8B 44 53 22 
7827.408 [RX] 01 03 15 10 00 14 40 0C 
7827.422 [RX] 01 03 28 00 00 00 00 00 00 00 00 00 00 00 00 41 40 31 27 41 45 91 68 41 4A C0 83 C3 6C 28 F6 C3 25 99 9A 00 00 00 00 C2 8C D4 FE F9 96 
7827.758 [RX] 01 03 15 10 00 14 40 0C 
7827.775 [RX] 01 03 28 00 00 00 00 00 00 00 00 00 00 00 00 41 40 31 27 41 45 91 68 41 4A C0 83 C3 6A 6E 98 C3 24 97 8D 00 00 00 00 C2 8B AE 14 32 EB 
7828.163 [RX] 01 03 15 10 00 14 40 0C 
7828.180 [RX] 01 03 28 00 00 00 00 00 00 00 00 00 00 00 00 41 3E 45 A2 41 43 D7 0A 41 49 06 25 C3 6A 49 BA C3 24 72 B0 00 00 00 00 C2 8B AE 14 95 FA 
7828.565 [RX] 01 03 15 10 00 14 40 0C 
7828.581 [RX] 01 03 28 00 00 00 00 00 00 00 00 00 00 00 00 41 3F 0A 3D 41 44 39 58 41 49 37 4C C3 6A B8 52 C3 25 06 25 00 00 00 00 C2 8B 64 5A 4A 11 
7828.965 [RX] 01 03 15 10 00 14 40 0C 
7828.981 [RX] 01 03 28 00 00 00 00 00 00 00 00 00 00 00 00 41 3F 0A 3D 41 44 39 58 41 49 37 4C C3 5E 0C 4A C3 1D 64 5A 00 00 00 00 C2 81 4F DF 47 1D 
7829.368 [RX] 01 03 15 10 00 14 40 0C 
7829.385 [RX] 01 03 28 00 00 00 00 00 00 00 00 00 00 00 00 41 34 AC 08 41 39 DB 23 41 3E D9 17 C3 5C 9B A6 C3 1C 18 93 00 00 00 00 C2 81 06 25 66 C5 
7829.780 [RX] 01 03 15 10 00 14 40 0C 
7829.797 [RX] 01 03 28 00 00 00 00 00 00 00 00 00 00 00 00 41 3B 33 33 41 40 93 75 41 45 C2 8F C3 65 D2 F2 C3 21 91 68 00 00 00 00 C2 88 83 12 61 A8 
7830.206 [RX] 01 03 15 10 00 14 40 0C 
7830.222 [RX] 01 03 28 00 00 00 00 00 00 00 00 00 00 00 00 41 3B 33 33 41 40 93 75 41 45 C2 8F C3 6D 99 9A C3 26 51 EC 00 00 00 00 C2 8E 45 A2 42 56 
7830.593 [RX] 01 03 15 10 00 14 40 0C 
7830.608 [RX] 01 03 28 00 00 00 00 00 00 00 00 00 00 00 00 41 41 EB 85 41 47 7C EE 41 4C DD 2F C3 70 C4 9C C3 28 7A E1 00 00 00 00 C2 90 93 75 C8 49 
7830.989 [RX] 01 03 15 10 00 14 40 0C 
7831.006 [RX] 01 03 28 00 00 00 00 00 00 00 00 00 00 00 00 41 42 7E FA 41 47 DF 3B 41 4C DD 2F C3 6F E7 6D C3 28 0C 4A 00 00 00 00 C2 8F B6 46 31 B7 
7831.379 [RX] 01 03 15 10 00 14 40 0C 
7831.395 [RX] 01 03 28 00 00 00 00 00 00 00 00 00 00 00 00 41 42 7E FA 41 47 DF 3B 41 4C DD 2F C3 6C 4D D3 C3 25 BE 77 00 00 00 00 C2 8C D4 FE 38 51 
7831.779 [RX] 01 03 15 10 00 14 40 0C 
7831.832 [RX] 01 03 28 00 00 00 00 00 00 00 00 00 00 00 00 41 3F 0A 3D 41 44 6A 7F 41 49 68 73 C3 6A 00 00 C3 24 4D D3 00 00 00 00 C2 8B 1A A0 B8 32 
7832.185 [RX] 01 03 15 10 00 14 40 0C 
7832.200 [RX] 01 03 28 00 00 00 00 00 00 00 00 00 00 00 00 41 3F 0A 3D 41 44 9B A6 41 49 CA C1 C3 6B 95 81 C3 25 06 25 00 00 00 00 C2 8C D4 FE 0F 49 
7832.591 [RX] 01 03 15 10 00 14 40 0C 
7832.607 [RX] 01 03 28 00 00 00 00 00 00 00 00 00 00 00 00 41 3F 0A 3D 41 44 9B A6 41 49 CA C1 C3 6D 74 BC C3 26 2D 0E 00 00 00 00 C2 8E 45 A2 63 44 
7832.993 [RX] 01 03 15 10 00 14 40 0C 
7833.008 [RX] 01 03 28 00 00 00 00 00 00 00 00 00 00 00 00 41 40 31 27 41 45 C2 8F 41 4B 22 D1 C3 6B 4B C7 C3 25 06 25 00 00 00 00 C2 8C 8B 44 F4 89 
7833.433 [RX] 01 03 15 10 00 14 40 0C 
7833.449 [RX] 01 03 28 00 00 00 00 00 00 00 00 00 00 00 00 41 3D E3 54 41 43 43 96 41 48 41 89 C3 69 22 D1 C3 23 DF 3B 00 00 00 00 C2 8A 87 2B 61 6D 
7833.803 [RX] 01 03 15 10 00 14 40 0C 
7833.820 [RX] 01 03 28 00 00 00 00 00 00 00 00 00 00 00 00 41 3D E3 54 41 43 43 96 41 48 41 89 C3 6A B8 52 C3 24 97 8D 00 00 00 00 C2 8C 41 89 F7 C1 
7834.199 [RX] 01 03 15 10 00 14 40 0C 
7834.214 [RX] 01 03 28 00 00 00 00 00 00 00 00 00 00 00 00 41 3E A7 F0 41 44 08 31 41 49 06 25 C3 63 60 42 C3 20 8F 5C 00 00 00 00 C2 85 A1 CB 16 F5 
7834.605 [RX] 01 03 15 10 00 14 40 0C 
7834.619 [RX] 01 03 28 00 00 00 00 00 00 00 00 00 00 00 00 41 33 B6 46 41 38 E5 60 41 3D E3 54 C3 59 02 0C C3 19 EF 9E 00 00 00 00 C2 7B B6 46 5F 57 
7835.002 [RX] 01 03 15 10 00 14 40 0C 
7835.016 [RX] 01 03 28 00 00 00 00 00 00 00 00 00 00 00 00 41 33 B6 46 41 38 E5 60 41 3D E3 54 C3 62 5E 35 C3 1F 43 96 00 00 00 00 C2 86 35 3F AA F6 
7835.392 [RX] 01 03 15 10 00 14 40 0C 
7835.408 [RX] 01 03 28 00 00 00 00 00 00 00 00 00 00 00 00 41 3B 64 5A 41 40 F5 C3 41 46 24 DD C3 6A 93 75 C3 24 4D D3 00 00 00 00 C2 8C 8B 44 A0 58 
7835.802 [RX] 01 03 15 10 00 14 40 0C 
7835.816 [RX] 01 03 28 00 00 00 00 00 00 00 00 00 00 00 00 41 40 C4 9C 41 46 24 DD 41 4B 22 D1 C3 6D BE 77 C3 26 76 C9 00 00 00 00 C2 8E 45 A2 A7 26 
7836.218 [RX] 01 03 15 10 00 14 40 0C 
7836.234 [RX] 01 03 28 00 00 00 00 00 00 00 00 00 00 00 00 41 40 C4 9C 41 46 24 DD 41 4B 22 D1 C3 6F 0A 3D C3 27 53 F8 00 00 00 00 C2 8F 22 D1 01 5B 
7836.629 [RX] 01 03 15 10 00 14 40 0C 
7836.646 [RX] 01 03 28 00 00 00 00 00 00 00 00 00 00 00 00 41 41 BA 5E 41 47 1A A0 41 4C 18 93 C3 6C BC 6A C3 26 2D 0E 00 00 00 00 C2 8C D4 FE 25 77 
7837.006 [RX] 01 03 15 10 00 14 40 0C 
7837.022 [RX] 01 03 28 00 00 00 00 00 00 00 00 00 00 00 00 41 3D 4F DF 41 42 7E FA 41 47 7C EE C3 68 45 A2 C3 22 DD 2F 00 00 00 00 C2 8A 87 2B 65 85 
7837.411 [RX] 01 03 15 10 00 14 40 0C 
7837.431 [RX] 01 03 28 00 00 00 00 00 00 00 00 00 00 00 00 41 3D 4F DF 41 42 7E FA 41 47 7C EE C3 66 8B 44 C3 21 DB 23 00 00 00 00 C2 89 60 42 92 AD 
7837.833 [RX] 01 03 15 10 00 14 40 0C 
7837.847 [RX] 01 03 28 00 00 00 00 00 00 00 00 00 00 00 00 41 3C 28 F6 41 40 C4 9C 41 45 60 42 C3 69 47 AE C3 23 BA 5E 00 00 00 00 C2 8A D0 E5 E8 F6 
7838.208 [RX] 01 03 15 10 00 14 40 0C 
7838.222 [RX] 01 03 28 00 00 00 00 00 00 00 00 00 00 00 00 41 3D 4F DF 41 41 EB 85 41 46 87 2B C3 67 FB E7 C3 23 02 0C 00 00 00 00 C2 89 A9 FC 95 A3 
7838.618 [RX] 01 03 15 10 00 14 40 0C 
7838.633 [RX] 01 03 28 00 00 00 00 00 00 00 00 00 00 00 00 41 3D 4F DF 41 41 EB 85 41 46 87 2B C3 65 89 37 C3 21 6C 8B 00 00 00 00 C2 87 EF 9E A6 0E 
7839.013 [RX] 01 03 15 10 00 14 40 0C 
7839.027 [RX] 01 03 28 00 00 00 00 00 00 00 00 00 00 00 00 41 3A D0 E5 41 3F 6C 8B 41 44 08 31 C3 66 8B 44 C3 21 DB 23 00 00 00 00 C2 89 60 42 DC 1C 
7839.425 [RX] 01 03 15 10 00 14 40 0C 
7839.442 [RX] 01 03 28 00 00 00 00 00 00 00 00 00 00 00 00 41 3C 5A 1D 41 40 F5 C3 41 45 60 42 C3 65 D2 F2 C3 21 B6 46 00 00 00 00 C2 88 39 58 B1 B8 
7839.820 [RX] 01 03 15 10 00 14 40 0C 
7839.835 [RX] 01 03 28 00 00 00 00 00 00 00 00 00 00 00 00 41 3C 5A 1D 41 40 F5 C3 41 45 60 42 C3 59 02 0C C3 19 A5 E3 00 00 00 00 C2 7C DD 2F A3 BF 
7840.225 [RX] 01 03 15 10 00 14 40 0C 
7840.240 [RX] 01 03 28 00 00 00 00 00 00 00 00 00 00 00 00 41 31 37 4C 41 36 04 19 41 3A D0 E5 C3 58 93 75 C3 18 ED 91 00 00 00 00 C2 7E 04 19 BE DE 
7840.620 [RX] 01 03 15 10 00 14 40 0C 
7840.637 [RX] 01 03 28 00 00 00 00 00 00 00 00 00 00 00 00 41 38 E5 60 41 3E 14 7B 41 42 E1 48 C3 64 D0 E5 C3 20 6A 7F 00 00 00 00 C2 88 83 12 DE 3B 
7841.016 [RX] 01 03 15 10 00 14 40 0C 
7841.033 [RX] 01 03 28 00 00 00 00 00 00 00 00 00 00 00 00 41 38 E5 60 41 3E 14 7B 41 42 E1 48 C3 68 FD F4 C3 23 26 E9 00 00 00 00 C2 8B 64 5A 32 CD 
7841.417 [RX] 01 03 15 10 00 14 40 0C 
7841.433 [RX] 01 03 28 00 00 00 00 00 00 00 00 00 00 00 00 41 3D 4F DF 41 42 E1 48 41 48 41 89 C3 69 DB 23 C3 24 28 F6 00 00 00 00 C2 8B 64 5A 1D E7 
7841.807 [RX] 01 03 15 10 00 14 40 0C 
7841.823 [RX] 01 03 28 00 00 00 00 00 00 00 00 00 00 00 00 41 3E 76 C9 41 44 08 31 41 49 37 4C C3 69 91 68 C3 24 28 F6 00 00 00 00 C2 8A D0 E5 89 98 
7842.222 [RX] 01 03 15 10 00 14 40 0C 
7842.238 [RX] 01 03 28 00 00 00 00 00 00 00 00 00 00 00 00 41 3E 76 C9 41 44 08 31 41 49 37 4C C3 66 1C AC C3 22 00 00 00 00 00 00 C2 88 39 58 DB 19 
7842.613 [RX] 01 03 15 10 00 14 40 0C 
7842.628 [RX] 01 03 28 00 00 00 00 00 00 00 00 00 00 00 00 41 3A D0 E5 41 40 93 75 41 45 F3 B6 C3 63 CE D9 C3 20 6A 7F 00 00 00 00 C2 86 7E FA CB 06 
7843.028 [RX] 01 03 15 10 00 14 40 0C 
7843.043 [RX] 01 03 28 00 00 00 00 00 00 00 00 00 00 00 00 41 3A 9F BE 41 40 31 27 41 45 91 68 C3 65 AE 14 C3 21 B6 46 00 00 00 00 C2 87 A5 E3 DD B6 
7843.438 [RX] 01 03 15 10 00 14 40 0C 
7843.454 [RX] 01 03 28 00 00 00 00 00 00 00 00 00 00 00 00 41 3A 9F BE 41 40 31 27 41 45 91 68 C3 66 B0 21 C3 22 49 BA 00 00 00 00 C2 88 83 12 4D 08 
7843.824 [RX] 01 03 15 10 00 14 40 0C 
7843.841 [RX] 01 03 28 00 00 00 00 00 00 00 00 00 00 00 00 41 3B C6 A8 41 41 58 10 41 46 B8 52 C3 63 60 42 C3 20 B4 39 00 00 00 00 C2 85 58 10 C5 DD 
7844.251 [RX] 01 03 15 10 00 14 40 0C 
7844.266 [RX] 01 03 28 00 00 00 00 00 00 00 00 00 00 00 00 41 39 47 AE 41 3E D9 17 41 44 08 31 C3 62 A7 F0 C3 20 20 C5 00 00 00 00 C2 85 0E 56 4B 32 
7844.622 [RX] 01 03 15 10 00 14 40 0C 
7844.637 [RX] 01 03 28 00 00 00 00 00 00 00 00 00 00 00 00 41 39 47 AE 41 3E D9 17 41 44 08 31 C3 64 62 4E C3 20 FD F4 00 00 00 00 C2 86 C8 B4 4F 61 
7845.023 [RX] 01 03 15 10 00 14 40 0C 
7845.039 [RX] 01 03 28 00 00 00 00 00 00 00 00 00 00 00 00 41 3B C6 A8 41 41 BA 5E 41 47 4B C7 C3 5E 0C 4A C3 1D D2 F2 00 00 00 00 C2 80 72 B0 2D 4B 
7845.445 [RX] 01 03 15 10 00 14 40 0C 
7845.489 [RX] 01 03 28 00 00 00 00 00 00 00 00 00 00 00 00 41 32 2D 0E 41 37 8D 50 41 3C BC 6A C3 55 43 96 C3 18 5A 1D 00 00 00 00 C2 73 A5 E3 A8 F0 
7845.855 [RX] 01 03 15 10 00 14 40 0C 
7845.872 [RX] 01 03 28 00 00 00 00 00 00 00 00 00 00 00 00 41 32 2D 0E 41 37 8D 50 41 3C BC 6A C3 5C 08 31 C3 1C 18 93 00 00 00 00 C2 7F 2B 02 5F 38 
7846.250 [RX] 01 03 15 10 00 14 40 0C 
7846.266 [RX] 01 03 28 00 00 00 00 00 00 00 00 00 00 00 00 41 38 20 C5 41 3D 81 06 41 42 7E FA C3 65 64 5A C3 22 00 00 00 00 00 00 C2 86 C8 B4 08 1A 
7846.656 [RX] 01 03 15 10 00 14 40 0C 
7846.671 [RX] 01 03 28 00 00 00 00 00 00 00 00 00 00 00 00 41 3E 14 7B 41 43 74 BC 41 48 A3 D7 C3 69 47 AE C3 24 97 8D 00 00 00 00 C2 89 60 42 11 35 
7847.118 [RX] 01 03 15 10 00 14 40 0C 
7847.132 [RX] 01 03 28 00 00 00 00 00 00 00 00 00 00 00 00 41 3E 14 7B 41 43 74 BC 41 48 A3 D7 C3 6A 00 00 C3 25 06 25 00 00 00 00 C2 89 A9 FC 99 FF 
7847.449 [RX] 01 03 15 10 00 14 40 0C 
7847.464 [RX] 01 03 28 00 00 00 00 00 00 00 00 00 00 00 00 41 3F 0A 3D 41 44 9B A6 41 49 CA C1 C3 67 B2 2D C3 23 95 81 00 00 00 00 C2 87 EF 9E F5 E1 
7847.890 [RX] 01 03 15 10 00 14 40 0C 
7847.907 [RX] 01 03 28 00 00 00 00 00 00 00 00 00 00 00 00 41 3B 95 81 41 40 F5 C3 41 46 24 DD C3 63 A9 FC C3 21 47 AE 00 00 00 00 C2 84 C4 9C 48 2C 
7848.245 [RX] 01 03 15 10 00 14 40 0C 
7848.260 [RX] 01 03 28 00 00 00 00 00 00 00 00 00 00 00 00 41 3B 95 81 41 40 F5 C3 41 46 24 DD C3 63 A9 FC C3 21 22 D1 00 00 00 00 C2 84 C4 9C 7F B0 
7848.662 [RX] 01 03 15 10 00 14 40 0C 
7848.680 [RX] 01 03 28 00 00 00 00 00 00 00 00 00 00 00 00 41 3B 33 33 41 40 93 75 41 45 91 68 C3 66 41 89 C3 22 B8 52 00 00 00 00 C2 86 C8 B4 2D FA 
7849.052 [RX] 01 03 15 10 00 14 40 0C 
7849.066 [RX] 01 03 28 00 00 00 00 00 00 00 00 00 00 00 00 41 3C 5A 1D 41 41 BA 5E 41 46 E9 79 C3 65 3F 7D C3 22 24 DD 00 00 00 00 C2 85 EB 85 77 C7 
7849.467 [RX] 01 03 15 10 00 14 40 0C 
7849.481 [RX] 01 03 28 00 00 00 00 00 00 00 00 00 00 00 00 41 3C 5A 1D 41 41 BA 5E 41 46 E9 79 C3 62 CC CD C3 20 B4 39 00 00 00 00 C2 84 31 27 00 DF 
7849.853 [RX] 01 03 15 10 00 14 40 0C 
7849.868 [RX] 01 03 28 00 00 00 00 00 00 00 00 00 00 00 00 41 3A 6E 98 41 40 00 00 41 45 2F 1B C3 64 F5 C3 C3 21 B6 46 00 00 00 00 C2 86 35 3F 80 8B 
7850.268 [RX] 01 03 15 10 00 14 40 0C 
7850.285 [RX] 01 03 28 00 00 00 00 00 00 00 00 00 00 00 00 41 3B 95 81 41 41 58 10 41 46 E9 79 C3 61 CA C1 C3 20 20 C5 00 00 00 00 C2 83 0A 3D AD E9 
7850.644 [RX] 01 03 15 10 00 14 40 0C 
7850.660 [RX] 01 03 28 00 00 00 00 00 00 00 00 00 00 00 00 41 3B 95 81 41 41 58 10 41 46 E9 79 C3 55 D7 0A C3 18 ED 91 00 00 00 00 C2 73 A5 E3 ED 97 
7851.044 [RX] 01 03 15 10 00 14 40 0C 
7851.060 [RX] 01 03 28 00 00 00 00 00 00 00 00 00 00 00 00 41 30 41 89 41 35 D2 F2 41 3B 02 0C C3 55 1E B8 C3 18 35 3F 00 00 00 00 C2 73 A5 E3 57 23 
7851.454 [RX] 01 03 15 10 00 14 40 0C 
7851.471 [RX] 01 03 28 00 00 00 00 00 00 00 00 00 00 00 00 41 37 BE 77 41 3D 4F DF 41 42 7E FA C3 61 5C 29 C3 1F 8D 50 00 00 00 00 C2 83 53 F8 BB 7F 
7851.846 [RX] 01 03 15 10 00 14 40 0C 
7851.860 [RX] 01 03 28 00 00 00 00 00 00 00 00 00 00 00 00 41 37 BE 77 41 3D 4F DF 41 42 7E FA C3 67 1E B8 C3 23 26 E9 00 00 00 00 C2 87 A5 E3 12 25 
7852.246 [RX] 01 03 15 10 00 14 40 0C 
7852.261 [RX] 01 03 28 00 00 00 00 00 00 00 00 00 00 00 00 41 3D B2 2D 41 43 43 96 41 48 A3 D7 C3 69 B6 46 C3 24 E1 48 00 00 00 00 C2 89 A9 FC 39 06 
7852.657 [RX] 01 03 15 10 00 14 40 0C 
7852.672 [RX] 01 03 28 00 00 00 00 00 00 00 00 00 00 00 00 41 3F 3B 64 41 44 FD F4 41 4A 8F 5C C3 69 B6 46 C3 24 E1 48 00 00 00 00 C2 89 60 42 7F A3 
7853.052 [RX] 01 03 15 10 00 14 40 0C 
7853.068 [RX] 01 03 28 00 00 00 00 00 00 00 00 00 00 00 00 41 3F 3B 64 41 44 FD F4 41 4A 8F 5C C3 64 D0 E5 C3 22 00 00 00 00 00 00 C2 85 A1 CB 1C 8F 
7853.444 [RX] 01 03 15 10 00 14 40 0C 
7853.460 [RX] 01 03 28 00 00 00 00 00 00 00 00 00 00 00 00 41 3B 64 5A 41 40 F5 C3 41 46 56 04 C3 63 16 87 C3 20 FD F4 00 00 00 00 C2 84 31 27 85 3D 
7853.845 [RX] 01 03 15 10 00 14 40 0C 
7853.861 [RX] 01 03 28 00 00 00 00 00 00 00 00 00 00 00 00 41 3B 02 0C 41 40 93 75 41 45 C2 8F C3 64 D0 E5 C3 22 00 00 00 00 00 00 C2 85 A1 CB F1 1E 
7854.246 [RX] 01 03 15 10 00 14 40 0C 
7854.261 [RX] 01 03 28 00 00 00 00 00 00 00 00 00 00 00 00 41 3B 02 0C 41 40 93 75 41 45 C2 8F C3 66 1C AC C3 22 B8 52 00 00 00 00 C2 86 C8 B4 A0 F4 
7854.654 [RX] 01 03 15 10 00 14 40 0C 
7854.669 [RX] 01 03 28 00 00 00 00 00 00 00 00 00 00 00 00 41 3C 28 F6 41 41 BA 5E 41 47 1A A0 C3 64 62 4E C3 21 B6 46 00 00 00 00 C2 85 58 10 07 46 
7855.086 [RX] 01 03 15 10 00 14 40 0C 
7855.101 [RX] 01 03 28 00 00 00 00 00 00 00 00 00 00 00 00 41 3A 6E 98 41 40 62 4E 41 45 F3 B6 C3 63 CE D9 C3 21 47 AE 00 00 00 00 C2 85 0E 56 71 F2 
7855.503 [RX] 01 03 15 10 00 14 40 0C 
7855.519 [RX] 01 03 28 00 00 00 00 00 00 00 00 00 00 00 00 41 3A 6E 98 41 40 62 4E 41 45 F3 B6 C3 65 89 37 C3 22 49 BA 00 00 00 00 C2 86 35 3F 6A F7 
7855.871 [RX] 01 03 15 10 00 14 40 0C 
7855.888 [RX] 01 03 28 00 00 00 00 00 00 00 00 00 00 00 00 41 3B 95 81 41 41 58 10 41 46 B8 52 C3 5B 99 9A C3 1C 87 2B 00 00 00 00 C2 7B B6 46 F3 D9 
7856.272 [RX] 01 03 15 10 00 14 40 0C 
7856.287 [RX] 01 03 28 00 00 00 00 00 00 00 00 00 00 00 00 41 31 06 25 41 36 97 8D 41 3B C6 A8 C3 54 8B 44 C3 18 10 62 00 00 00 00 C2 71 EB 85 0B CC 
7856.672 [RX] 01 03 15 10 00 14 40 0C 
7856.687 [RX] 01 03 28 00 00 00 00 00 00 00 00 00 00 00 00 41 31 06 25 41 36 97 8D 41 3B C6 A8 C3 5D E7 6D C3 1D 89 37 00 00 00 00 C2 80 72 B0 33 76 
7857.062 [RX] 01 03 15 10 00 14 40 0C 
7857.077 [RX] 01 03 28 00 00 00 00 00 00 00 00 00 00 00 00 41 37 EF 9E 41 3D 81 06 41 42 E1 48 C3 65 D2 F2 C3 22 6E 98 00 00 00 00 C2 86 C8 B4 CF AD 
7857.470 [RX] 01 03 15 10 00 14 40 0C 
7857.486 [RX] 01 03 28 00 00 00 00 00 00 00 00 00 00 00 00 41 3E A7 F0 41 44 9B A6 41 4A 2D 0E C3 6A 00 00 C3 25 4F DF 00 00 00 00 C2 89 16 87 D3 1F 
7857.862 [RX] 01 03 15 10 00 14 40 0C 
7857.878 [RX] 01 03 28 00 00 00 00 00 00 00 00 00 00 00 00 41 3E A7 F0 41 44 9B A6 41 4A 2D 0E C3 6A 24 DD C3 25 4F DF 00 00 00 00 C2 89 A9 FC EB F4 
7858.318 [RX] 01 03 15 10 00 14 40 0C 
7858.332 [RX] 01 03 28 00 00 00 00 00 00 00 00 00 00 00 00 41 3F 3B 64 41 45 2F 1B 41 4A C0 83 C3 65 AE 14 C3 22 DD 2F 00 00 00 00 C2 85 A1 CB 58 AF 
7858.749 [RX] 01 03 15 10 00 14 40 0C 
7858.765 [RX] 01 03 28 00 00 00 00 00 00 00 00 00 00 00 00 41 3B C6 A8 41 41 58 10 41 46 B8 52 C3 64 3D 71 C3 21 91 68 00 00 00 00 C2 85 0E 56 C0 36 
7859.114 [RX] 01 03 15 10 00 14 40 0C 
7859.129 [RX] 01 03 28 00 00 00 00 00 00 00 00 00 00 00 00 41 3B C6 A8 41 41 58 10 41 46 B8 52 C3 65 1A A0 C3 22 24 DD 00 00 00 00 C2 85 EB 85 02 D8 
7859.499 [RX] 01 03 15 10 00 14 40 0C 
7859.515 [RX] 01 03 28 00 00 00 00 00 00 00 00 00 00 00 00 41 3B F7 CF 41 41 89 37 41 46 B8 52 C3 67 B2 2D C3 23 70 A4 00 00 00 00 C2 88 39 58 CD DB 
7859.899 [RX] 01 03 15 10 00 14 40 0C 
7859.915 [RX] 01 03 28 00 00 00 00 00 00 00 00 00 00 00 00 41 3D 1E B8 41 43 12 6F 41 48 D4 FE C3 66 66 66 C3 22 DD 2F 00 00 00 00 C2 86 C8 B4 59 28 
7860.280 [RX] 01 03 15 10 00 14 40 0C 
7860.296 [RX] 01 03 28 00 00 00 00 00 00 00 00 00 00 00 00 41 3D 1E B8 41 43 12 6F 41 48 D4 FE C3 64 AC 08 C3 21 B6 46 00 00 00 00 C2 85 EB 85 11 64 
7860.697 [RX] 01 03 15 10 00 14 40 0C 
7860.712 [RX] 01 03 28 00 00 00 00 00 00 00 00 00 00 00 00 41 3B 33 33 41 41 26 E9 41 46 B8 52 C3 64 AC 08 C3 21 B6 46 00 00 00 00 C2 85 A1 CB BD A3 
7861.099 [RX] 01 03 15 10 00 14 40 0C 
7861.113 [RX] 01 03 28 00 00 00 00 00 00 00 00 00 00 00 00 41 3B 33 33 41 40 F5 C3 41 46 56 04 C3 60 ED 91 C3 1F B2 2D 00 00 00 00 C2 82 2D 0E 04 99 
7861.500 [RX] 01 03 15 10 00 14 40 0C 
7861.516 [RX] 01 03 28 00 00 00 00 00 00 00 00 00 00 00 00 41 3B 33 33 41 40 F5 C3 41 46 56 04 C3 55 68 73 C3 18 C8 B4 00 00 00 00 C2 72 7E FA CF 85 
7861.897 [RX] 01 03 15 10 00 14 40 0C 
7861.913 [RX] 01 03 28 00 00 00 00 00 00 00 00 00 00 00 00 41 30 10 62 41 35 A1 CB 41 3B 02 0C C3 58 24 DD C3 19 EF 9E 00 00 00 00 C2 78 D4 FE FB F6 
7862.298 [RX] 01 03 15 10 00 14 40 0C 
7862.313 [RX] 01 03 28 00 00 00 00 00 00 00 00 00 00 00 00 41 38 E5 60 41 3E A7 F0 41 44 39 58 C3 64 62 4E C3 21 6C 8B 00 00 00 00 C2 85 EB 85 09 26 
7862.718 [RX] 01 03 15 10 00 14 40 0C 
7862.734 [RX] 01 03 28 00 00 00 00 00 00 00 00 00 00 00 00 41 38 E5 60 41 3E A7 F0 41 44 39 58 C3 69 91 68 C3 24 BC 6A 00 00 00 00 C2 89 60 42 77 26 
7863.139 [RX] 01 03 15 10 00 14 40 0C 
7863.153 [RX] 01 03 28 00 00 00 00 00 00 00 00 00 00 00 00 41 3E A7 F0 41 44 6A 7F 41 49 FB E7 C3 6B 95 81 C3 26 2D 0E 00 00 00 00 C2 8A 87 2B AC 51 
7863.504 [RX] 01 03 15 10 00 14 40 0C 
7863.517 [RX] 01 03 28 00 00 00 00 00 00 00 00 00 00 00 00 41 40 31 27 41 45 F3 B6 41 4B 85 1F C3 69 B6 46 C3 25 4F DF 00 00 00 00 C2 88 CC CD 84 84 
7863.910 [RX] 01 03 15 10 00 14 40 0C 
7863.924 [RX] 01 03 28 00 00 00 00 00 00 00 00 00 00 00 00 41 40 31 27 41 45 F3 B6 41 4B 85 1F C3 66 1C AC C3 22 DD 2F 00 00 00 00 C2 86 35 3F 1C 90 
7864.311 [RX] 01 03 15 10 00 14 40 0C 
7864.325 [RX] 01 03 28 00 00 00 00 00 00 00 00 00 00 00 00 41 3C 28 F6 41 41 EB 85 41 47 4B C7 C3 63 F3 B6 C3 21 47 AE 00 00 00 00 C2 85 58 10 53 7F 
7864.711 [RX] 01 03 15 10 00 14 40 0C 
7864.726 [RX] 01 03 28 00 00 00 00 00 00 00 00 00 00 00 00 41 3B 95 81 41 41 58 10 41 46 E9 79 C3 65 3F 7D C3 22 6E 98 00 00 00 00 C2 85 A1 CB 20 9F 
7865.108 [RX] 01 03 15 10 00 14 40 0C 
7865.123 [RX] 01 03 28 00 00 00 00 00 00 00 00 00 00 00 00 41 3B 95 81 41 41 58 10 41 46 E9 79 C3 65 64 5A C3 22 B8 52 00 00 00 00 C2 85 58 10 C6 3B 
7865.504 [RX] 01 03 15 10 00 14 40 0C 
7865.519 [RX] 01 03 28 00 00 00 00 00 00 00 00 00 00 00 00 41 3C 5A 1D 41 41 58 10 41 46 24 DD C3 62 F1 AA C3 21 22 D1 00 00 00 00 C2 83 9D B2 8E F4 
7865.905 [RX] 01 03 15 10 00 14 40 0C 
7865.919 [RX] 01 03 28 00 00 00 00 00 00 00 00 00 00 00 00 41 3A 6E 98 41 3F 6C 8B 41 44 39 58 C3 62 CC CD C3 20 FD F4 00 00 00 00 C2 83 9D B2 28 3A 
7866.311 [RX] 01 03 15 10 00 14 40 0C 
7866.327 [RX] 01 03 28 00 00 00 00 00 00 00 00 00 00 00 00 41 3A 6E 98 41 3F 6C 8B 41 44 39 58 C3 64 87 2B C3 22 00 00 00 00 00 00 C2 85 0E 56 B7 2B 
7866.702 [RX] 01 03 15 10 00 14 40 0C 
7866.717 [RX] 01 03 28 00 00 00 00 00 00 00 00 00 00 00 00 41 3B 64 5A 41 40 93 75 41 45 60 42 C3 59 4B C7 C3 1B 16 87 00 00 00 00 C2 78 D4 FE 3D 02 
7867.108 [RX] 01 03 15 10 00 14 40 0C 
7867.126 [RX] 01 03 28 00 00 00 00 00 00 00 00 00 00 00 00 41 2F 7C EE 41 35 0E 56 41 3A 3D 71 C3 52 18 93 C3 16 56 04 00 00 00 00 C2 6E 76 C9 42 51 
7867.505 [RX] 01 03 15 10 00 14 40 0C 
7867.522 [RX] 01 03 28 00 00 00 00 00 00 00 00 00 00 00 00 41 2F 7C EE 41 35 0E 56 41 3A 3D 71 C3 5D C2 8F C3 1C F5 C3 00 00 00 00 C2 81 4F DF FA 18 
7867.906 [RX] 01 03 15 10 00 14 40 0C 
7867.923 [RX] 01 03 28 00 00 00 00 00 00 00 00 00 00 00 00 41 36 04 19 41 3B F7 CF 41 41 BA 5E C3 65 3F 7D C3 21 DB 23 00 00 00 00 C2 86 C8 B4 C2 FF 
7868.302 [RX] 01 03 15 10 00 14 40 0C 
7868.319 [RX] 01 03 28 00 00 00 00 00 00 00 00 00 00 00 00 41 3C ED 91 41 42 E1 48 41 48 A3 D7 C3 68 20 C5 C3 23 95 81 00 00 00 00 C2 88 CC CD 10 B4 
7868.709 [RX] 01 03 15 10 00 14 40 0C 
7868.726 [RX] 01 03 28 00 00 00 00 00 00 00 00 00 00 00 00 41 3C ED 91 41 42 E1 48 41 48 A3 D7 C3 69 22 D1 C3 24 4D D3 00 00 00 00 C2 89 60 42 F5 52 
7869.105 [RX] 01 03 15 10 00 14 40 0C 
7869.119 [RX] 01 03 28 00 00 00 00 00 00 00 00 00 00 00 00 41 3E 45 A2 41 44 39 58 41 49 FB E7 C3 66 1C AC C3 22 6E 98 00 00 00 00 C2 87 5C 29 56 C6 
7869.505 [RX] 01 03 15 10 00 14 40 0C 
7869.520 [RX] 01 03 28 00 00 00 00 00 00 00 00 00 00 00 00 41 3A 0C 4A 41 40 00 00 41 45 C2 8F C3 62 83 12 C3 20 20 C5 00 00 00 00 C2 84 C4 9C 7F 3D 
7869.901 [RX] 01 03 15 10 00 14 40 0C 
7869.917 [RX] 01 03 28 00 00 00 00 00 00 00 00 00 00 00 00 41 3A 0C 4A 41 40 00 00 41 45 C2 8F C3 63 85 1F C3 20 B4 39 00 00 00 00 C2 85 A1 CB 86 B4 
7870.312 [RX] 01 03 15 10 00 14 40 0C 
7870.329 [RX] 01 03 28 00 00 00 00 00 00 00 00 00 00 00 00 41 3A 3D 71 41 40 31 27 41 45 F3 B6 C3 65 89 37 C3 21 DB 23 00 00 00 00 C2 87 12 6F FE 2A 
7870.702 [RX] 01 03 15 10 00 14 40 0C 
7870.719 [RX] 01 03 28 00 00 00 00 00 00 00 00 00 00 00 00 41 3B 02 0C 41 40 F5 C3 41 46 B8 52 C3 63 A9 FC C3 20 FD F4 00 00 00 00 C2 85 58 10 BE C4 
7871.112 [RX] 01 03 15 10 00 14 40 0C 
7871.126 [RX] 01 03 28 00 00 00 00 00 00 00 00 00 00 00 00 41 3B 02 0C 41 40 F5 C3 41 46 B8 52 C3 61 A5 E3 C3 1F B2 2D 00 00 00 00 C2 83 E7 6D 40 23 
7871.508 [RX] 01 03 15 10 00 14 40 0C 
7871.523 [RX] 01 03 28 00 00 00 00 00 00 00 00 00 00 00 00 41 39 47 AE 41 3F 0A 3D 41 44 9B A6 C3 63 3B 64 C3 20 8F 5C 00 00 00 00 C2 85 0E 56 C4 FA 
7871.908 [RX] 01 03 15 10 00 14 40 0C 
7871.924 [RX] 01 03 28 00 00 00 00 00 00 00 00 00 00 00 00 41 3A 0C 4A 41 3F CE D9 41 45 60 42 C3 5F 0E 56 C3 1E 41 89 00 00 00 00 C2 81 4F DF E9 C2 
7872.315 [RX] 01 03 15 10 00 14 40 0C 
7872.331 [RX] 01 03 28 00 00 00 00 00 00 00 00 00 00 00 00 41 3A 0C 4A 41 3F CE D9 41 45 60 42 C3 53 1A A0 C3 16 E9 79 00 00 00 00 C2 70 C4 9C 67 1A 
7872.711 [RX] 01 03 15 10 00 14 40 0C 
7872.727 [RX] 01 03 28 00 00 00 00 00 00 00 00 00 00 00 00 41 2F 7C EE 41 35 3F 7D 41 3A 9F BE C3 58 B8 52 C3 19 EF 9E 00 00 00 00 C2 7B 22 D1 E9 65 
7873.112 [RX] 01 03 15 10 00 14 40 0C 
7873.128 [RX] 01 03 28 00 00 00 00 00 00 00 00 00 00 00 00 41 36 F9 DB 41 3C ED 91 41 42 7E FA C3 63 16 87 C3 20 6A 7F 00 00 00 00 C2 85 0E 56 C4 AE 
7873.528 [RX] 01 03 15 10 00 14 40 0C 
7873.542 [RX] 01 03 28 00 00 00 00 00 00 00 00 00 00 00 00 41 36 F9 DB 41 3C ED 91 41 42 7E FA C3 67 B2 2D C3 23 70 A4 00 00 00 00 C2 88 39 58 3B 51 
7873.914 [RX] 01 03 15 10 00 14 40 0C 
7873.929 [RX] 01 03 28 00 00 00 00 00 00 00 00 00 00 00 00 41 3D 4F DF 41 43 43 96 41 48 D4 FE C3 6A 93 75 C3 25 2B 02 00 00 00 00 C2 8A 87 2B 87 55 
7874.321 [RX] 01 03 15 10 00 14 40 0C 
7874.336 [RX] 01 03 28 00 00 00 00 00 00 00 00 00 00 00 00 41 3F 9D B2 41 45 91 68 41 4B 22 D1 C3 69 B6 46 C3 24 BC 6A 00 00 00 00 C2 89 A9 FC 21 9F 
7874.726 [RX] 01 03 15 10 00 14 40 0C 
7874.743 [RX] 01 03 28 00 00 00 00 00 00 00 00 00 00 00 00 41 3F 9D B2 41 45 91 68 41 4B 22 D1 C3 64 D0 E5 C3 21 91 68 00 00 00 00 C2 86 7E FA 78 53 
7875.117 [RX] 01 03 15 10 00 14 40 0C 
7875.133 [RX] 01 03 28 00 00 00 00 00 00 00 00 00 00 00 00 41 3B 33 33 41 41 58 10 41 47 1A A0 C3 63 A9 FC C3 20 B4 39 00 00 00 00 C2 85 EB 85 B9 7D 
7875.507 [RX] 01 03 15 10 00 14 40 0C 
7875.523 [RX] 01 03 28 00 00 00 00 00 00 00 00 00 00 00 00 41 3A D0 E5 41 40 F5 C3 41 46 B8 52 C3 65 3F 7D C3 21 91 68 00 00 00 00 C2 87 12 6F 70 4D 
7875.913 [RX] 01 03 15 10 00 14 40 0C 
7875.927 [RX] 01 03 28 00 00 00 00 00 00 00 00 00 00 00 00 41 3A D0 E5 41 40 F5 C3 41 46 B8 52 C3 65 89 37 C3 21 DB 23 00 00 00 00 C2 87 12 6F 41 F6 
7876.310 [RX] 01 03 15 10 00 14 40 0C 
7876.324 [RX] 01 03 28 00 00 00 00 00 00 00 00 00 00 00 00 41 3B 95 81 41 41 BA 5E 41 47 7C EE C3 73 EF 9E C3 28 E9 79 00 00 00 00 C2 95 C2 8F 54 EE 
7876.711 [RX] 01 03 15 10 00 14 40 0C 
7876.725 [RX] 01 03 28 00 00 00 00 00 00 00 00 00 00 00 00 41 47 7C EE 41 4D A1 CB 41 53 64 5A C3 7D 4B C7 C3 2D A9 FC 00 00 00 00 C2 9E F9 DB 8B B4 
7877.116 [RX] 01 03 15 10 00 14 40 0C 
7877.146 [RX] 01 03 28 00 00 00 00 00 00 00 00 00 00 00 00 41 47 7C EE 41 4D A1 CB 41 53 64 5A C3 7F 2B 02 C3 2E AC 08 00 00 00 00 C2 A0 FD F4 6F 91 
7877.512 [RX] 01 03 15 10 00 14 40 0C 
7877.528 [RX] 01 03 28 00 00 00 00 00 00 00 00 00 00 00 00 41 48 D4 FE 41 4F 5C 29 41 55 81 06 C3 73 A5 E3 C3 27 E7 6D 00 00 00 00 C2 97 7C EE ED E4 
7877.914 [RX] 01 03 15 10 00 14 40 0C 
7877.929 [RX] 01 03 28 00 00 00 00 00 00 00 00 00 00 00 00 41 3D B2 2D 41 44 39 58 41 4A 2D 0E C3 6F 78 D5 C3 25 06 25 00 00 00 00 C2 94 9B A6 4C 5F 
7878.321 [RX] 01 03 15 10 00 14 40 0C 
7878.336 [RX] 01 03 28 00 00 00 00 00 00 00 00 00 00 00 00 41 3D B2 2D 41 44 39 58 41 4A 2D 0E C3 78 66 66 C3 2A 7E FA 00 00 00 00 C2 9B CE D9 9F EE 
7878.719 [RX] 01 03 15 10 00 14 40 0C 
7878.734 [RX] 01 03 28 00 00 00 00 00 00 00 00 00 00 00 00 41 44 9B A6 41 4A C0 83 41 50 83 12 C3 80 16 87 C3 2F 3F 7D 00 00 00 00 C2 A1 91 68 6F 2E 
7879.120 [RX] 01 03 15 10 00 14 40 0C 
7879.135 [RX] 01 03 28 00 00 00 00 00 00 00 00 00 00 00 00 41 4C 49 BA 41 52 6E 98 41 58 31 27 C3 82 3F 7D C3 32 45 A2 00 00 00 00 C2 A4 72 B0 3C 75 
7879.513 [RX] 01 03 15 10 00 14 40 0C 
7879.527 [RX] 01 03 28 00 00 00 00 00 00 00 00 00 00 00 00 41 4C 49 BA 41 52 6E 98 41 58 31 27 C3 83 41 89 C3 33 6C 8B 00 00 00 00 C2 A6 2D 0E F3 16 
7879.918 [RX] 01 03 15 10 00 14 40 0C 
7879.935 [RX] 01 03 28 00 00 00 00 00 00 00 00 00 00 00 00 41 4E 97 8D 41 55 1E B8 41 5B 43 96 C3 80 A9 FC C3 30 1C AC 00 00 00 00 C2 A2 24 DD AF C9 
7880.327 [RX] 01 03 15 10 00 14 40 0C 
7880.343 [RX] 01 03 28 00 00 00 00 00 00 00 00 00 00 00 00 41 49 CA C1 41 50 83 12 41 56 A7 F0 C3 7F 4F DF C3 2E F5 C3 00 00 00 00 C2 A0 B4 39 A6 EA 
7880.733 [RX] 01 03 15 10 00 14 40 0C 
7880.750 [RX] 01 03 28 00 00 00 00 00 00 00 00 00 00 00 00 41 49 CA C1 41 50 83 12 41 56 A7 F0 C3 80 16 87 C3 2F 64 5A 00 00 00 00 C2 A1 47 AE 5E 67 
7881.123 [RX] 01 03 15 10 00 14 40 0C 
7881.140 [RX] 01 03 28 00 00 00 00 00 00 00 00 00 00 00 00 41 4A 2D 0E 41 50 83 12 41 56 76 C9 C3 80 F3 B6 C3 30 8B 44 00 00 00 00 C2 A2 B8 52 F0 96 
7881.513 [RX] 01 03 15 10 00 14 40 0C 
7881.527 [RX] 01 03 28 00 00 00 00 00 00 00 00 00 00 00 00 41 4A 8F 5C 41 50 E5 60 41 56 D9 17 C3 7F E3 54 C3 2F 3F 7D 00 00 00 00 C2 A0 FD F4 03 B8 
7881.919 [RX] 01 03 15 10 00 14 40 0C 
7881.934 [RX] 01 03 28 00 00 00 00 00 00 00 00 00 00 00 00 41 4A 8F 5C 41 50 E5 60 41 56 D9 17 C3 7E BC 6A C3 2E 62 4E 00 00 00 00 C2 A0 B4 39 EA 2A 
7882.344 [RX] 01 03 15 10 00 14 40 0C 
7882.432 [RX] 01 03 28 00 00 00 00 00 00 00 00 00 00 00 00 41 48 D4 FE 41 4F 8D 50 41 55 B2 2D C3 80 04 19 C3 2F 1A A0 00 00 00 00 C2 A1 DB 23 35 DC 
7882.724 [RX] 01 03 15 10 00 14 40 0C 
7882.739 [RX] 01 03 28 00 00 00 00 00 00 00 00 00 00 00 00 41 49 CA C1 41 50 83 12 41 56 D9 17 C3 7B 91 68 C3 2C A7 F0 00 00 00 00 C2 9D 89 37 A3 EC 
7883.127 [RX] 01 03 15 10 00 14 40 0C 
7883.143 [RX] 01 03 28 00 00 00 00 00 00 00 00 00 00 00 00 41 49 CA C1 41 50 83 12 41 56 D9 17 C3 6E C0 83 C3 24 E1 48 00 00 00 00 C2 93 BE 77 AE 37 
7883.529 [RX] 01 03 15 10 00 14 40 0C 
7883.546 [RX] 01 03 28 00 00 00 00 00 00 00 00 00 00 00 00 41 3E 14 7B 41 44 9B A6 41 4A 8F 5C C3 70 9F BE C3 25 BE 77 00 00 00 00 C2 95 78 D5 23 D2 
7883.920 [RX] 01 03 15 10 00 14 40 0C 
7883.937 [RX] 01 03 28 00 00 00 00 00 00 00 00 00 00 00 00 41 40 31 27 41 46 B8 52 41 4C DD 2F C3 73 5C 29 C3 27 78 D5 00 00 00 00 C2 97 7C EE CA 68 
7884.336 [RX] 01 03 15 10 00 14 40 0C 
7884.351 [RX] 01 03 28 00 00 00 00 00 00 00 00 00 00 00 00 41 40 31 27 41 46 B8 52 41 4C DD 2F C3 76 AC 08 C3 29 7C EE 00 00 00 00 C2 9A 5E 35 19 4E 
7884.727 [RX] 01 03 15 10 00 14 40 0C 
7884.742 [RX] 01 03 28 00 00 00 00 00 00 00 00 00 00 00 00 41 43 43 96 41 49 CA C1 41 4F EF 9E C3 77 F7 CF C3 2A 35 3F 00 00 00 00 C2 9B 3B 64 C7 5B 
7885.134 [RX] 01 03 15 10 00 14 40 0C 
7885.150 [RX] 01 03 28 00 00 00 00 00 00 00 00 00 00 00 00 41 43 74 BC 41 4A 2D 0E 41 50 83 12 C3 75 85 1F C3 28 E9 79 00 00 00 00 C2 99 37 4C CA 41 
7885.549 [RX] 01 03 15 10 00 14 40 0C 
7885.565 [RX] 01 03 28 00 00 00 00 00 00 00 00 00 00 00 00 41 40 62 4E 41 46 E9 79 41 4D 0E 56 C3 72 5A 1D C3 27 0A 3D 00 00 00 00 C2 96 9F BE 80 9A 
7885.945 [RX] 01 03 15 10 00 14 40 0C 
7885.961 [RX] 01 03 28 00 00 00 00 00 00 00 00 00 00 00 00 41 40 62 4E 41 46 E9 79 41 4D 0E 56 C3 73 5C 29 C3 27 78 D5 00 00 00 00 C2 97 C6 A8 EF 53 
7886.347 [RX] 01 03 15 10 00 14 40 0C 
7886.361 [RX] 01 03 28 00 00 00 00 00 00 00 00 00 00 00 00 41 41 BA 5E 41 48 72 B0 41 4E 97 8D C3 74 F1 AA C3 28 7A E1 00 00 00 00 C2 98 ED 91 9B 46 
7886.738 [RX] 01 03 15 10 00 14 40 0C 
7886.758 [RX] 01 03 28 00 00 00 00 00 00 00 00 00 00 00 00 41 43 43 96 41 49 CA C1 41 4F EF 9E C3 76 AC 08 C3 29 7C EE 00 00 00 00 C2 9A 14 7B 17 54 
7887.133 [RX] 01 03 15 10 00 14 40 0C 
7887.147 [RX] 01 03 28 00 00 00 00 00 00 00 00 00 00 00 00 41 43 43 96 41 49 CA C1 41 4F EF 9E C3 77 AE 14 C3 2A 35 3F 00 00 00 00 C2 9A F1 AA 3D EC 
7887.544 [RX] 01 03 15 10 00 14 40 0C 
7887.559 [RX] 01 03 28 00 00 00 00 00 00 00 00 00 00 00 00 41 45 60 42 41 4C 18 93 41 52 6E 98 C3 7E 4D D3 C3 2D F3 B6 00 00 00 00 C2 A0 6A 7F 34 D9 
7887.953 [RX] 01 03 15 10 00 14 40 0C 
7887.971 [RX] 01 03 28 00 00 00 00 00 00 00 00 00 00 00 00 41 4C 49 BA 41 53 02 0C 41 59 26 E9 C3 81 87 2B C3 31 1E B8 00 00 00 00 C2 A3 95 81 E8 16 
7888.349 [RX] 01 03 15 10 00 14 40 0C 
7888.365 [RX] 01 03 28 00 00 00 00 00 00 00 00 00 00 00 00 41 4C 49 BA 41 53 02 0C 41 59 26 E9 C3 83 0A 3D C3 33 22 D1 00 00 00 00 C2 A5 E3 54 DE 18 
7888.754 [RX] 01 03 15 10 00 14 40 0C 
7888.769 [RX] 01 03 28 00 00 00 00 00 00 00 00 00 00 00 00 41 4D D2 F2 41 54 BC 6A 41 5B 12 6F C3 82 2D 0E C3 31 FB E7 00 00 00 00 C2 A4 72 B0 15 C3 
7889.142 [RX] 01 03 15 10 00 14 40 0C 
7889.159 [RX] 01 03 28 00 00 00 00 00 00 00 00 00 00 00 00 41 4B E7 6D 41 52 D0 E5 41 59 26 E9 C3 81 62 4E C3 31 1E B8 00 00 00 00 C2 A3 02 0C 56 94 
7889.549 [RX] 01 03 15 10 00 14 40 0C 
7889.562 [RX] 01 03 28 00 00 00 00 00 00 00 00 00 00 00 00 41 4B E7 6D 41 52 D0 E5 41 59 26 E9 C3 81 87 2B C3 31 1E B8 00 00 00 00 C2 A3 DF 3B 27 92 
7889.954 [RX] 01 03 15 10 00 14 40 0C 
7889.970 [RX] 01 03 28 00 00 00 00 00 00 00 00 00 00 00 00 41 4B 22 D1 41 52 3D 71 41 58 F5 C3 C3 80 85 1F C3 2F D2 F2 00 00 00 00 C2 A2 6E 98 98 56 
7890.359 [RX] 01 03 15 10 00 14 40 0C 
7890.375 [RX] 01 03 28 00 00 00 00 00 00 00 00 00 00 00 00 41 49 FB E7 41 51 16 87 41 57 9D B2 C3 80 4D D3 C3 2F 64 5A 00 00 00 00 C2 A2 24 DD D9 28 
7890.742 [RX] 01 03 15 10 00 14 40 0C 
7890.759 [RX] 01 03 28 00 00 00 00 00 00 00 00 00 00 00 00 41 49 FB E7 41 51 16 87 41 57 9D B2 C3 7F E3 54 C3 2F 3F 7D 00 00 00 00 C2 A1 47 AE 69 C0 
7891.149 [RX] 01 03 15 10 00 14 40 0C 
7891.165 [RX] 01 03 28 00 00 00 00 00 00 00 00 00 00 00 00 41 49 68 73 41 50 20 C5 41 56 76 C9 C3 7F 2B 02 C3 2E 62 4E 00 00 00 00 C2 A1 47 AE 7B 33 
7891.551 [RX] 01 03 15 10 00 14 40 0C 
7891.566 [RX] 01 03 28 00 00 00 00 00 00 00 00 00 00 00 00 41 47 DF 3B 41 4E 97 8D 41 54 BC 6A C3 7D DF 3B C3 2D 85 1F 00 00 00 00 C2 A0 B4 39 13 06 
7891.952 [RX] 01 03 15 10 00 14 40 0C 
7891.966 [RX] 01 03 28 00 00 00 00 00 00 00 00 00 00 00 00 41 47 DF 3B 41 4E 97 8D 41 54 BC 6A C3 7F 2B 02 C3 2E 3D 71 00 00 00 00 C2 A1 DB 23 A8 2A 
7892.362 [RX] 01 03 15 10 00 14 40 0C 
7892.377 [RX] 01 03 28 00 00 00 00 00 00 00 00 00 00 00 00 41 48 10 62 41 4E 35 3F 41 54 28 F6 C3 7A FD F4 C3 2B EF 9E 00 00 00 00 C2 9D D2 F2 AB 79 
7892.760 [RX] 01 03 15 10 00 14 40 0C 
7892.774 [RX] 01 03 28 00 00 00 00 00 00 00 00 00 00 00 00 41 44 9B A6 41 4A C0 83 41 50 83 12 C3 78 D4 FE C3 2A A3 D7 00 00 00 00 C2 9C 18 93 10 61 
7893.150 [RX] 01 03 15 10 00 14 40 0C 
7893.164 [RX] 01 03 28 00 00 00 00 00 00 00 00 00 00 00 00 41 44 9B A6 41 4A C0 83 41 50 83 12 C3 7D 95 81 C3 2D 3B 64 00 00 00 00 C2 A0 B4 39 BE BB 
7893.551 [RX] 01 03 15 10 00 14 40 0C 
7893.565 [RX] 01 03 28 00 00 00 00 00 00 00 00 00 00 00 00 41 48 A3 D7 41 4E F9 DB 41 54 ED 91 C3 80 4D D3 C3 2F 3F 7D 00 00 00 00 C2 A2 B8 52 8C 9C 
7893.954 [RX] 01 03 15 10 00 14 40 0C 
7893.969 [RX] 01 03 28 00 00 00 00 00 00 00 00 00 00 00 00 41 49 FB E7 41 50 51 EC 41 56 45 A2 C3 80 60 42 C3 2F 1A A0 00 00 00 00 C2 A3 02 0C 43 62 
7894.355 [RX] 01 03 15 10 00 14 40 0C 
7894.370 [RX] 01 03 28 00 00 00 00 00 00 00 00 00 00 00 00 41 49 FB E7 41 50 51 EC 41 56 45 A2 C3 80 E1 48 C3 2F F7 CF 00 00 00 00 C2 A3 95 81 08 E2 
7894.746 [RX] 01 03 15 10 00 14 40 0C 
7894.761 [RX] 01 03 28 00 00 00 00 00 00 00 00 00 00 00 00 41 4A F1 AA 41 51 47 AE 41 57 6C 8B C3 80 BC 6A C3 2F 89 37 00 00 00 00 C2 A3 DF 3B 22 7D 
7895.167 [RX] 01 03 15 10 00 14 40 0C 
7895.182 [RX] 01 03 28 00 00 00 00 00 00 00 00 00 00 00 00 41 47 7C EE 41 4E 35 3F 41 54 8B 44 C3 7D 95 81 C3 2D 16 87 00 00 00 00 C2 A0 B4 39 A6 57 
7895.549 [RX] 01 03 15 10 00 14 40 0C 
7895.563 [RX] 01 03 28 00 00 00 00 00 00 00 00 00 00 00 00 41 47 7C EE 41 4E 35 3F 41 54 8B 44 C3 7C 24 DD C3 2C 14 7B 00 00 00 00 C2 A0 20 C5 9D C9 
7896.040 [RX] 01 03 15 10 00 14 40 0C 
7896.054 [RX] 01 03 28 00 00 00 00 00 00 00 00 00 00 00 00 41 46 E9 79 41 4D A1 CB 41 53 F7 CF C3 7F 4F DF C3 2E 18 93 00 00 00 00 C2 A2 24 DD AA 56 
7896.361 [RX] 01 03 15 10 00 14 40 0C 
7896.397 [RX] 01 03 28 00 00 00 00 00 00 00 00 00 00 00 00 41 46 E9 79 41 4D A1 CB 41 53 F7 CF C3 7F BE 77 C3 2E 3D 71 00 00 00 00 C2 A3 4B C7 F9 AB 
7896.751 [RX] 01 03 15 10 00 14 40 0C 
7896.765 [RX] 01 03 28 00 00 00 00 00 00 00 00 00 00 00 00 41 48 72 B0 41 4F 5C 29 41 55 E3 54 C3 7C 93 75 C3 2C 14 7B 00 00 00 00 C2 A0 B4 39 7B 05 
7897.158 [RX] 01 03 15 10 00 14 40 0C 
7897.174 [RX] 01 03 28 00 00 00 00 00 00 00 00 00 00 00 00 41 46 24 DD 41 4D 0E 56 41 53 64 5A C3 7D 95 81 C3 2C A7 F0 00 00 00 00 C2 A1 DB 23 0A B5 
7897.569 [RX] 01 03 15 10 00 14 40 0C 
7897.586 [RX] 01 03 28 00 00 00 00 00 00 00 00 00 00 00 00 41 47 1A A0 41 4E 04 19 41 54 8B 44 C3 7D 95 81 C3 2C A7 F0 00 00 00 00 C2 A1 91 68 F5 F1 
7897.965 [RX] 01 03 15 10 00 14 40 0C 
7897.979 [RX] 01 03 28 00 00 00 00 00 00 00 00 00 00 00 00 41 47 1A A0 41 4E 04 19 41 54 8B 44 C3 79 8D 50 C3 2A 35 3F 00 00 00 00 C2 9E B0 21 95 9A 
7898.363 [RX] 01 03 15 10 00 14 40 0C 
7898.379 [RX] 01 03 28 00 00 00 00 00 00 00 00 00 00 00 00 41 43 A5 E3 41 4A 8F 5C 41 50 E5 60 C3 7B B6 46 C3 2B 5C 29 00 00 00 00 C2 A0 6A 7F 7B 31 
7898.750 [RX] 01 03 15 10 00 14 40 0C 
7898.765 [RX] 01 03 28 00 00 00 00 00 00 00 00 00 00 00 00 41 49 37 4C 41 4F BE 77 41 55 E3 54 C3 80 60 42 C3 2E 87 2B 00 00 00 00 C2 A4 28 F6 E6 6B 
7899.157 [RX] 01 03 15 10 00 14 40 0C 
7899.172 [RX] 01 03 28 00 00 00 00 00 00 00 00 00 00 00 00 41 49 37 4C 41 4F BE 77 41 55 E3 54 C3 80 BC 6A C3 2F 3F 7D 00 00 00 00 C2 A4 72 B0 B5 AF 
7899.554 [RX] 01 03 15 10 00 14 40 0C 
7899.569 [RX] 01 03 28 00 00 00 00 00 00 00 00 00 00 00 00 41 49 37 4C 41 4F EF 9E 41 56 45 A2 C3 80 BC 6A C3 2F 1A A0 00 00 00 00 C2 A4 72 B0 AA FF 
7899.955 [RX] 01 03 15 10 00 14 40 0C 
7899.970 [RX] 01 03 28 00 00 00 00 00 00 00 00 00 00 00 00 41 4B 22 D1 41 52 0C 4A 41 58 93 75 C3 81 E3 54 C3 30 66 66 00 00 00 00 C2 A6 76 C9 E9 14 
7900.360 [RX] 01 03 15 10 00 14 40 0C 
7900.374 [RX] 01 03 28 00 00 00 00 00 00 00 00 00 00 00 00 41 4B 22 D1 41 52 0C 4A 41 58 93 75 C3 80 97 8D C3 2E F5 C3 00 00 00 00 C2 A4 28 F6 F6 85 
7900.756 [RX] 01 03 15 10 00 14 40 0C 
7900.772 [RX] 01 03 28 00 00 00 00 00 00 00 00 00 00 00 00 41 48 10 62 41 4E F9 DB 41 55 81 06 C3 7E 28 F6 C3 2D 16 87 00 00 00 00 C2 A2 24 DD 1D 39 
7901.161 [RX] 01 03 15 10 00 14 40 0C 
7901.178 [RX] 01 03 28 00 00 00 00 00 00 00 00 00 00 00 00 41 47 4B C7 41 4E 35 3F 41 54 8B 44 C3 7E 72 B0 C3 2D 16 87 00 00 00 00 C2 A2 B8 52 A0 09 
7901.571 [RX] 01 03 15 10 00 14 40 0C 
7901.586 [RX] 01 03 28 00 00 00 00 00 00 00 00 00 00 00 00 41 47 4B C7 41 4E 35 3F 41 54 8B 44 C3 80 4D D3 C3 2E 62 4E 00 00 00 00 C2 A4 28 F6 9E 40 
7901.963 [RX] 01 03 15 10 00 14 40 0C 
7901.979 [RX] 01 03 28 00 00 00 00 00 00 00 00 00 00 00 00 41 48 72 B0 41 4F 5C 29 41 55 B2 2D C3 7E 04 19 C3 2D 16 87 00 00 00 00 C2 A1 DB 23 45 92 
7902.371 [RX] 01 03 15 10 00 14 40 0C 
7902.387 [RX] 01 03 28 00 00 00 00 00 00 00 00 00 00 00 00 41 47 7C EE 41 4E 04 19 41 54 28 F6 C3 7D 95 81 C3 2D 3B 64 00 00 00 00 C2 A0 6A 7F 97 9F 
7902.771 [RX] 01 03 15 10 00 14 40 0C 
7902.788 [RX] 01 03 28 00 00 00 00 00 00 00 00 00 00 00 00 41 47 7C EE 41 4E 04 19 41 54 28 F6 C3 7E E1 48 C3 2D F3 B6 00 00 00 00 C2 A1 91 68 EE AF 
7903.153 [RX] 01 03 15 10 00 14 40 0C 
7903.167 [RX] 01 03 28 00 00 00 00 00 00 00 00 00 00 00 00 41 47 DF 3B 41 4E 66 66 41 54 8B 44 C3 7B 91 68 C3 2C 39 58 00 00 00 00 C2 9E B0 21 09 B9 
7903.568 [RX] 01 03 15 10 00 14 40 0C 
7903.582 [RX] 01 03 28 00 00 00 00 00 00 00 00 00 00 00 00 41 43 D7 0A 41 4A 5E 35 41 50 83 12 C3 78 66 66 C3 29 EB 85 00 00 00 00 C2 9C AC 08 67 11 
7903.974 [RX] 01 03 15 10 00 14 40 0C 
7903.990 [RX] 01 03 28 00 00 00 00 00 00 00 00 00 00 00 00 41 43 D7 0A 41 4A 5E 35 41 50 83 12 C3 7D 26 E9 C3 2C CC CD 00 00 00 00 C2 A0 B4 39 F4 FB 
7904.365 [RX] 01 03 15 10 00 14 40 0C 
7904.382 [RX] 01 03 28 00 00 00 00 00 00 00 00 00 00 00 00 41 48 72 B0 41 4F 2B 02 41 55 81 06 C3 80 CE D9 C3 2F AE 14 00 00 00 00 C2 A3 DF 3B 2B CF 
7904.758 [RX] 01 03 15 10 00 14 40 0C 
7904.800 [RX] 01 03 28 00 00 00 00 00 00 00 00 00 00 00 00 41 48 72 B0 41 4F 2B 02 41 55 81 06 C3 80 CE D9 C3 2F 89 37 00 00 00 00 C2 A3 DF 3B 16 4E 
7905.163 [RX] 01 03 15 10 00 14 40 0C 
7905.179 [RX] 01 03 28 00 00 00 00 00 00 00 00 00 00 00 00 41 4A 2D 0E 41 51 16 87 41 57 6C 8B C3 81 BE 77 C3 30 B0 21 00 00 00 00 C2 A5 99 9A A2 89 
7905.553 [RX] 01 03 15 10 00 14 40 0C 
7905.569 [RX] 01 03 28 00 00 00 00 00 00 00 00 00 00 00 00 41 4B 22 D1 41 52 0C 4A 41 58 62 4E C3 80 A9 FC C3 2F 89 37 00 00 00 00 C2 A3 4B C7 DD F1 
7905.975 [RX] 01 03 15 10 00 14 40 0C 
7905.992 [RX] 01 03 28 00 00 00 00 00 00 00 00 00 00 00 00 41 47 DF 3B 41 4E 66 66 41 54 8B 44 C3 7D DF 3B C3 2D 85 1F 00 00 00 00 C2 A0 B4 39 B3 47 
7906.356 [RX] 01 03 15 10 00 14 40 0C 
7906.371 [RX] 01 03 28 00 00 00 00 00 00 00 00 00 00 00 00 41 47 DF 3B 41 4E 66 66 41 54 8B 44 C3 7B 6C 8B C3 2B EF 9E 00 00 00 00 C2 9E F9 DB BC 92 
7906.766 [RX] 01 03 15 10 00 14 40 0C 
7906.783 [RX] 01 03 28 00 00 00 00 00 00 00 00 00 00 00 00 41 46 87 2B 41 4D 0E 56 41 53 33 33 C3 7E BC 6A C3 2D CE D9 00 00 00 00 C2 A1 DB 23 0D B7 
7907.162 [RX] 01 03 15 10 00 14 40 0C 
7907.180 [RX] 01 03 28 00 00 00 00 00 00 00 00 00 00 00 00 41 48 D4 FE 41 4F BE 77 41 56 14 7B C3 7F 4F DF C3 2E 3D 71 00 00 00 00 C2 A2 24 DD 95 F1 
7907.556 [RX] 01 03 15 10 00 14 40 0C 
7907.573 [RX] 01 03 28 00 00 00 00 00 00 00 00 00 00 00 00 41 48 D4 FE 41 4F BE 77 41 56 14 7B C3 7D 4B C7 C3 2C CC CD 00 00 00 00 C2 A0 B4 39 C1 1E 
7907.987 [RX] 01 03 15 10 00 14 40 0C 
7908.002 [RX] 01 03 28 00 00 00 00 00 00 00 00 00 00 00 00 41 47 1A A0 41 4E 04 19 41 54 8B 44 C3 7D DF 3B C3 2D 3B 64 00 00 00 00 C2 A0 FD F4 38 91 
7908.368 [RX] 01 03 15 10 00 14 40 0C 
7908.385 [RX] 01 03 28 00 00 00 00 00 00 00 00 00 00 00 00 41 48 D4 FE 41 4F 8D 50 41 55 B2 2D C3 7E 97 8D C3 2D F3 B6 00 00 00 00 C2 A0 FD F4 25 85 
7908.763 [RX] 01 03 15 10 00 14 40 0C 
7908.778 [RX] 01 03 28 00 00 00 00 00 00 00 00 00 00 00 00 41 48 D4 FE 41 4F 8D 50 41 55 B2 2D C3 79 8D 50 C3 2A ED 91 00 00 00 00 C2 9D 3F 7D 91 6E 
7909.161 [RX] 01 03 15 10 00 14 40 0C 
7909.176 [RX] 01 03 28 00 00 00 00 00 00 00 00 00 00 00 00 41 44 9B A6 41 4B 53 F8 41 51 A9 FC C3 7B 47 AE C3 2B CA C1 00 00 00 00 C2 9E F9 DB 06 D1 
7909.561 [RX] 01 03 15 10 00 14 40 0C 
7909.577 [RX] 01 03 28 00 00 00 00 00 00 00 00 00 00 00 00 41 49 68 73 41 50 83 12 41 57 0A 3D C3 80 60 42 C3 2E D0 E5 00 00 00 00 C2 A3 95 81 6E 65 
7909.966 [RX] 01 03 15 10 00 14 40 0C 
7909.981 [RX] 01 03 28 00 00 00 00 00 00 00 00 00 00 00 00 41 49 68 73 41 50 83 12 41 57 0A 3D C3 81 4F DF C3 30 1C AC 00 00 00 00 C2 A4 BC 6A 43 30 
7910.362 [RX] 01 03 15 10 00 14 40 0C 
7910.376 [RX] 01 03 28 00 00 00 00 00 00 00 00 00 00 00 00 41 4A 8F 5C 41 51 DB 23 41 58 93 75 C3 81 18 93 C3 30 1C AC 00 00 00 00 C2 A4 28 F6 2F 98 
7910.783 [RX] 01 03 15 10 00 14 40 0C 
7910.797 [RX] 01 03 28 00 00 00 00 00 00 00 00 00 00 00 00 41 4A 5E 35 41 51 16 87 41 57 3B 64 C3 80 A9 FC C3 2F 89 37 00 00 00 00 C2 A3 4B C7 29 49 
7911.163 [RX] 01 03 15 10 00 14 40 0C 
7911.179 [RX] 01 03 28 00 00 00 00 00 00 00 00 00 00 00 00 41 4A 5E 35 41 51 16 87 41 57 3B 64 C3 7F 4F DF C3 2E 3D 71 00 00 00 00 C2 A2 24 DD AE 2A 
7911.564 [RX] 01 03 15 10 00 14 40 0C 
7911.579 [RX] 01 03 28 00 00 00 00 00 00 00 00 00 00 00 00 41 47 7C EE 41 4E 35 3F 41 54 5A 1D C3 76 18 93 C3 28 31 27 00 00 00 00 C2 9B 85 1F 66 B5 
7911.975 [RX] 01 03 15 10 00 14 40 0C 
7911.991 [RX] 01 03 28 00 00 00 00 00 00 00 00 00 00 00 00 41 3E D9 17 41 45 91 68 41 4B E7 6D C3 73 37 4C C3 25 BE 77 00 00 00 00 C2 9A A7 F0 30 13 
7912.366 [RX] 01 03 15 10 00 14 40 0C 
7912.380 [RX] 01 03 28 00 00 00 00 00 00 00 00 00 00 00 00 41 3E D9 17 41 45 91 68 41 4B E7 6D C3 74 F1 AA C3 27 0A 3D 00 00 00 00 C2 9B CE D9 7A 27 
7912.753 [RX] 01 03 15 10 00 14 40 0C 
7912.766 [RX] 01 03 28 00 00 00 00 00 00 00 00 00 00 00 00 41 3F CE D9 41 46 87 2B 41 4C AC 08 C3 72 A3 D7 C3 25 74 BC 00 00 00 00 C2 9A 14 7B 92 FF 
7913.163 [RX] 01 03 15 10 00 14 40 0C 
7913.179 [RX] 01 03 28 00 00 00 00 00 00 00 00 00 00 00 00 41 3D 81 06 41 44 08 31 41 4A 2D 0E C3 70 E9 79 C3 24 97 8D 00 00 00 00 C2 98 5A 1D 56 87 
7913.568 [RX] 01 03 15 10 00 14 40 0C 
7913.582 [RX] 01 03 28 00 00 00 00 00 00 00 00 00 00 00 00 41 3D 81 06 41 44 08 31 41 4A 2D 0E C3 71 C6 A8 C3 25 2B 02 00 00 00 00 C2 99 37 4C DB 36 
7913.959 [RX] 01 03 15 10 00 14 40 0C 
7913.972 [RX] 01 03 28 00 00 00 00 00 00 00 00 00 00 00 00 41 3E 14 7B 41 44 9B A6 41 4A C0 83 C3 6F 9D B2 C3 23 BA 5E 00 00 00 00 C2 97 7C EE 6E 02 
7914.380 [RX] 01 03 15 10 00 14 40 0C 
7914.400 [RX] 01 03 28 00 00 00 00 00 00 00 00 00 00 00 00 41 3E 14 7B 41 44 9B A6 41 4A C0 83 C3 6C 72 B0 C3 21 91 68 00 00 00 00 C2 95 C2 8F D1 70 
7914.762 [RX] 01 03 15 10 00 14 40 0C 
7914.776 [RX] 01 03 28 00 00 00 00 00 00 00 00 00 00 00 00 41 3A 0C 4A 41 41 26 E9 41 47 AE 14 C3 72 35 3F C3 24 E1 48 00 00 00 00 C2 9A 5E 35 DF 9C 
7915.172 [RX] 01 03 15 10 00 14 40 0C 
7915.187 [RX] 01 03 28 00 00 00 00 00 00 00 00 00 00 00 00 41 3F 9D B2 41 46 B8 52 41 4D 3F 7D C3 76 62 4E C3 27 9D B2 00 00 00 00 C2 9D 3F 7D EC 2E 
7915.576 [RX] 01 03 15 10 00 14 40 0C 
7915.592 [RX] 01 03 28 00 00 00 00 00 00 00 00 00 00 00 00 41 3F CE D9 41 46 87 2B 41 4C DD 2F C3 74 5E 35 C3 26 9B A6 00 00 00 00 C2 9B 85 1F C4 C6 
7915.966 [RX] 01 03 15 10 00 14 40 0C 
7915.981 [RX] 01 03 28 00 00 00 00 00 00 00 00 00 00 00 00 41 3F CE D9 41 46 87 2B 41 4C DD 2F C3 75 F3 B6 C3 27 78 D5 00 00 00 00 C2 9C F5 C3 47 A6 
7916.372 [RX] 01 03 15 10 00 14 40 0C 
7916.388 [RX] 01 03 28 00 00 00 00 00 00 00 00 00 00 00 00 41 41 58 10 41 48 10 62 41 4E 66 66 C3 76 18 93 C3 27 9D B2 00 00 00 00 C2 9C AC 08 2D 0E 
7916.769 [RX] 01 03 15 10 00 14 40 0C 
7916.785 [RX] 01 03 28 00 00 00 00 00 00 00 00 00 00 00 00 41 3E D9 17 41 45 F3 B6 41 4C 7A E1 C3 72 A3 D7 C3 25 74 BC 00 00 00 00 C2 9A 14 7B CB BA 
7917.165 [RX] 01 03 15 10 00 14 40 0C 
7917.181 [RX] 01 03 28 00 00 00 00 00 00 00 00 00 00 00 00 41 3E D9 17 41 45 F3 B6 41 4C 7A E1 C3 71 0E 56 C3 24 4D D3 00 00 00 00 C2 99 37 4C 4C AE 
7917.627 [RX] 01 03 15 10 00 14 40 0C 
7917.643 [RX] 01 03 28 00 00 00 00 00 00 00 00 00 00 00 00 41 3D B2 2D 41 44 CC CD 41 4B 85 1F C3 74 39 58 C3 26 2D 0E 00 00 00 00 C2 9B CE D9 12 81 
7917.977 [RX] 01 03 15 10 00 14 40 0C 
7917.993 [RX] 01 03 28 00 00 00 00 00 00 00 00 00 00 00 00 41 3F 0A 3D 41 45 F3 B6 41 4C 49 BA C3 72 ED 91 C3 25 99 9A 00 00 00 00 C2 9A 5E 35 62 EE 
7918.368 [RX] 01 03 15 10 00 14 40 0C 
7918.382 [RX] 01 03 28 00 00 00 00 00 00 00 00 00 00 00 00 41 3F 0A 3D 41 45 F3 B6 41 4C 49 BA C3 71 58 10 C3 24 97 8D 00 00 00 00 C2 99 37 4C F9 91 
7918.765 [RX] 01 03 15 10 00 14 40 0C 
7918.780 [RX] 01 03 28 00 00 00 00 00 00 00 00 00 00 00 00 41 3D E3 54 41 44 9B A6 41 4A F1 AA C3 72 ED 91 C3 25 99 9A 00 00 00 00 C2 9A A7 F0 EB 94 
7919.170 [RX] 01 03 15 10 00 14 40 0C 
7919.183 [RX] 01 03 28 00 00 00 00 00 00 00 00 00 00 00 00 41 3E A7 F0 41 45 60 42 41 4B B6 46 C3 72 35 3F C3 25 2B 02 00 00 00 00 C2 99 CA C1 5B 79 
7919.615 [RX] 01 03 15 10 00 14 40 0C 
7919.630 [RX] 01 03 28 00 00 00 00 00 00 00 00 00 00 00 00 41 3E A7 F0 41 45 60 42 41 4B B6 46 C3 6D 4F DF C3 22 00 00 00 00 00 00 C2 96 56 04 EB 61 
7919.970 [RX] 01 03 15 10 00 14 40 0C 
7919.998 [RX] 01 03 28 00 00 00 00 00 00 00 00 00 00 00 00 41 3A D0 E5 41 41 EB 85 41 48 A3 D7 C3 6F 78 D5 C3 23 4B C7 00 00 00 00 C2 98 5A 1D C6 CD 
7920.393 [RX] 01 03 15 10 00 14 40 0C 
7920.406 [RX] 01 03 28 00 00 00 00 00 00 00 00 00 00 00 00 41 3F 3B 64 41 46 56 04 41 4D 0E 56 C3 74 CC CD C3 26 9B A6 00 00 00 00 C2 9C 62 4E 46 69 
7920.814 [RX] 01 03 15 10 00 14 40 0C 
7920.828 [RX] 01 03 28 00 00 00 00 00 00 00 00 00 00 00 00 41 3F 3B 64 41 46 56 04 41 4D 0E 56 C3 75 85 1F C3 27 2F 1B 00 00 00 00 C2 9C AC 08 0D C8 
7921.170 [RX] 01 03 15 10 00 14 40 0C 
7921.185 [RX] 01 03 28 00 00 00 00 00 00 00 00 00 00 00 00 41 40 93 75 41 47 7C EE 41 4E 04 19 C3 76 62 4E C3 27 C2 8F 00 00 00 00 C2 9D 3F 7D D2 82 
7921.571 [RX] 01 03 15 10 00 14 40 0C 
7921.586 [RX] 01 03 28 00 00 00 00 00 00 00 00 00 00 00 00 41 41 58 10 41 48 41 89 41 4E 97 8D C3 76 AC 08 C3 27 E7 6D 00 00 00 00 C2 9D 89 37 22 F5 
7922.013 [RX] 01 03 15 10 00 14 40 0C 
7922.029 [RX] 01 03 28 00 00 00 00 00 00 00 00 00 00 00 00 41 41 58 10 41 48 41 89 41 4E 97 8D C3 75 3B 64 C3 27 0A 3D 00 00 00 00 C2 9C 62 4E D0 B2 
7922.369 [RX] 01 03 15 10 00 14 40 0C 
7922.382 [RX] 01 03 28 00 00 00 00 00 00 00 00 00 00 00 00 41 40 00 00 41 47 1A A0 41 4D A1 CB C3 73 5C 29 C3 25 BE 77 00 00 00 00 C2 9A F1 AA 9B E6 
7922.780 [RX] 01 03 15 10 00 14 40 0C 
7922.793 [RX] 01 03 28 00 00 00 00 00 00 00 00 00 00 00 00 41 3F 0A 3D 41 46 24 DD 41 4C AC 08 C3 73 CA C1 C3 26 08 31 00 00 00 00 C2 9B 85 1F 82 8E 
7923.181 [RX] 01 03 15 10 00 14 40 0C 
7923.197 [RX] 01 03 28 00 00 00 00 00 00 00 00 00 00 00 00 41 3F 0A 3D 41 46 24 DD 41 4C AC 08 C3 76 AC 08 C3 27 E7 6D 00 00 00 00 C2 9D 89 37 41 A5 
7923.592 [RX] 01 03 15 10 00 14 40 0C 
7923.609 [RX] 01 03 28 00 00 00 00 00 00 00 00 00 00 00 00 41 41 89 37 41 48 72 B0 41 4E C8 B4 C3 75 F3 B6 C3 27 78 D5 00 00 00 00 C2 9C F5 C3 1C AC 
7923.974 [RX] 01 03 15 10 00 14 40 0C 
7923.991 [RX] 01 03 28 00 00 00 00 00 00 00 00 00 00 00 00 41 3F 6C 8B 41 46 56 04 41 4C AC 08 C3 74 14 7B C3 26 51 EC 00 00 00 00 C2 9B 3B 64 D2 AC 
7924.381 [RX] 01 03 15 10 00 14 40 0C 
7924.395 [RX] 01 03 28 00 00 00 00 00 00 00 00 00 00 00 00 41 3F 6C 8B 41 46 56 04 41 4C AC 08 C3 74 5E 35 C3 26 76 C9 00 00 00 00 C2 9B CE D9 E0 68 
7924.804 [RX] 01 03 15 10 00 14 40 0C 
7924.821 [RX] 01 03 28 00 00 00 00 00 00 00 00 00 00 00 00 41 3F 3B 64 41 46 24 DD 41 4C AC 08 C3 70 7A E1 C3 24 28 F6 00 00 00 00 C2 98 A3 D7 23 C2 
7925.179 [RX] 01 03 15 10 00 14 40 0C 
7925.195 [RX] 01 03 28 00 00 00 00 00 00 00 00 00 00 00 00 41 3B 64 5A 41 42 4D D3 41 48 D4 FE C3 6E 51 EC C3 22 B8 52 00 00 00 00 C2 96 E9 79 1C 6B 
7925.584 [RX] 01 03 15 10 00 14 40 0C 
7925.598 [RX] 01 03 28 00 00 00 00 00 00 00 00 00 00 00 00 41 3B 64 5A 41 42 4D D3 41 48 D4 FE C3 73 12 6F C3 25 99 9A 00 00 00 00 C2 9A A7 F0 30 F8 
7925.976 [RX] 01 03 15 10 00 14 40 0C 
7925.992 [RX] 01 03 28 00 00 00 00 00 00 00 00 00 00 00 00 41 40 31 27 41 46 E9 79 41 4D 0E 56 C3 75 F3 B6 C3 27 78 D5 00 00 00 00 C2 9C F5 C3 FE F0 
7926.373 [RX] 01 03 15 10 00 14 40 0C 
7926.390 [RX] 01 03 28 00 00 00 00 00 00 00 00 00 00 00 00 41 40 C4 9C 41 47 7C EE 41 4D A1 CB C3 75 A9 FC C3 27 78 D5 00 00 00 00 C2 9C 62 4E 67 40 
7926.780 [RX] 01 03 15 10 00 14 40 0C 
7926.797 [RX] 01 03 28 00 00 00 00 00 00 00 00 00 00 00 00 41 40 C4 9C 41 47 7C EE 41 4D A1 CB C3 78 66 66 C3 28 C4 9C 00 00 00 00 C2 9E F9 DB 1A E1 
7927.186 [RX] 01 03 15 10 00 14 40 0C 
7927.202 [RX] 01 03 28 00 00 00 00 00 00 00 00 00 00 00 00 41 42 B0 21 41 49 99 9A 41 50 20 C5 C3 78 66 66 C3 28 C4 9C 00 00 00 00 C2 9E F9 DB 6E 99 
7927.618 [RX] 01 03 15 10 00 14 40 0C 
7927.635 [RX] 01 03 28 00 00 00 00 00 00 00 00 00 00 00 00 41 40 00 00 41 47 1A A0 41 4D D2 F2 C3 74 39 58 C3 26 51 EC 00 00 00 00 C2 9B CE D9 C9 33 
7927.989 [RX] 01 03 15 10 00 14 40 0C 
7928.006 [RX] 01 03 28 00 00 00 00 00 00 00 00 00 00 00 00 41 40 00 00 41 47 1A A0 41 4D D2 F2 C3 71 0E 56 C3 24 72 B0 00 00 00 00 C2 99 37 4C 5C 68 
7928.381 [RX] 01 03 15 10 00 14 40 0C 
7928.398 [RX] 01 03 28 00 00 00 00 00 00 00 00 00 00 00 00 41 3D B2 2D 41 44 6A 7F 41 4A C0 83 C3 73 A5 E3 C3 25 E3 54 00 00 00 00 C2 9B 85 1F 66 63 
7928.787 [RX] 01 03 15 10 00 14 40 0C 
7928.803 [RX] 01 03 28 00 00 00 00 00 00 00 00 00 00 00 00 41 40 00 00 41 46 B8 52 41 4D 0E 56 C3 74 83 12 C3 26 9B A6 00 00 00 00 C2 9B 85 1F 8A 3D 
7929.173 [RX] 01 03 15 10 00 14 40 0C 
7929.189 [RX] 01 03 28 00 00 00 00 00 00 00 00 00 00 00 00 41 40 00 00 41 46 B8 52 41 4D 0E 56 C3 72 A3 D7 C3 25 4F DF 00 00 00 00 C2 9A 5E 35 EF 9E 
7929.590 [RX] 01 03 15 10 00 14 40 0C 
7929.605 [RX] 01 03 28 00 00 00 00 00 00 00 00 00 00 00 00 41 3E D9 17 41 45 C2 8F 41 4C 18 93 C3 73 EF 9E C3 26 2D 0E 00 00 00 00 C2 9B 85 1F 1D A5 
7930.001 [RX] 01 03 15 10 00 14 40 0C 
7930.016 [RX] 01 03 28 00 00 00 00 00 00 00 00 00 00 00 00 41 3E A7 F0 41 45 C2 8F 41 4C 49 BA C3 72 35 3F C3 25 2B 02 00 00 00 00 C2 9A 14 7B 43 B0 
7930.417 [RX] 01 03 15 10 00 14 40 0C 
7930.434 [RX] 01 03 28 00 00 00 00 00 00 00 00 00 00 00 00 41 3E A7 F0 41 45 C2 8F 41 4C 49 BA C3 6D 06 25 C3 22 00 00 00 00 00 00 C2 95 C2 8F 15 6E 
7930.787 [RX] 01 03 15 10 00 14 40 0C 
7930.803 [RX] 01 03 28 00 00 00 00 00 00 00 00 00 00 00 00 41 3A 9F BE 41 41 58 10 41 47 AE 14 C3 6F C2 8F C3 23 95 81 00 00 00 00 C2 98 5A 1D 89 BD 
7931.203 [RX] 01 03 15 10 00 14 40 0C 
7931.217 [RX] 01 03 28 00 00 00 00 00 00 00 00 00 00 00 00 41 40 93 75 41 47 4B C7 41 4D 70 A4 C3 75 85 1F C3 27 2F 1B 00 00 00 00 C2 9C AC 08 06 D8 
7931.648 [RX] 01 03 15 10 00 14 40 0C 
7931.663 [RX] 01 03 28 00 00 00 00 00 00 00 00 00 00 00 00 41 40 93 75 41 47 4B C7 41 4D 70 A4 C3 74 A7 F0 C3 26 9B A6 00 00 00 00 C2 9B CE D9 F8 00 
7931.990 [RX] 01 03 15 10 00 14 40 0C 
7932.007 [RX] 01 03 28 00 00 00 00 00 00 00 00 00 00 00 00 41 40 00 00 41 46 E9 79 41 4D 70 A4 C3 76 62 4E C3 27 9D B2 00 00 00 00 C2 9D 89 37 43 32 
7932.381 [RX] 01 03 15 10 00 14 40 0C 
7932.397 [RX] 01 03 28 00 00 00 00 00 00 00 00 00 00 00 00 41 42 7E FA 41 49 99 9A 41 50 51 EC C3 78 B0 21 C3 28 E9 79 00 00 00 00 C2 9F 8D 50 43 02 
7932.789 [RX] 01 03 15 10 00 14 40 0C 
7932.805 [RX] 01 03 28 00 00 00 00 00 00 00 00 00 00 00 00 41 42 7E FA 41 49 99 9A 41 50 51 EC C3 74 F1 AA C3 27 0A 3D 00 00 00 00 C2 9B CE D9 9D 15 
7933.186 [RX] 01 03 15 10 00 14 40 0C 
7933.202 [RX] 01 03 28 00 00 00 00 00 00 00 00 00 00 00 00 41 3F 3B 64 41 45 C2 8F 41 4B E7 6D C3 71 0E 56 C3 24 BC 6A 00 00 00 00 C2 98 5A 1D 95 9E 
7933.598 [RX] 01 03 15 10 00 14 40 0C 
7933.616 [RX] 01 03 28 00 00 00 00 00 00 00 00 00 00 00 00 41 3D E3 54 41 44 39 58 41 4A 2D 0E C3 71 0E 56 C3 24 BC 6A 00 00 00 00 C2 98 A3 D7 71 5B 
7933.993 [RX] 01 03 15 10 00 14 40 0C 
7934.010 [RX] 01 03 28 00 00 00 00 00 00 00 00 00 00 00 00 41 3D E3 54 41 44 39 58 41 4A 2D 0E C3 73 37 4C C3 26 08 31 00 00 00 00 C2 9A 5E 35 4F A9 
7934.395 [RX] 01 03 15 10 00 14 40 0C 
7934.408 [RX] 01 03 28 00 00 00 00 00 00 00 00 00 00 00 00 41 3F 0A 3D 41 45 91 68 41 4B 85 1F C3 71 58 10 C3 25 06 25 00 00 00 00 C2 98 A3 D7 83 95 
7934.806 [RX] 01 03 15 10 00 14 40 0C 
7934.820 [RX] 01 03 28 00 00 00 00 00 00 00 00 00 00 00 00 41 3D E3 54 41 44 39 58 41 4A 2D 0E C3 71 0E 56 C3 24 97 8D 00 00 00 00 C2 98 A3 D7 EE 20 
7935.202 [RX] 01 03 15 10 00 14 40 0C 
7935.216 [RX] 01 03 28 00 00 00 00 00 00 00 00 00 00 00 00 41 3D E3 54 41 44 39 58 41 4A 2D 0E C3 72 10 62 C3 25 4F DF 00 00 00 00 C2 99 37 4C E6 3C 
7935.607 [RX] 01 03 15 10 00 14 40 0C 
7935.620 [RX] 01 03 28 00 00 00 00 00 00 00 00 00 00 00 00 41 3E 14 7B 41 44 6A 7F 41 4A 5E 35 C3 6D 4F DF C3 22 93 75 00 00 00 00 C2 95 78 D5 DD A4 
7935.997 [RX] 01 03 15 10 00 14 40 0C 
7936.010 [RX] 01 03 28 00 00 00 00 00 00 00 00 00 00 00 00 41 3A 6E 98 41 40 93 75 41 46 87 2B C3 6C 04 19 C3 21 B6 46 00 00 00 00 C2 94 9B A6 77 31 
7936.390 [RX] 01 03 15 10 00 14 40 0C 
7936.403 [RX] 01 03 28 00 00 00 00 00 00 00 00 00 00 00 00 41 3A 6E 98 41 40 93 75 41 46 87 2B C3 70 7A E1 C3 24 4D D3 00 00 00 00 C2 98 10 62 1B 23 
7936.819 [RX] 01 03 15 10 00 14 40 0C 
7936.833 [RX] 01 03 28 00 00 00 00 00 00 00 00 00 00 00 00 41 3E D9 17 41 45 60 42 41 4B 53 F8 C3 74 A7 F0 C3 27 0A 3D 00 00 00 00 C2 9A F1 AA 4F 1B 
7937.209 [RX] 01 03 15 10 00 14 40 0C 
7937.225 [RX] 01 03 28 00 00 00 00 00 00 00 00 00 00 00 00 41 40 00 00 41 46 24 DD 41 4C 18 93 C3 73 EF 9E C3 26 9B A6 00 00 00 00 C2 9A A7 F0 E8 68 
7937.594 [RX] 01 03 15 10 00 14 40 0C 
7937.608 [RX] 01 03 28 00 00 00 00 00 00 00 00 00 00 00 00 41 40 00 00 41 46 24 DD 41 4C 18 93 C3 75 3B 64 C3 27 53 F8 00 00 00 00 C2 9B 85 1F DA E0 
7938.005 [RX] 01 03 15 10 00 14 40 0C 
7938.019 [RX] 01 03 28 00 00 00 00 00 00 00 00 00 00 00 00 41 40 F5 C3 41 47 1A A0 41 4D 0E 56 C3 74 5E 35 C3 27 0A 3D 00 00 00 00 C2 9A A7 F0 FF C5 
7938.395 [RX] 01 03 15 10 00 14 40 0C 
7938.410 [RX] 01 03 28 00 00 00 00 00 00 00 00 00 00 00 00 41 3F CE D9 41 45 F3 B6 41 4B E7 6D C3 72 35 3F C3 26 2D 0E 00 00 00 00 C2 98 10 62 29 BF 
7938.803 [RX] 01 03 15 10 00 14 40 0C 
7938.817 [RX] 01 03 28 00 00 00 00 00 00 00 00 00 00 00 00 41 3F CE D9 41 45 F3 B6 41 4B E7 6D C3 6F 2F 1B C3 23 DF 3B 00 00 00 00 C2 96 9F BE 44 76 
7939.215 [RX] 01 03 15 10 00 14 40 0C 
7939.229 [RX] 01 03 28 00 00 00 00 00 00 00 00 00 00 00 00 41 3D 1E B8 41 43 43 96 41 49 37 4C C3 71 A1 CB C3 25 4F DF 00 00 00 00 C2 98 5A 1D F9 48 
7939.605 [RX] 01 03 15 10 00 14 40 0C 
7939.618 [RX] 01 03 28 00 00 00 00 00 00 00 00 00 00 00 00 41 3E A7 F0 41 44 CC CD 41 4A C0 83 C3 71 EB 85 C3 25 99 9A 00 00 00 00 C2 98 A3 D7 BC 97 
7939.995 [RX] 01 03 15 10 00 14 40 0C 
7940.011 [RX] 01 03 28 00 00 00 00 00 00 00 00 00 00 00 00 41 3E A7 F0 41 44 CC CD 41 4A C0 83 C3 6F 9D B2 C3 24 4D D3 00 00 00 00 C2 96 9F BE B5 60 
7940.391 [RX] 01 03 15 10 00 14 40 0C 
7940.404 [RX] 01 03 28 00 00 00 00 00 00 00 00 00 00 00 00 41 3D 4F DF 41 43 A5 E3 41 49 99 9A C3 71 A1 CB C3 25 4F DF 00 00 00 00 C2 98 5A 1D 4F 38 
7940.811 [RX] 01 03 15 10 00 14 40 0C 
7940.827 [RX] 01 03 28 00 00 00 00 00 00 00 00 00 00 00 00 41 3E 45 A2 41 44 6A 7F 41 4A 5E 35 C3 70 9F BE C3 24 BC 6A 00 00 00 00 C2 97 7C EE 79 8A 
7941.206 [RX] 01 03 15 10 00 14 40 0C 
7941.220 [RX] 01 03 28 00 00 00 00 00 00 00 00 00 00 00 00 41 3E 45 A2 41 44 6A 7F 41 4A 5E 35 C3 6C 28 F6 C3 22 00 00 00 00 00 00 C2 94 08 31 AA 26 
7941.601 [RX] 01 03 15 10 00 14 40 0C 
7941.616 [RX] 01 03 28 00 00 00 00 00 00 00 00 00 00 00 00 41 3A 3D 71 41 40 62 4E 41 46 56 04 C3 6E 76 C9 C3 23 4B C7 00 00 00 00 C2 96 56 04 BC B9 
7942.036 [RX] 01 03 15 10 00 14 40 0C 
7942.050 [RX] 01 03 28 00 00 00 00 00 00 00 00 00 00 00 00 41 40 00 00 41 46 24 DD 41 4C 18 93 C3 74 A7 F0 C3 27 0A 3D 00 00 00 00 C2 9B 3B 64 C5 11 
7942.396 [RX] 01 03 15 10 00 14 40 0C 
7942.411 [RX] 01 03 28 00 00 00 00 00 00 00 00 00 00 00 00 41 40 00 00 41 46 24 DD 41 4C 18 93 C3 73 81 06 C3 26 9B A6 00 00 00 00 C2 99 81 06 33 F9 
7942.801 [RX] 01 03 15 10 00 14 40 0C 
7942.815 [RX] 01 03 28 00 00 00 00 00 00 00 00 00 00 00 00 41 3F 6C 8B 41 45 91 68 41 4B 85 1F C3 73 CA C1 C3 26 9B A6 00 00 00 00 C2 9A 5E 35 E5 B9 
7943.243 [RX] 01 03 15 10 00 14 40 0C 
7943.259 [RX] 01 03 28 00 00 00 00 00 00 00 00 00 00 00 00 41 41 89 37 41 47 DF 3B 41 4D D2 F2 C3 75 F3 B6 C3 27 E7 6D 00 00 00 00 C2 9B CE D9 78 1A 
7943.615 [RX] 01 03 15 10 00 14 40 0C 
7943.631 [RX] 01 03 28 00 00 00 00 00 00 00 00 00 00 00 00 41 41 89 37 41 47 DF 3B 41 4D D2 F2 C3 73 81 06 C3 26 9B A6 00 00 00 00 C2 99 81 06 03 EE 
7944.012 [RX] 01 03 15 10 00 14 40 0C 
7944.028 [RX] 01 03 28 00 00 00 00 00 00 00 00 00 00 00 00 41 3F 0A 3D 41 45 2F 1B 41 4B 22 D1 C3 70 56 04 C3 24 97 8D 00 00 00 00 C2 97 33 33 D6 7B 
7944.388 [RX] 01 03 15 10 00 14 40 0C 
7944.404 [RX] 01 03 28 00 00 00 00 00 00 00 00 00 00 00 00 41 3D E3 54 41 44 08 31 41 49 CA C1 C3 70 7A E1 C3 24 BC 6A 00 00 00 00 C2 97 7C EE 6D 94 
7944.814 [RX] 01 03 15 10 00 14 40 0C 
7944.857 [RX] 01 03 28 00 00 00 00 00 00 00 00 00 00 00 00 41 3D E3 54 41 44 08 31 41 49 CA C1 C3 73 37 4C C3 26 76 C9 00 00 00 00 C2 99 37 4C E4 ED 
7945.199 [RX] 01 03 15 10 00 14 40 0C 
7945.215 [RX] 01 03 28 00 00 00 00 00 00 00 00 00 00 00 00 41 3F 6C 8B 41 45 91 68 41 4B 53 F8 C3 70 E9 79 C3 25 2B 02 00 00 00 00 C2 97 7C EE 0D 39 
7945.615 [RX] 01 03 15 10 00 14 40 0C 
7945.630 [RX] 01 03 28 00 00 00 00 00 00 00 00 00 00 00 00 41 3E 76 C9 41 44 9B A6 41 4A 5E 35 C3 71 7C EE C3 25 4F DF 00 00 00 00 C2 98 10 62 14 C5 
7946.031 [RX] 01 03 15 10 00 14 40 0C 
7946.045 [RX] 01 03 28 00 00 00 00 00 00 00 00 00 00 00 00 41 3E 76 C9 41 44 9B A6 41 4A 5E 35 C3 72 10 62 C3 25 E3 54 00 00 00 00 C2 98 5A 1D 77 6E 
7946.412 [RX] 01 03 15 10 00 14 40 0C 
7946.427 [RX] 01 03 28 00 00 00 00 00 00 00 00 00 00 00 00 41 3E 45 A2 41 44 6A 7F 41 4A 2D 0E C3 6E 08 31 C3 23 70 A4 00 00 00 00 C2 95 2F 1B 8D DC 
7946.802 [RX] 01 03 15 10 00 14 40 0C 
7946.817 [RX] 01 03 28 00 00 00 00 00 00 00 00 00 00 00 00 41 3A 9F BE 41 40 C4 9C 41 46 87 2B C3 6C 97 8D C3 22 49 BA 00 00 00 00 C2 94 51 EC 76 BB 
7947.208 [RX] 01 03 15 10 00 14 40 0C 
7947.221 [RX] 01 03 28 00 00 00 00 00 00 00 00 00 00 00 00 41 3A 9F BE 41 40 C4 9C 41 46 87 2B C3 70 C4 9C C3 24 E1 48 00 00 00 00 C2 97 C6 A8 1F 77 
7947.611 [RX] 01 03 15 10 00 14 40 0C 
7947.626 [RX] 01 03 28 00 00 00 00 00 00 00 00 00 00 00 00 41 3F 9D B2 41 45 C2 8F 41 4B 85 1F C3 74 CC CD C3 27 78 D5 00 00 00 00 C2 9A 5E 35 2B A2 
7948.004 [RX] 01 03 15 10 00 14 40 0C 
7948.019 [RX] 01 03 28 00 00 00 00 00 00 00 00 00 00 00 00 41 40 62 4E 41 46 87 2B 41 4C 7A E1 C3 74 39 58 C3 27 0A 3D 00 00 00 00 C2 9A 14 7B 26 4B 
7948.435 [RX] 01 03 15 10 00 14 40 0C 
7948.449 [RX] 01 03 28 00 00 00 00 00 00 00 00 00 00 00 00 41 40 62 4E 41 46 87 2B 41 4C 7A E1 C3 75 F3 B6 C3 28 31 27 00 00 00 00 C2 9B 85 1F 8A BB 
7948.816 [RX] 01 03 15 10 00 14 40 0C 
7948.832 [RX] 01 03 28 00 00 00 00 00 00 00 00 00 00 00 00 41 41 EB 85 41 47 DF 3B 41 4D A1 CB C3 75 16 87 C3 27 9D B2 00 00 00 00 C2 9A F1 AA 7E FE 
7949.212 [RX] 01 03 15 10 00 14 40 0C 
7949.225 [RX] 01 03 28 00 00 00 00 00 00 00 00 00 00 00 00 41 3F 0A 3D 41 45 2F 1B 41 4A F1 AA C3 71 C6 A8 C3 25 74 BC 00 00 00 00 C2 98 5A 1D 86 55 
7949.608 [RX] 01 03 15 10 00 14 40 0C 
7949.621 [RX] 01 03 28 00 00 00 00 00 00 00 00 00 00 00 00 41 3F 0A 3D 41 45 2F 1B 41 4A F1 AA C3 71 0E 56 C3 25 06 25 00 00 00 00 C2 97 C6 A8 E4 21 
7950.023 [RX] 01 03 15 10 00 14 40 0C 
7950.037 [RX] 01 03 28 00 00 00 00 00 00 00 00 00 00 00 00 41 3E A7 F0 41 44 CC CD 41 4A C0 83 C3 73 5C 29 C3 26 76 C9 00 00 00 00 C2 99 CA C1 35 C3 
7950.413 [RX] 01 03 15 10 00 14 40 0C 
7950.427 [RX] 01 03 28 00 00 00 00 00 00 00 00 00 00 00 00 41 40 62 4E 41 46 87 2B 41 4C 7A E1 C3 73 CA C1 C3 26 C0 83 00 00 00 00 C2 9A 14 7B 16 65 
7950.805 [RX] 01 03 15 10 00 14 40 0C 
7950.820 [RX] 01 03 28 00 00 00 00 00 00 00 00 00 00 00 00 41 40 62 4E 41 46 87 2B 41 4C 7A E1 C3 71 33 33 C3 25 2B 02 00 00 00 00 C2 97 C6 A8 B0 71 
7951.223 [RX] 01 03 15 10 00 14 40 0C 
7951.238 [RX] 01 03 28 00 00 00 00 00 00 00 00 00 00 00 00 41 3E 76 C9 41 44 9B A6 41 4A 5E 35 C3 72 10 62 C3 25 99 9A 00 00 00 00 C2 98 ED 91 3F 55 
7951.604 [RX] 01 03 15 10 00 14 40 0C 
7951.618 [RX] 01 03 28 00 00 00 00 00 00 00 00 00 00 00 00 41 3D B2 2D 41 43 A5 E3 41 49 68 73 C3 6F 2F 1B C3 24 04 19 00 00 00 00 C2 96 0C 4A B4 7E 
7952.008 [RX] 01 03 15 10 00 14 40 0C 
7952.025 [RX] 01 03 28 00 00 00 00 00 00 00 00 00 00 00 00 41 3D B2 2D 41 43 A5 E3 41 49 68 73 C3 6A B8 52 C3 21 6C 8B 00 00 00 00 C2 92 4D D3 93 26 
7952.434 [RX] 01 03 15 10 00 14 40 0C 
7952.451 [RX] 01 03 28 00 00 00 00 00 00 00 00 00 00 00 00 41 3A 3D 71 41 40 62 4E 41 46 56 04 C3 6F 0A 3D C3 23 BA 5E 00 00 00 00 C2 96 9F BE 0B C3 
7952.816 [RX] 01 03 15 10 00 14 40 0C 
7952.834 [RX] 01 03 28 00 00 00 00 00 00 00 00 00 00 00 00 41 40 00 00 41 46 24 DD 41 4B E7 6D C3 74 83 12 C3 27 0A 3D 00 00 00 00 C2 9A A7 F0 34 79 
7953.217 [RX] 01 03 15 10 00 14 40 0C 
7953.234 [RX] 01 03 28 00 00 00 00 00 00 00 00 00 00 00 00 41 40 00 00 41 46 24 DD 41 4B E7 6D C3 74 CC CD C3 27 78 D5 00 00 00 00 C2 9A 5E 35 DE 8E 
7953.612 [RX] 01 03 15 10 00 14 40 0C 
7953.628 [RX] 01 03 28 00 00 00 00 00 00 00 00 00 00 00 00 41 40 93 75 41 46 B8 52 41 4C 7A E1 C3 75 60 42 C3 27 9D B2 00 00 00 00 C2 9B 3B 64 7F DB 
7954.019 [RX] 01 03 15 10 00 14 40 0C 
7954.037 [RX] 01 03 28 00 00 00 00 00 00 00 00 00 00 00 00 41 41 89 37 41 47 AE 14 41 4D A1 CB C3 75 A9 FC C3 27 C2 8F 00 00 00 00 C2 9B 85 1F E4 46 
7954.416 [RX] 01 03 15 10 00 14 40 0C 
7954.433 [RX] 01 03 28 00 00 00 00 00 00 00 00 00 00 00 00 41 41 89 37 41 47 AE 14 41 4D A1 CB C3 76 18 93 C3 28 E9 79 00 00 00 00 C2 9A 5E 35 66 89 
7954.813 [RX] 01 03 15 10 00 14 40 0C 
7954.831 [RX] 01 03 28 00 00 00 00 00 00 00 00 00 00 00 00 41 43 12 6F 41 47 4B C7 41 4B 85 1F C3 74 83 12 C3 28 31 27 00 00 00 00 C2 98 5A 1D EB C2 
7955.233 [RX] 01 03 15 10 00 14 40 0C 
7955.249 [RX] 01 03 28 00 00 00 00 00 00 00 00 00 00 00 00 41 41 BA 5E 41 45 F3 B6 41 4A 2D 0E C3 75 16 87 C3 28 7A E1 00 00 00 00 C2 99 37 4C D8 6B 
7955.626 [RX] 01 03 15 10 00 14 40 0C 
7955.644 [RX] 01 03 28 00 00 00 00 00 00 00 00 00 00 00 00 41 41 BA 5E 41 45 F3 B6 41 4A 2D 0E C3 77 1A A0 C3 29 A1 CB 00 00 00 00 C2 9A A7 F0 29 21 
7956.017 [RX] 01 03 15 10 00 14 40 0C 
7956.035 [RX] 01 03 28 00 00 00 00 00 00 00 00 00 00 00 00 41 43 43 96 41 47 AE 14 41 4B E7 6D C3 74 CC CD C3 28 31 27 00 00 00 00 C2 98 ED 91 89 01 
7956.433 [RX] 01 03 15 10 00 14 40 0C 
7956.450 [RX] 01 03 28 00 00 00 00 00 00 00 00 00 00 00 00 41 41 89 37 41 46 24 DD 41 4A C0 83 C3 74 CC CD C3 28 0C 4A 00 00 00 00 C2 99 37 4C C6 19 
7956.818 [RX] 01 03 15 10 00 14 40 0C 
7956.836 [RX] 01 03 28 00 00 00 00 00 00 00 00 00 00 00 00 41 41 89 37 41 46 24 DD 41 4A C0 83 C3 75 3B 64 C3 28 56 04 00 00 00 00 C2 99 CA C1 B2 71 
7957.224 [RX] 01 03 15 10 00 14 40 0C 
7957.241 [RX] 01 03 28 00 00 00 00 00 00 00 00 00 00 00 00 41 41 89 37 41 46 24 DD 41 4A C0 83 C3 70 E9 79 C3 25 99 9A 00 00 00 00 C2 96 9F BE 28 08 
7957.631 [RX] 01 03 15 10 00 14 40 0C 
7957.646 [RX] 01 03 28 00 00 00 00 00 00 00 00 00 00 00 00 41 3B 02 0C 41 41 26 E9 41 46 E9 79 C3 6D 2B 02 C3 22 6E 98 00 00 00 00 C2 95 2F 1B 43 02 
7958.014 [RX] 01 03 15 10 00 14 40 0C 
7958.032 [RX] 01 03 28 00 00 00 00 00 00 00 00 00 00 00 00 41 3B 02 0C 41 41 26 E9 41 46 E9 79 C3 71 0E 56 C3 24 97 8D 00 00 00 00 C2 98 ED 91 CD CA 
7958.409 [RX] 01 03 15 10 00 14 40 0C 
7958.424 [RX] 01 03 28 00 00 00 00 00 00 00 00 00 00 00 00 41 3F 3B 64 41 45 91 68 41 4B 85 1F C3 75 16 87 C3 27 53 F8 00 00 00 00 C2 9B 85 1F 8E C8 
7958.820 [RX] 01 03 15 10 00 14 40 0C 
7958.857 [RX] 01 03 28 00 00 00 00 00 00 00 00 00 00 00 00 41 40 31 27 41 46 87 2B 41 4C 7A E1 C3 74 A7 F0 C3 27 0A 3D 00 00 00 00 C2 9A F1 AA 65 BD 
7959.226 [RX] 01 03 15 10 00 14 40 0C 
7959.243 [RX] 01 03 28 00 00 00 00 00 00 00 00 00 00 00 00 41 40 31 27 41 46 87 2B 41 4C 7A E1 C3 75 CE D9 C3 27 C2 8F 00 00 00 00 C2 9B CE D9 06 D9 
7959.621 [RX] 01 03 15 10 00 14 40 0C 
7959.635 [RX] 01 03 28 00 00 00 00 00 00 00 00 00 00 00 00 41 40 F5 C3 41 47 4B C7 41 4D 3F 7D C3 74 83 12 C3 27 0A 3D 00 00 00 00 C2 9A A7 F0 FC D0 
7960.026 [RX] 01 03 15 10 00 14 40 0C 
7960.040 [RX] 01 03 28 00 00 00 00 00 00 00 00 00 00 00 00 41 3E 45 A2 41 44 9B A6 41 4A 8F 5C C3 71 0E 56 C3 24 E1 48 00 00 00 00 C2 98 10 62 A5 84 
7960.443 [RX] 01 03 15 10 00 14 40 0C 
7960.458 [RX] 01 03 28 00 00 00 00 00 00 00 00 00 00 00 00 41 3E 45 A2 41 44 9B A6 41 4A 8F 5C C3 6F 9D B2 C3 23 DF 3B 00 00 00 00 C2 97 33 33 3A 79 
7960.829 [RX] 01 03 15 10 00 14 40 0C 
7960.844 [RX] 01 03 28 00 00 00 00 00 00 00 00 00 00 00 00 41 3D 81 06 41 44 08 31 41 49 FB E7 C3 72 ED 91 C3 26 08 31 00 00 00 00 C2 99 CA C1 D2 90 
7961.230 [RX] 01 03 15 10 00 14 40 0C 
7961.244 [RX] 01 03 28 00 00 00 00 00 00 00 00 00 00 00 00 41 3F 6C 8B 41 45 91 68 41 4B 85 1F C3 72 7E FA C3 25 BE 77 00 00 00 00 C2 99 37 4C 5A AF 
7961.668 [RX] 01 03 15 10 00 14 40 0C 
7961.683 [RX] 01 03 28 00 00 00 00 00 00 00 00 00 00 00 00 41 3F 6C 8B 41 45 91 68 41 4B 85 1F C3 70 7A E1 C3 24 72 B0 00 00 00 00 C2 97 C6 A8 6A A3 
7962.043 [RX] 01 03 15 10 00 14 40 0C 
7962.059 [RX] 01 03 28 00 00 00 00 00 00 00 00 00 00 00 00 41 3D B2 2D 41 43 D7 0A 41 49 CA C1 C3 72 A3 D7 C3 25 BE 77 00 00 00 00 C2 99 CA C1 FC 8B 
7962.439 [RX] 01 03 15 10 00 14 40 0C 
7962.453 [RX] 01 03 28 00 00 00 00 00 00 00 00 00 00 00 00 41 3E 76 C9 41 44 CC CD 41 4A C0 83 C3 71 0E 56 C3 25 06 25 00 00 00 00 C2 98 10 62 06 13 
7962.826 [RX] 01 03 15 10 00 14 40 0C 
7962.843 [RX] 01 03 28 00 00 00 00 00 00 00 00 00 00 00 00 41 3E 76 C9 41 44 CC CD 41 4A C0 83 C3 6B 95 81 C3 21 6C 8B 00 00 00 00 C2 94 08 31 3A 62 
7963.237 [RX] 01 03 15 10 00 14 40 0C 
7963.251 [RX] 01 03 28 00 00 00 00 00 00 00 00 00 00 00 00 41 3A 0C 4A 41 40 62 4E 41 46 56 04 C3 6E E5 60 C3 23 4B C7 00 00 00 00 C2 97 33 33 64 45 
7963.624 [RX] 01 03 15 10 00 14 40 0C 
7963.638 [RX] 01 03 28 00 00 00 00 00 00 00 00 00 00 00 00 41 3E D9 17 41 45 60 42 41 4B 85 1F C3 73 A5 E3 C3 26 08 31 00 00 00 00 C2 9A F1 AA E3 09 
7964.027 [RX] 01 03 15 10 00 14 40 0C 
7964.042 [RX] 01 03 28 00 00 00 00 00 00 00 00 00 00 00 00 41 3E D9 17 41 45 60 42 41 4B 85 1F C3 74 14 7B C3 26 9B A6 00 00 00 00 C2 9A F1 AA B7 E7 
7964.453 [RX] 01 03 15 10 00 14 40 0C 
7964.470 [RX] 01 03 28 00 00 00 00 00 00 00 00 00 00 00 00 41 40 31 27 41 46 87 2B 41 4C 7A E1 C3 76 AC 08 C3 27 E7 6D 00 00 00 00 C2 9D 3F 7D 7E 9E 
7964.833 [RX] 01 03 15 10 00 14 40 0C 
7964.849 [RX] 01 03 28 00 00 00 00 00 00 00 00 00 00 00 00 41 41 58 10 41 48 41 89 41 4E 97 8D C3 76 87 2B C3 27 C2 8F 00 00 00 00 C2 9D 89 37 B2 A3 
7965.233 [RX] 01 03 15 10 00 14 40 0C 
7965.249 [RX] 01 03 28 00 00 00 00 00 00 00 00 00 00 00 00 41 41 58 10 41 48 41 89 41 4E 97 8D C3 74 5E 35 C3 26 76 C9 00 00 00 00 C2 9B 85 1F 7D E7 
7965.638 [RX] 01 03 15 10 00 14 40 0C 
7965.654 [RX] 01 03 28 00 00 00 00 00 00 00 00 00 00 00 00 41 3E D9 17 41 45 91 68 41 4B E7 6D C3 71 7C EE C3 24 BC 6A 00 00 00 00 C2 99 81 06 24 FA 
7966.030 [RX] 01 03 15 10 00 14 40 0C 
7966.044 [RX] 01 03 28 00 00 00 00 00 00 00 00 00 00 00 00 41 3E 14 7B 41 44 FD F4 41 4B 53 F8 C3 73 12 6F C3 25 99 9A 00 00 00 00 C2 9A F1 AA E4 DF 
7966.756 [RX] 01 03 15 10 00 14 40 0C 
7966.773 [RX] 01 03 28 00 00 00 00 00 00 00 00 00 00 00 00 41 3F 6C 8B 41 46 56 04 41 4C AC 08 C3 72 A3 D7 C3 25 74 BC 00 00 00 00 C2 9A 5E 35 2B 25 
7966.936 [RX] 01 03 15 10 00 14 40 0C 
7966.950 [RX] 01 03 28 00 00 00 00 00 00 00 00 00 00 00 00 41 3F 6C 8B 41 46 56 04 41 4C AC 08 C3 71 EB 85 C3 25 06 25 00 00 00 00 C2 99 CA C1 1D 8E 
7967.336 [RX] 01 03 15 10 00 14 40 0C 
7967.350 [RX] 01 03 28 00 00 00 00 00 00 00 00 00 00 00 00 41 3D E3 54 41 44 CC CD 41 4B 22 D1 C3 73 37 4C C3 25 BE 77 00 00 00 00 C2 9A A7 F0 EB 1C 
7967.728 [RX] 01 03 15 10 00 14 40 0C 
7967.744 [RX] 01 03 28 00 00 00 00 00 00 00 00 00 00 00 00 41 3D E3 54 41 44 CC CD 41 4B 22 D1 C3 73 CA C1 C3 26 08 31 00 00 00 00 C2 9B 85 1F 01 6E 
7968.138 [RX] 01 03 15 10 00 14 40 0C 
7968.155 [RX] 01 03 28 00 00 00 00 00 00 00 00 00 00 00 00 41 3E D9 17 41 45 C2 8F 41 4C 18 93 C3 6E 9B A6 C3 23 26 E9 00 00 00 00 C2 96 E9 79 59 54 
7968.538 [RX] 01 03 15 10 00 14 40 0C 
7968.552 [RX] 01 03 28 00 00 00 00 00 00 00 00 00 00 00 00 41 3A 9F BE 41 41 58 10 41 47 AE 14 C3 6F 0A 3D C3 23 02 0C 00 00 00 00 C2 97 C6 A8 EF 83 
7968.938 [RX] 01 03 15 10 00 14 40 0C 
7968.952 [RX] 01 03 28 00 00 00 00 00 00 00 00 00 00 00 00 41 3A 9F BE 41 41 58 10 41 47 AE 14 C3 74 F1 AA C3 26 C0 83 00 00 00 00 C2 9C 62 4E 9B 21 
7969.333 [RX] 01 03 15 10 00 14 40 0C 
7969.350 [RX] 01 03 28 00 00 00 00 00 00 00 00 00 00 00 00 41 40 C4 9C 41 47 7C EE 41 4D D2 F2 C3 75 CE D9 C3 27 53 F8 00 00 00 00 C2 9C AC 08 3E 0C 
7969.731 [RX] 01 03 15 10 00 14 40 0C 
7969.747 [RX] 01 03 28 00 00 00 00 00 00 00 00 00 00 00 00 41 40 93 75 41 47 4B C7 41 4D A1 CB C3 76 62 4E C3 27 C2 8F 00 00 00 00 C2 9D 3F 7D E3 BA 
7970.127 [RX] 01 03 15 10 00 14 40 0C 
7970.144 [RX] 01 03 28 00 00 00 00 00 00 00 00 00 00 00 00 41 40 93 75 41 47 4B C7 41 4D A1 CB C3 77 D2 F2 C3 28 9F BE 00 00 00 00 C2 9E 1C AC EE 65 
7970.543 [RX] 01 03 15 10 00 14 40 0C 
7970.557 [RX] 01 03 28 00 00 00 00 00 00 00 00 00 00 00 00 41 42 4D D3 41 49 06 25 41 4F 5C 29 C3 77 F7 CF C3 28 7A E1 00 00 00 00 C2 9E F9 DB F8 91 
7970.939 [RX] 01 03 15 10 00 14 40 0C 
7970.954 [RX] 01 03 28 00 00 00 00 00 00 00 00 00 00 00 00 41 40 93 75 41 47 DF 3B 41 4E C8 B4 C3 74 14 7B C3 26 51 EC 00 00 00 00 C2 9B 85 1F 6A 45 
7971.325 [RX] 01 03 15 10 00 14 40 0C 
7971.339 [RX] 01 03 28 00 00 00 00 00 00 00 00 00 00 00 00 41 40 93 75 41 47 DF 3B 41 4E C8 B4 C3 73 81 06 C3 25 E3 54 00 00 00 00 C2 9B 3B 64 DE B2 
7971.735 [RX] 01 03 15 10 00 14 40 0C 
7971.751 [RX] 01 03 28 00 00 00 00 00 00 00 00 00 00 00 00 41 3F 0A 3D 41 46 56 04 41 4D 0E 56 C3 76 18 93 C3 27 78 D5 00 00 00 00 C2 9C F5 C3 52 EC 
7972.136 [RX] 01 03 15 10 00 14 40 0C 
7972.151 [RX] 01 03 28 00 00 00 00 00 00 00 00 00 00 00 00 41 40 62 4E 41 47 7C EE 41 4E 35 3F C3 74 A7 F0 C3 26 9B A6 00 00 00 00 C2 9C 18 93 65 1D 
7972.539 [RX] 01 03 15 10 00 14 40 0C 
7972.555 [RX] 01 03 28 00 00 00 00 00 00 00 00 00 00 00 00 41 40 62 4E 41 47 7C EE 41 4E 35 3F C3 73 A5 E3 C3 25 E3 54 00 00 00 00 C2 9B 85 1F 53 9B 
7972.941 [RX] 01 03 15 10 00 14 40 0C 
7972.955 [RX] 01 03 28 00 00 00 00 00 00 00 00 00 00 00 00 41 3F 0A 3D 41 46 24 DD 41 4C AC 08 C3 75 16 87 C3 26 C0 83 00 00 00 00 C2 9C 62 4E BD 2A 
7973.336 [RX] 01 03 15 10 00 14 40 0C 
7973.351 [RX] 01 03 28 00 00 00 00 00 00 00 00 00 00 00 00 41 3F 3B 64 41 46 56 04 41 4D 0E 56 C3 72 10 62 C3 25 06 25 00 00 00 00 C2 99 CA C1 4A 49 
7973.757 [RX] 01 03 15 10 00 14 40 0C 
7973.773 [RX] 01 03 28 00 00 00 00 00 00 00 00 00 00 00 00 41 3A D0 E5 41 41 EB 85 41 48 A3 D7 C3 6D 74 BC C3 22 24 DD 00 00 00 00 C2 96 56 04 F5 B2 
7974.140 [RX] 01 03 15 10 00 14 40 0C 
7974.155 [RX] 01 03 28 00 00 00 00 00 00 00 00 00 00 00 00 41 3A D0 E5 41 41 EB 85 41 48 A3 D7 C3 71 C6 A8 C3 25 06 25 00 00 00 00 C2 99 81 06 5C 3F 
7974.543 [RX] 01 03 15 10 00 14 40 0C 
7974.559 [RX] 01 03 28 00 00 00 00 00 00 00 00 00 00 00 00 41 3F CE D9 41 46 87 2B 41 4C AC 08 C3 74 39 58 C3 26 51 EC 00 00 00 00 C2 9B 85 1F BA 2F 
7974.949 [RX] 01 03 15 10 00 14 40 0C 
7974.966 [RX] 01 03 28 00 00 00 00 00 00 00 00 00 00 00 00 41 3F CE D9 41 46 87 2B 41 4C AC 08 C3 71 58 10 C3 24 97 8D 00 00 00 00 C2 99 81 06 D7 C6 
7975.336 [RX] 01 03 15 10 00 14 40 0C 
7975.352 [RX] 01 03 28 00 00 00 00 00 00 00 00 00 00 00 00 41 3D 81 06 41 44 39 58 41 4A 5E 35 C3 72 5A 1D C3 25 2B 02 00 00 00 00 C2 9A 5E 35 33 6B 
7975.731 [RX] 01 03 15 10 00 14 40 0C 
7975.746 [RX] 01 03 28 00 00 00 00 00 00 00 00 00 00 00 00 41 3E A7 F0 41 45 91 68 41 4B E7 6D C3 73 12 6F C3 25 74 BC 00 00 00 00 C2 9B 3B 64 9F A9 
7976.136 [RX] 01 03 15 10 00 14 40 0C 
7976.153 [RX] 01 03 28 00 00 00 00 00 00 00 00 00 00 00 00 41 3E A7 F0 41 45 91 68 41 4B E7 6D C3 70 0C 4A C3 23 BA 5E 00 00 00 00 C2 98 A3 D7 C1 43 
7976.533 [RX] 01 03 15 10 00 14 40 0C 
7976.548 [RX] 01 03 28 00 00 00 00 00 00 00 00 00 00 00 00 41 3C 8B 44 41 43 43 96 41 49 99 9A C3 6E 2D 0E C3 22 6E 98 00 00 00 00 C2 97 33 33 3F 90 
7976.939 [RX] 01 03 15 10 00 14 40 0C 
7976.956 [RX] 01 03 28 00 00 00 00 00 00 00 00 00 00 00 00 41 3B 33 33 41 41 EB 85 41 48 41 89 C3 70 56 04 C3 23 95 81 00 00 00 00 C2 99 81 06 02 C1 
7977.340 [RX] 01 03 15 10 00 14 40 0C 
7977.356 [RX] 01 03 28 00 00 00 00 00 00 00 00 00 00 00 00 41 3B 33 33 41 41 EB 85 41 48 41 89 C3 70 C4 9C C3 23 BA 5E 00 00 00 00 C2 99 CA C1 D5 87 
7977.726 [RX] 01 03 15 10 00 14 40 0C 
7977.743 [RX] 01 03 28 00 00 00 00 00 00 00 00 00 00 00 00 41 3C BC 6A 41 43 A5 E3 41 49 FB E7 C3 6F 2F 1B C3 22 DD 2F 00 00 00 00 C2 98 A3 D7 F1 08 
7978.136 [RX] 01 03 15 10 00 14 40 0C 
7978.151 [RX] 01 03 28 00 00 00 00 00 00 00 00 00 00 00 00 41 3B 95 81 41 42 B0 21 41 49 37 4C C3 70 31 27 C3 23 70 A4 00 00 00 00 C2 99 81 06 42 74 
7978.537 [RX] 01 03 15 10 00 14 40 0C 
7978.554 [RX] 01 03 28 00 00 00 00 00 00 00 00 00 00 00 00 41 3B 95 81 41 42 B0 21 41 49 37 4C C3 70 31 27 C3 23 BA 5E 00 00 00 00 C2 99 81 06 1D CC 
7978.938 [RX] 01 03 15 10 00 14 40 0C 
7978.957 [RX] 01 03 28 00 00 00 00 00 00 00 00 00 00 00 00 41 3C 28 F6 41 43 43 96 41 49 CA C1 C3 6B 26 E9 C3 20 8F 5C 00 00 00 00 C2 94 E5 60 8C 9F 
7979.339 [RX] 01 03 15 10 00 14 40 0C 
7979.354 [RX] 01 03 28 00 00 00 00 00 00 00 00 00 00 00 00 41 37 EF 9E 41 3F 0A 3D 41 45 91 68 C3 6C 04 19 C3 20 B4 39 00 00 00 00 C2 96 56 04 D5 AF 
7979.735 [RX] 01 03 15 10 00 14 40 0C 
7979.751 [RX] 01 03 28 00 00 00 00 00 00 00 00 00 00 00 00 41 37 EF 9E 41 3F 0A 3D 41 45 91 68 C3 70 E9 79 C3 23 DF 3B 00 00 00 00 C2 9A 14 7B 70 D7 
7980.126 [RX] 01 03 15 10 00 14 40 0C 
7980.141 [RX] 01 03 28 00 00 00 00 00 00 00 00 00 00 00 00 41 3D 4F DF 41 44 6A 7F 41 4A F1 AA C3 71 7C EE C3 24 72 B0 00 00 00 00 C2 9A 14 7B 11 69 
7980.546 [RX] 01 03 15 10 00 14 40 0C 
7980.563 [RX] 01 03 28 00 00 00 00 00 00 00 00 00 00 00 00 41 3C ED 91 41 44 08 31 41 4A 8F 5C C3 71 7C EE C3 24 72 B0 00 00 00 00 C2 9A 14 7B 24 20 
7980.937 [RX] 01 03 15 10 00 14 40 0C 
7980.953 [RX] 01 03 28 00 00 00 00 00 00 00 00 00 00 00 00 41 3C ED 91 41 44 08 31 41 4A 8F 5C C3 72 ED 91 C3 25 4F DF 00 00 00 00 C2 9B 3B 64 2C 7C 
7981.348 [RX] 01 03 15 10 00 14 40 0C 
7981.364 [RX] 01 03 28 00 00 00 00 00 00 00 00 00 00 00 00 41 3E 76 C9 41 45 60 42 41 4B E7 6D C3 71 33 33 C3 24 28 F6 00 00 00 00 C2 99 CA C1 71 9E 
7981.738 [RX] 01 03 15 10 00 14 40 0C 
7981.754 [RX] 01 03 28 00 00 00 00 00 00 00 00 00 00 00 00 41 3B C6 A8 41 42 E1 48 41 49 68 73 C3 6D E3 54 C3 22 49 BA 00 00 00 00 C2 97 7C EE 6A A5 
7982.133 [RX] 01 03 15 10 00 14 40 0C 
7982.150 [RX] 01 03 28 00 00 00 00 00 00 00 00 00 00 00 00 41 3B C6 A8 41 42 E1 48 41 49 68 73 C3 6D 99 9A C3 21 DB 23 00 00 00 00 C2 97 7C EE 68 35 
7982.544 [RX] 01 03 15 10 00 14 40 0C 
7982.561 [RX] 01 03 28 00 00 00 00 00 00 00 00 00 00 00 00 41 3A 6E 98 41 41 89 37 41 48 10 62 C3 70 9F BE C3 23 DF 3B 00 00 00 00 C2 99 81 06 8F DA 
7982.954 [RX] 01 03 15 10 00 14 40 0C 
7982.972 [RX] 01 03 28 00 00 00 00 00 00 00 00 00 00 00 00 41 3C 8B 44 41 43 A5 E3 41 4A 5E 35 C3 6F 2F 1B C3 23 02 0C 00 00 00 00 C2 98 5A 1D AA E1 
7983.346 [RX] 01 03 15 10 00 14 40 0C 
7983.362 [RX] 01 03 28 00 00 00 00 00 00 00 00 00 00 00 00 41 3C 8B 44 41 43 A5 E3 41 4A 5E 35 C3 6E 51 EC C3 22 49 BA 00 00 00 00 C2 98 10 62 41 03 
7983.741 [RX] 01 03 15 10 00 14 40 0C 
7983.758 [RX] 01 03 28 00 00 00 00 00 00 00 00 00 00 00 00 41 3B 02 0C 41 42 1C AC 41 48 D4 FE C3 6E E5 60 C3 22 DD 2F 00 00 00 00 C2 98 10 62 9E 5D 
7984.147 [RX] 01 03 15 10 00 14 40 0C 
7984.162 [RX] 01 03 28 00 00 00 00 00 00 00 00 00 00 00 00 41 3B 02 0C 41 41 EB 85 41 48 72 B0 C3 6C BC 6A C3 21 6C 8B 00 00 00 00 C2 96 56 04 A9 78 
7984.549 [RX] 01 03 15 10 00 14 40 0C 
7984.565 [RX] 01 03 28 00 00 00 00 00 00 00 00 00 00 00 00 41 3B 02 0C 41 41 EB 85 41 48 72 B0 C3 68 B4 39 C3 1E D4 FE 00 00 00 00 C2 93 74 BC 7A 88 
7984.950 [RX] 01 03 15 10 00 14 40 0C 
7984.966 [RX] 01 03 28 00 00 00 00 00 00 00 00 00 00 00 00 41 37 2B 02 41 3E 14 7B 41 44 9B A6 C3 6E 51 EC C3 22 24 DD 00 00 00 00 C2 98 10 62 C4 EC 
7985.342 [RX] 01 03 15 10 00 14 40 0C 
7985.358 [RX] 01 03 28 00 00 00 00 00 00 00 00 00 00 00 00 41 3C 8B 44 41 43 A5 E3 41 4A 2D 0E C3 71 58 10 C3 24 28 F6 00 00 00 00 C2 9A 5E 35 32 33 
7985.763 [RX] 01 03 15 10 00 14 40 0C 
7985.777 [RX] 01 03 28 00 00 00 00 00 00 00 00 00 00 00 00 41 3C BC 6A 41 43 D7 0A 41 4A 5E 35 C3 70 C4 9C C3 23 BA 5E 00 00 00 00 C2 99 CA C1 A0 C6 
7986.146 [RX] 01 03 15 10 00 14 40 0C 
7986.163 [RX] 01 03 28 00 00 00 00 00 00 00 00 00 00 00 00 41 3C BC 6A 41 43 D7 0A 41 4A 5E 35 C3 72 A3 D7 C3 25 06 25 00 00 00 00 C2 9B 3B 64 4B 52 
7986.537 [RX] 01 03 15 10 00 14 40 0C 
7986.553 [RX] 01 03 28 00 00 00 00 00 00 00 00 00 00 00 00 41 3E 45 A2 41 45 60 42 41 4B E7 6D C3 72 5A 1D C3 24 E1 48 00 00 00 00 C2 9A F1 AA 20 CD 
7986.943 [RX] 01 03 15 10 00 14 40 0C 
7986.957 [RX] 01 03 28 00 00 00 00 00 00 00 00 00 00 00 00 41 3E 45 A2 41 45 60 42 41 4B E7 6D C3 74 F1 AA C3 25 99 9A 00 00 00 00 C2 9E 66 66 95 EE 
7987.349 [RX] 01 03 15 10 00 14 40 0C 
7987.365 [RX] 01 03 28 00 00 00 00 00 00 00 00 00 00 00 00 41 3F 6C 8B 41 46 56 04 41 4C DD 2F C3 77 3F 7D C3 26 9B A6 00 00 00 00 C2 A0 FD F4 1B E2 
7987.755 [RX] 01 03 15 10 00 14 40 0C 
7987.770 [RX] 01 03 28 00 00 00 00 00 00 00 00 00 00 00 00 41 40 31 27 41 47 1A A0 41 4D A1 CB C3 79 8D 50 C3 27 E7 6D 00 00 00 00 C2 A3 4B C7 2D 44 
7988.101 [RX] 01 03 15 1C 00 20 81 D8 
7988.116 [RX] 01 03 40 C3 7B DB 23 C3 29 58 10 00 00 00 00 C2 A4 BC 6A C3 2A 35 3F C0 F8 D4 FE 00 00 00 00 C3 22 6E 98 43 98 5A 1D 43 29 A1 CB 00 00 00 00 43 36 28 F6 BF 51 68 73 BF 7F 3B 64 00 00 00 00 BE E0 C4 9C 2A 09 
7988.271 [RX] 01 03 15 4E 00 02 A0 10 
7988.286 [RX] 01 03 04 42 6F D7 0A 01 A1 
7988.396 [RX] 01 03 18 1E 00 12 A3 61 
7988.416 [RX] 01 03 24 47 EF E0 B1 47 11 BA CD 47 1A 3D ED 47 33 C8 A6 47 EB FA EE 48 25 E8 DB 47 85 56 FA 47 32 19 C6 47 5A DB B3 06 4C 
7988.567 [RX] 01 03 15 10 00 14 40 0C 
7988.583 [RX] 01 03 28 00 00 00 00 00 00 00 00 00 00 00 00 41 42 B0 21 41 49 FB E7 41 50 B4 39 C3 79 1E B8 C3 27 9D B2 00 00 00 00 C2 A3 02 0C D5 76 
7988.747 [RX] 01 03 15 10 00 14 40 0C 
7988.767 [RX] 01 03 28 00 00 00 00 00 00 00 00 00 00 00 00 41 42 B0 21 41 49 FB E7 41 50 B4 39 C3 79 43 96 C3 27 9D B2 00 00 00 00 C2 A3 02 0C E0 05 
7989.138 [RX] 01 03 15 10 00 14 40 0C 
7989.154 [RX] 01 03 28 00 00 00 00 00 00 00 00 00 00 00 00 41 40 F5 C3 41 48 72 B0 41 4F 5C 29 C3 7B 6C 8B C3 28 E9 79 00 00 00 00 C2 A5 06 25 41 51 
7989.540 [RX] 01 03 15 10 00 14 40 0C 
7989.555 [RX] 01 03 28 00 00 00 00 00 00 00 00 00 00 00 00 41 41 89 37 41 49 37 4C 41 50 20 C5 C3 78 66 66 C3 27 2F 1B 00 00 00 00 C2 A2 6E 98 C5 05 
7989.947 [RX] 01 03 15 10 00 14 40 0C 
7989.962 [RX] 01 03 28 00 00 00 00 00 00 00 00 00 00 00 00 41 41 89 37 41 49 37 4C 41 50 20 C5 C3 75 3B 64 C3 25 2B 02 00 00 00 00 C2 A0 20 C5 EB BB 
7990.333 [RX] 01 03 15 10 00 14 40 0C 
7990.349 [RX] 01 03 28 00 00 00 00 00 00 00 00 00 00 00 00 41 3E 14 7B 41 45 91 68 41 4C 7A E1 C3 78 D4 FE C3 27 53 F8 00 00 00 00 C2 A2 B8 52 12 12 
7990.739 [RX] 01 03 15 10 00 14 40 0C 
7990.754 [RX] 01 03 28 00 00 00 00 00 00 00 00 00 00 00 00 41 42 E1 48 41 4A 5E 35 41 51 47 AE C3 7D 70 A4 C3 2A 10 62 00 00 00 00 C2 A6 76 C9 C7 DC 
7991.144 [RX] 01 03 15 10 00 14 40 0C 
7991.161 [RX] 01 03 28 00 00 00 00 00 00 00 00 00 00 00 00 41 42 E1 48 41 4A 5E 35 41 51 47 AE C3 7D 4B C7 C3 2A 10 62 00 00 00 00 C2 A6 2D 0E 03 E6 
7991.540 [RX] 01 03 15 10 00 14 40 0C 
7991.557 [RX] 01 03 28 00 00 00 00 00 00 00 00 00 00 00 00 41 43 D7 0A 41 4B 53 F8 41 52 3D 71 C3 7E 28 F6 C3 2A A3 D7 00 00 00 00 C2 A7 0A 3D F4 21 
7991.942 [RX] 01 03 15 10 00 14 40 0C 
7991.958 [RX] 01 03 28 00 00 00 00 00 00 00 00 00 00 00 00 41 44 CC CD 41 4C 49 BA 41 53 33 33 C3 7E 04 19 C3 2A 7E FA 00 00 00 00 C2 A6 C0 83 66 8D 
7992.338 [RX] 01 03 15 10 00 14 40 0C 
7992.355 [RX] 01 03 28 00 00 00 00 00 00 00 00 00 00 00 00 41 44 CC CD 41 4C 49 BA 41 53 33 33 C3 7A 8F 5C C3 28 7A E1 00 00 00 00 C2 A3 DF 3B F7 1E 
7992.784 [RX] 01 03 15 10 00 14 40 0C 
7992.799 [RX] 01 03 28 00 00 00 00 00 00 00 00 00 00 00 00 41 41 EB 85 41 49 68 73 41 50 51 EC C3 79 1E B8 C3 27 78 D5 00 00 00 00 C2 A3 02 0C 54 A0 
7993.144 [RX] 01 03 15 10 00 14 40 0C 
7993.160 [RX] 01 03 28 00 00 00 00 00 00 00 00 00 00 00 00 41 41 26 E9 41 48 A3 D7 41 4F 8D 50 C3 7B 6C 8B C3 28 E9 79 00 00 00 00 C2 A4 BC 6A 9E E8 
7993.534 [RX] 01 03 15 10 00 14 40 0C 
7993.549 [RX] 01 03 28 00 00 00 00 00 00 00 00 00 00 00 00 41 41 26 E9 41 48 A3 D7 41 4F 8D 50 C3 7C B8 52 C3 29 C6 A8 00 00 00 00 C2 A5 E3 54 63 75 
7993.954 [RX] 01 03 15 10 00 14 40 0C 
7993.968 [RX] 01 03 28 00 00 00 00 00 00 00 00 00 00 00 00 41 43 12 6F 41 4A C0 83 41 51 A9 FC C3 79 FB E7 C3 28 56 04 00 00 00 00 C2 A3 4B C7 1E CF 
7994.340 [RX] 01 03 15 10 00 14 40 0C 
7994.360 [RX] 01 03 28 00 00 00 00 00 00 00 00 00 00 00 00 41 41 89 37 41 49 37 4C 41 50 20 C5 C3 7B 6C 8B C3 28 C4 9C 00 00 00 00 C2 A5 06 25 BD 03 
7994.746 [RX] 01 03 15 10 00 14 40 0C 
7994.760 [RX] 01 03 28 00 00 00 00 00 00 00 00 00 00 00 00 41 41 89 37 41 49 37 4C 41 50 20 C5 C3 7C 24 DD C3 29 7C EE 00 00 00 00 C2 A5 06 25 85 7C 
7995.142 [RX] 01 03 15 10 00 14 40 0C 
7995.157 [RX] 01 03 28 00 00 00 00 00 00 00 00 00 00 00 00 41 42 7E FA 41 4A 2D 0E 41 51 16 87 C3 76 D0 E5 C3 26 2D 0E 00 00 00 00 C2 A0 FD F4 21 A2 
7995.548 [RX] 01 03 15 10 00 14 40 0C 
7995.562 [RX] 01 03 28 00 00 00 00 00 00 00 00 00 00 00 00 41 3E D9 17 41 46 56 04 41 4D 3F 7D C3 78 D4 FE C3 27 2F 1B 00 00 00 00 C2 A3 02 0C 1E B9 
7995.954 [RX] 01 03 15 10 00 14 40 0C 
7995.973 [RX] 01 03 28 00 00 00 00 00 00 00 00 00 00 00 00 41 43 43 96 41 4A F1 AA 41 51 DB 23 C3 7D 02 0C C3 29 C6 A8 00 00 00 00 C2 A6 2D 0E 9C AA 
7996.354 [RX] 01 03 15 10 00 14 40 0C 
7996.370 [RX] 01 03 28 00 00 00 00 00 00 00 00 00 00 00 00 41 43 43 96 41 4A F1 AA 41 51 DB 23 C3 7E BC 6A C3 2A ED 91 00 00 00 00 C2 A7 9D B2 8D 58 
7996.750 [RX] 01 03 15 10 00 14 40 0C 
7996.764 [RX] 01 03 28 00 00 00 00 00 00 00 00 00 00 00 00 41 44 6A 7F 41 4C 18 93 41 53 33 33 C3 7F 2B 02 C3 2B 37 4C 00 00 00 00 C2 A7 E7 6D F8 8F 
7997.161 [RX] 01 03 15 10 00 14 40 0C 
7997.175 [RX] 01 03 28 00 00 00 00 00 00 00 00 00 00 00 00 41 45 91 68 41 4D 3F 7D 41 54 5A 1D C3 80 16 87 C3 2B EF 9E 00 00 00 00 C2 A8 7A E1 94 1F 
7997.557 [RX] 01 03 15 10 00 14 40 0C 
7997.574 [RX] 01 03 28 00 00 00 00 00 00 00 00 00 00 00 00 41 45 91 68 41 4D 3F 7D 41 54 5A 1D C3 7D 95 81 C3 2A 5A 1D 00 00 00 00 C2 A6 2D 0E 5A 69 
7997.953 [RX] 01 03 15 10 00 14 40 0C 
7997.968 [RX] 01 03 28 00 00 00 00 00 00 00 00 00 00 00 00 41 42 7E FA 41 4A 2D 0E 41 51 47 AE C3 7A B4 39 C3 28 7A E1 00 00 00 00 C2 A4 72 B0 C2 AE 
7998.358 [RX] 01 03 15 10 00 14 40 0C 
7998.375 [RX] 01 03 28 00 00 00 00 00 00 00 00 00 00 00 00 41 41 BA 5E 41 49 68 73 41 50 51 EC C3 7A B4 39 C3 28 7A E1 00 00 00 00 C2 A4 28 F6 58 23 
7998.748 [RX] 01 03 15 10 00 14 40 0C 
7998.765 [RX] 01 03 28 00 00 00 00 00 00 00 00 00 00 00 00 41 41 BA 5E 41 49 68 73 41 50 51 EC C3 7D 95 81 C3 2A 35 3F 00 00 00 00 C2 A6 76 C9 AE 30 
7999.153 [RX] 01 03 15 10 00 14 40 0C 
7999.170 [RX] 01 03 28 00 00 00 00 00 00 00 00 00 00 00 00 41 43 43 96 41 4A F1 AA 41 52 0C 4A C3 7C 24 DD C3 29 58 10 00 00 00 00 C2 A5 4F DF 58 6B 
7999.560 [RX] 01 03 15 10 00 14 40 0C 
7999.577 [RX] 01 03 28 00 00 00 00 00 00 00 00 00 00 00 00 41 43 43 96 41 4A F1 AA 41 52 0C 4A C3 7B 22 D1 C3 28 C4 9C 00 00 00 00 C2 A4 BC 6A 2A 5C 
7999.945 [RX] 01 03 15 10 00 14 40 0C 
7999.960 [RX] 01 03 28 00 00 00 00 00 00 00 00 00 00 00 00 41 41 EB 85 41 49 99 9A 41 50 B4 39 C3 7D 70 A4 C3 2A 10 62 00 00 00 00 C2 A6 76 C9 64 EF 
8000.349 [RX] 01 03 15 10 00 14 40 0C 
8000.363 [RX] 01 03 28 00 00 00 00 00 00 00 00 00 00 00 00 41 42 B0 21 41 4A 5E 35 41 51 78 D5 C3 7A 6A 7F C3 28 7A E1 00 00 00 00 C2 A3 DF 3B 58 19 
8000.749 [RX] 01 03 15 10 00 14 40 0C 
8000.764 [RX] 01 03 28 00 00 00 00 00 00 00 00 00 00 00 00 41 42 B0 21 41 4A 5E 35 41 51 78 D5 C3 76 F5 C3 C3 26 51 EC 00 00 00 00 C2 A1 47 AE 72 E6 
8001.155 [RX] 01 03 15 10 00 14 40 0C 
8001.172 [RX] 01 03 28 00 00 00 00 00 00 00 00 00 00 00 00 41 3F 0A 3D 41 46 B8 52 41 4D D2 F2 C3 7B 6C 8B C3 28 E9 79 00 00 00 00 C2 A4 BC 6A 0C 7D 
8001.556 [RX] 01 03 15 10 00 14 40 0C 
8001.573 [RX] 01 03 28 00 00 00 00 00 00 00 00 00 00 00 00 41 43 74 BC 41 4B 22 D1 41 52 0C 4A C3 7F 2B 02 C3 2B 37 4C 00 00 00 00 C2 A7 E7 6D A9 82 
8001.957 [RX] 01 03 15 10 00 14 40 0C 
8001.977 [RX] 01 03 28 00 00 00 00 00 00 00 00 00 00 00 00 41 7B 22 D1 41 81 99 9A 41 85 70 A4 C3 99 93 75 C3 58 49 BA 00 00 00 00 C2 B5 BA 5E 23 B5 
8002.348 [RX] 01 03 15 10 00 14 40 0C 
8002.363 [RX] 01 03 28 00 00 00 00 00 00 00 00 00 00 00 00 41 7B 22 D1 41 81 99 9A 41 85 70 A4 C3 88 70 A4 C3 38 C0 83 00 00 00 00 C2 B0 41 89 29 72 
8002.755 [RX] 01 03 15 10 00 14 40 0C 
8002.800 [RX] 01 03 28 00 00 00 00 00 00 00 00 00 00 00 00 41 50 20 C5 41 58 00 00 41 5F 1A A0 C3 85 7C EE C3 33 91 68 00 00 00 00 C2 AE 87 2B 42 EB 
8003.175 [RX] 01 03 15 10 00 14 40 0C 
8003.192 [RX] 01 03 28 00 00 00 00 00 00 00 00 00 00 00 00 41 4B E7 6D 41 53 C6 A8 41 5A E1 48 C3 83 D4 FE C3 31 68 73 00 00 00 00 C2 AC 39 58 76 C2 
8003.561 [RX] 01 03 15 10 00 14 40 0C 
8003.578 [RX] 01 03 28 00 00 00 00 00 00 00 00 00 00 00 00 41 4B E7 6D 41 53 C6 A8 41 5A E1 48 C3 82 9B A6 C3 2F D2 F2 00 00 00 00 C2 AA 7E FA 5F 54 
8003.957 [RX] 01 03 15 10 00 14 40 0C 
8003.972 [RX] 01 03 28 00 00 00 00 00 00 00 00 00 00 00 00 41 4A C0 83 41 52 9F BE 41 59 EB 85 C3 84 1E B8 C3 31 8D 50 00 00 00 00 C2 AD 16 87 B2 D0 
8004.368 [RX] 01 03 15 10 00 14 40 0C 
8004.384 [RX] 01 03 28 00 00 00 00 00 00 00 00 00 00 00 00 41 4D 0E 56 41 54 ED 91 41 5C 08 31 C3 84 7A E1 C3 32 45 A2 00 00 00 00 C2 AD 60 42 91 1A 
8004.748 [RX] 01 03 15 10 00 14 40 0C 
8004.763 [RX] 01 03 28 00 00 00 00 00 00 00 00 00 00 00 00 41 4D 0E 56 41 54 ED 91 41 5C 08 31 C3 82 F7 CF C3 30 41 89 00 00 00 00 C2 AB 12 6F 57 5B 
