7120.753 [RX] 00 10 A9 84 00 03 06 00 AA 00 00 03 E8 96 04 
7120.913 [RX] 00 10 A9 84 00 03 06 00 AA 00 00 03 E8 96 04 
7121.361 [RX] 00 10 A9 84 00 03 06 00 AA 00 00 03 E8 96 04 
7121.743 [RX] 00 10 A9 84 00 03 06 00 AA 00 00 03 E8 96 04 
7122.114 [RX] 00 10 A9 84 00 03 06 00 AA 00 00 03 E8 96 04 
7122.504 [RX] 00 10 A9 84 00 03 06 00 AA 00 00 03 E8 96 04 
7122.709 [RX] 07 03 A2 87 00 02 57 FC 
7122.734 [RX] 07 03 04 00 00 00 00 9C 33 
7122.834 [RX] 07 03 9C 8E 00 01 CA 17 
7122.867 [RX] 07 03 02 00 00 30 44 
7122.975 [RX] 00 10 A9 84 00 03 06 00 AA 00 00 03 E8 96 04 
7123.025 [RX] 07 03 A2 89 00 02 36 3F 
7123.070 [RX] 07 03 04 00 00 00 00 9C 33 
7123.181 [RX] 07 03 9C 9B 00 01 DB D3 
7123.203 [RX] 07 03 02 00 00 30 44 
7123.306 [RX] 07 03 9C 99 00 01 7A 13 
7123.322 [RX] 07 03 02 00 00 30 44 
7123.432 [RX] 00 10 A9 84 00 03 06 00 AA 00 00 03 E8 96 04 
7123.488 [RX] 07 03 9C 92 00 02 4B D0 
7123.514 [RX] 07 03 04 00 00 00 00 9C 33 
7123.614 [RX] 07 03 A2 97 00 02 56 39 
7123.658 [RX] 07 03 04 7F FF FF FF B4 67 
7123.779 [RX] 00 10 A9 84 00 03 06 00 AA 00 00 03 E8 96 04 
7123.834 [RX] 07 03 9C 9E 00 01 CB D2 
7123.850 [RX] 07 03 02 00 00 30 44 
7123.964 [RX] 07 03 9C 9C 00 01 6A 12 
7123.994 [RX] 07 03 02 00 00 30 44 
7124.099 [RX] 07 03 9C 92 00 02 4B D0 
7124.127 [RX] 07 03 04 00 00 00 00 9C 33 
7124.240 [RX] 00 10 A9 84 00 03 06 00 AA 00 00 03 E8 96 04 
7124.280 [RX] 07 03 A2 99 00 02 37 FA 
7124.295 [RX] 07 03 04 7F FF FF FF B4 67 
7124.415 [RX] 07 03 9C A1 00 01 FB DE 
7124.438 [RX] 07 03 02 00 00 30 44 
7124.545 [RX] 00 10 A9 84 00 03 06 00 AA 00 00 03 E8 96 04 
7124.585 [RX] 07 03 9C 9F 00 01 9A 12 
7124.606 [RX] 07 03 02 00 00 30 44 
7124.690 [RX] 07 03 9C 92 00 02 4B D0 
7124.716 [RX] 07 03 04 00 00 00 00 9C 33 
7124.845 [RX] 07 03 A2 9B 00 02 96 3A 
7124.858 [RX] 07 03 04 7F FF FF FF B4 67 
7124.976 [RX] 00 10 A9 84 00 03 06 00 AA 00 00 03 E8 96 04 
7125.016 [RX] 07 03 A0 73 00 02 17 B6 
7125.051 [RX] 07 03 04 00 00 00 00 9C 33 
7125.171 [RX] 07 03 A0 18 00 18 E7 A1 
7125.195 [RX] 07 03 30 22 F0 00 00 22 F0 00 00 21 3E 00 00 21 3E 00 00 21 35 00 00 21 35 00 00 1A 2A 00 00 1A 2A 00 00 1A 38 00 00 1A 38 00 00 18 66 00 00 18 66 00 00 D5 82 
7125.347 [RX] 00 10 A9 84 00 03 06 00 AA 00 00 03 E8 96 04 
7125.402 [RX] 07 03 A0 7B 00 03 57 B4 
7125.422 [RX] 07 03 06 01 4B 01 4D 01 A5 FF 0A 
7125.532 [RX] 07 03 A0 02 00 02 47 AD 
7125.555 [RX] 07 03 04 00 00 00 00 9C 33 
7125.672 [RX] 07 03 A2 B6 00 02 06 33 
7125.698 [RX] 07 03 04 00 00 00 72 1C 16 
7125.792 [RX] 00 10 A9 84 00 03 06 00 AA 00 00 03 E8 96 04 
7126.132 [RX] 00 10 A9 84 00 03 06 00 AA 00 00 03 E8 96 04 
7126.272 [RX] 07 03 A0 00 00 01 A6 6C 
7126.286 [RX] 07 03 02 55 00 0F 14 
7126.392 [RX] 07 03 A0 86 00 16 07 8B 
7126.430 [RX] 07 03 2C 04 00 00 00 00 00 00 00 00 00 00 00 00 00 00 00 00 00 00 00 00 00 00 00 00 00 00 00 00 00 00 00 00 00 04 00 00 00 00 00 00 00 00 00 54 62 
7126.573 [RX] 00 10 A9 84 00 03 06 00 AA 00 00 03 E8 96 04 
7126.829 [RX] 07 03 A0 30 00 0C 67 A6 
7126.850 [RX] 07 03 18 00 00 00 00 00 00 00 00 00 00 00 00 00 00 00 00 00 00 00 00 00 00 00 00 6D 3A 
7126.974 [RX] 00 10 A9 84 00 03 06 00 AA 00 00 03 E8 96 04 
7127.044 [RX] 07 03 A0 3C 00 0C A7 A5 
7127.068 [RX] 07 03 18 00 00 00 00 00 00 00 00 00 00 00 00 00 00 00 00 00 01 00 00 00 01 00 00 2C 3A 
7127.200 [RX] 07 03 9C 8F 00 02 DB D6 
7127.235 [RX] 07 03 04 00 00 00 00 9C 33 
7127.340 [RX] 00 10 A9 84 00 03 06 00 AA 00 00 03 E8 96 04 
7127.440 [RX] 07 03 A0 0B 00 03 56 6F 
7127.462 [RX] 07 03 06 00 00 22 ED 00 00 90 98 
7127.588 [RX] 07 03 A0 85 00 01 B7 85 
7127.606 [RX] 07 03 02 00 00 30 44 
7127.763 [RX] 00 10 A9 84 00 03 06 00 AA 00 00 03 E8 96 04 
7128.129 [RX] 00 10 A9 84 00 03 06 00 AA 00 00 03 E8 96 04 
7128.534 [RX] 00 10 A9 84 00 03 06 00 AA 00 00 03 E8 96 04 
7128.970 [RX] 00 10 A9 84 00 03 06 00 AA 00 00 03 E8 96 04 
7129.335 [RX] 00 10 A9 84 00 03 06 00 AA 00 00 03 E8 96 04 
7129.786 [RX] 00 10 A9 84 00 03 06 00 AA 00 00 03 E8 96 04 
7130.157 [RX] 00 10 A9 84 00 03 06 00 AA 00 00 03 E8 96 04 
7130.564 [RX] 00 10 A9 84 00 03 06 00 AA 00 00 03 E8 96 04 
7130.945 [RX] 00 10 A9 84 00 03 06 00 AA 00 00 03 E8 96 04 
7131.295 [RX] 00 10 A9 84 00 03 06 00 AA 00 00 03 E8 96 04 
7131.762 [RX] 00 10 A9 84 00 03 06 00 AA 00 00 03 E8 96 04 
7132.145 [RX] 00 10 A9 84 00 03 06 00 AA 00 00 03 E8 96 04 
7132.537 [RX] 00 10 A9 84 00 03 06 00 AA 00 00 03 E8 96 04 
7132.937 [RX] 00 10 A9 84 00 03 06 00 AA 00 00 03 E8 96 04 
7133.338 [RX] 00 10 A9 84 00 03 06 00 AA 00 00 03 E8 96 04 
7133.714 [RX] 00 10 A9 84 00 03 06 00 AA 00 00 03 E8 96 04 
7134.135 [RX] 00 10 A9 84 00 03 06 00 AA 00 00 03 E8 96 04 
7134.559 [RX] 00 10 A9 84 00 03 06 00 AA 00 00 03 E8 96 04 
7134.929 [RX] 00 10 A9 84 00 03 06 00 AA 00 00 03 E8 96 04 
7135.350 [RX] 00 10 A9 84 00 03 06 00 AA 00 00 03 E8 96 04 
7135.742 [RX] 00 10 A9 84 00 03 06 00 AA 00 00 03 E8 96 04 
7136.124 [RX] 00 10 A9 84 00 03 06 00 AA 00 00 03 E8 96 04 
7136.521 [RX] 00 10 A9 84 00 03 06 00 AA 00 00 03 E8 96 04 
7136.928 [RX] 00 10 A9 84 00 03 06 00 AA 00 00 03 E8 96 04 
7137.369 [RX] 00 10 A9 84 00 03 06 00 AA 00 00 03 E8 96 04 
7137.730 [RX] 00 10 A9 84 00 03 06 00 AA 00 00 03 E8 96 04 
7138.140 [RX] 00 10 A9 84 00 03 06 00 AA 00 00 03 E8 96 04 
7138.576 [RX] 00 10 A9 84 00 03 06 00 AA 00 00 03 E8 96 04 
7138.922 [RX] 00 10 A9 84 00 03 06 00 AA 00 00 03 E8 96 04 
7139.360 [RX] 00 10 A9 84 00 03 06 00 AA 00 00 03 E8 96 04 
7139.735 [RX] 00 10 A9 84 00 03 06 00 AA 00 00 03 E8 96 04 
7140.162 [RX] 00 10 A9 84 00 03 06 00 AA 00 00 03 E8 96 04 
7140.524 [RX] 00 10 A9 84 00 03 06 00 AA 00 00 03 E8 96 04 
7140.939 [RX] 00 10 A9 84 00 03 06 00 AA 00 00 03 E8 96 04 
7141.360 [RX] 00 10 A9 84 00 03 06 00 AA 00 00 03 E8 96 04 
7141.770 [RX] 00 10 A9 84 00 03 06 00 AA 00 00 03 E8 96 04 
7142.146 [RX] 00 10 A9 84 00 03 06 00 AA 00 00 03 E8 96 04 
7142.556 [RX] 00 10 A9 84 00 03 06 00 AA 00 00 03 E8 96 04 
7142.712 [RX] 08 03 A2 87 00 02 57 03 
7142.752 [RX] 08 03 04 00 00 00 00 63 33 
7142.853 [RX] 08 03 9C 8E 00 01 CA E8 
7142.885 [RX] 08 03 02 00 00 64 45 
7142.988 [RX] 00 10 A9 84 00 03 06 00 AA 00 00 03 E8 96 04 
7143.028 [RX] 08 03 A2 89 00 02 36 C0 
7143.053 [RX] 08 03 04 00 00 00 00 63 33 
7143.179 [RX] 08 03 9C 9B 00 01 DB 2C 
7143.196 [RX] 08 03 02 00 00 64 45 
7143.314 [RX] 08 03 9C 99 00 01 7A EC 
7143.340 [RX] 08 03 02 00 00 64 45 
7143.475 [RX] 00 10 A9 84 00 03 06 00 AA 00 00 03 E8 96 04 
7143.536 [RX] 08 03 9C 92 00 02 4B 2F 
7143.557 [RX] 08 03 04 00 00 00 00 63 33 
7143.661 [RX] 08 03 A2 97 00�02 56 C6 
7143.676 [RX] 08 03 04 7F FF FF FF 4B 67 
7143.771 [RX] 00 10 A9 84 00 03 06 00 AA 00 00 03 E8 96 04 
7143.816 [RX] 08 03 9C 9E 00 01 CB 2D 
7143.844 [RX] 08 03 02 00 00 64 45 
7143.952 [RX] 08 03 9C 9C 00 01 6A ED 
7143.977 [RX] 08 03 02 00 00 64 45 
7144.092 [RX] 08 03 9C 92 00 02 4B 2F 
7144.120 [RX] 08 03 04 00 00 00 00 63 33 
7144.247 [RX] 00 10 A9 84 00 03 06 00 AA 00 00 03 E8 96 04 
7144.287 [RX] 08 03 A2 99 00 02 37 05 
7144.313 [RX] 08 03 04 7F FF FF FF 4B 67 
7144.397 [RX] 08 03 9C A1 00 01 FB 21 
7144.432 [RX] 08 03 02 00 00 64 45 
7144.553 [RX] 08 03 9C 9F 00 01 9A ED 08 03 02 00 00 64 45 
7144.664 [RX] 00 10 A9 84 00 03 06 00 AA 00 00 03 E8 96 04 
7144.705 [RX] 08 03 9C 92 00 02 4B 2F 
7144.733 [RX] 08 03 04 00 00 00 00 63 33 
7144.846 [RX] 08 03 A2 9B 00 02 96 C5 
7144.877 [RX] 08 03 04 7F FF FF FF 4B 67 
7144.981 [RX] 00 10 A9 84 00 03 06 00 AA 00 00 03 E8 96 04 
7145.021 [RX] 08 03 A0 73 00 02 17 49 
7145.044 [RX] 08 03 04 00 00 00 00 63 33 
7145.146 [RX] 08 03 A0 18 00 18 E7 5E 
7145.188 [RX] 08 03 30 22 D9 00 00 22 D9 00 00 22 D8 00 00 22 D8 00 00 21 40 00 00 21 40 00 00 1A 2A 00 00 1A 2A 00 00 1A 22 00 00 1A 22 00 00 18 4C 00 00 18 4C 00 00 C1 C0 
7145.342 [RX] 00 10 A9 84 00 03 06 00 AA 00 00 03 E8 96 04 
7145.382 [RX] 08 03 A0 7B 00 03 57 4B 
7145.406 [RX] 08 03 06 01 4E 01 4E 01 A6 C2 FB 
7145.534 [RX] 08 03 A0 02 00 02 47 52 
7145.548 [RX] 08 03 04 00 00 00 00 63 33 
7145.649 [RX] 08 03 A2 B6 00 02 06 CC 
7145.692 [RX] 08 03 04 00 00 00 6F 23 1F 
7145.799 [RX] 00 10 A9 84 00 03 06 00 AA 00 00 03 E8 96 04 
7146.149 [RX] 00 10 A9 84 00 03 06 00 AA 00 00 03 E8 96 04 
7146.235 [RX] 08 03 A0 00 00 01 A6 93 
7146.280 [RX] 08 03 02 55 00 5B 15 
7146.395 [RX] 08 03 A0 86 00 16 07 74 
7146.413 [RX] 08 03 2C 04 00 00 00 00 00 00 00 00 00 00 00 00 00 00 00 00 00 00 00 00 00 00 00 00 00 00 00 00 00 00 00 00 00 04 00 00 00 00 00 00 00 00 00 36 84 
7146.575 [RX] 00 10 A9 84 00 03 06 00 AA 00 00 03 E8 96 04 
7146.852 [RX] 08 03 A0 30 00 0C 67 59 
7146.868 [RX] 08 03 18 00 00 00 00 00 00 00 00 00 00 00 00 00 00 00 00 00 00 00 00 00 00 00 00 6D 21 
7146.980 [RX] 00 10 A9 84 00 03 06 00 AA 00 00 03 E8 96 04 
7147.065 [RX] 08 03 A0 3C 00 0C A7 5A 
7147.085 [RX] 08 03 18 00 00 00 00 00 00 00 00 00 00 00 00 00 00 00 00 00 01 00 00 00 01 00 00 2C 21 
7147.221 [RX] 08 03 9C 8F 00 02 DB 29 
7147.253 [RX] 08 03 04 00 00 00 00 63 33 
7147.412 [RX] 00 10 A9 84 00 03 06 00 AA 00 00 03 E8 96 04 
7147.457 [RX] 08 03 A0 0B 00 03 56 90 
7147.480 [RX] 08 03 06 00 00 22 D2 00 00 E1 64 
7147.592 [RX] 08 03 A0 85 00 01 B7 7A 
7147.624 [RX] 08 03 02 00 00 64 45 
7147.722 [RX] 00 10 A9 84 00 03 06 00 AA 00 00 03 E8 96 04 
7148.163 [RX] 00 10 A9 84 00 03 06 00 AA 00 00 03 E8 96 04 
7148.563 [RX] 00 10 A9 84 00 03 06 00 AA 00 00 03 E8 96 04 
7148.955 [RX] 00 10 A9 84 00 03 06 00 AA 00 00 03 E8 96 04 
7149.325 [RX] 00 10 A9 84 00 03 06 00 AA 00 00 03 E8 96 04 
7149.780 [RX] 00 10 A9 84 00 03 06 00 AA 00 00 03 E8 96 04 
7150.135 [RX] 00 10 A9 84 00 03 06 00 AA 00 00 03 E8 96 04 
7150.547 [RX] 00 10 A9 84 00 03 06 00 AA 00 00 03 E8 96 04 
7150.973 [RX] 00 10 A9 84 00 03 06 00 AA 00 00 03 E8 96 04 
7151.344 [RX] 00 10 A9 84 00 03 06 00 AA 00 00 03 E8 96 04 
7151.754 [RX] 00 10 A9 84 00 03 06 00 AA 00 00 03 E8 96 04 
7152.145 [RX] 00 10 A9 84 00 03 06 00 AA 00 00 03 E8 96 04 
7152.548 [RX] 00 10 A9 84 00 03 06 00 AA 00 00 03 E8 96 04 
7152.973 [RX] 00 10 A9 84 00 03 06 00 AA 00 00 03 E8 96 04 
7153.361 [RX] 00 10 A9 84 00 03 06 00 AA 00 00 03 E8 96 04 
7153.783 [RX] 00 10 A9 84 00 03 06 00 AA 00 00 03 E8 96 04 
7154.143 [RX] 00 10 A9 84 00 03 06 00 AA 00 00 03 E8 96 04 
7154.564 [RX] 00 10 A9 84 00 03 06 00 AA 00 00 03 E8 96 04 
7154.957 [RX] 00 10 A9 84 00 03 06 00 AA 00 00 03 E8 96 04 
7155.370 [RX] 00 10 A9 84 00 03 06 00 AA 00 00 03 E8 96 04 
7155.748 [RX] 00 10 A9 84 00 03 06 00 AA 00 00 03 E8 96 04 
7156.144 [RX] 00 10 A9 84 00 03 06 00 AA 00 00 03 E8 96 04 
7156.541 [RX] 00 10 A9 84 00 03 06 00 AA 00 00 03 E8 96 04 
7156.938 [RX] 00 10 A9 84 00 03 06 00 AA 00 00 03 E8 96 04 
7157.353 [RX] 00 10 A9 84 00 03 06 00 AA 00 00 03 E8 96 04 
7157.775 [RX] 00 10 A9 84 00 03 06 00 AA 00 00 03 E8 96 04 
7158.146 [RX] 00 10 A9 84 00 03 06 00 AA 00 00 03 E8 96 04 
7158.553 [RX] 00 10 A9 84 00 03 06 00 AA 00 00 03 E8 96 04 
7158.974 [RX] 00 10 A9 84 00 03 06 00 AA 00 00 03 E8 96 04 
7159.349 [RX] 00 10 A9 84 00 03 06 00 AA 00 00 03 E8 96 04 
7159.768 [RX] 00 10 A9 84 00 03 06 00 AA 00 00 03 E8 96 04 
7160.166 [RX] 00 10 A9 84 00 03 06 00 AA 00 00 03 E8 96 04 
7160.572 [RX] 00 10 A9 84 00 03 06 00 AA 00 00 03 E8 96 04 
7160.978 [RX] 00 10 A9 84 00 03 06 00 AA 00 00 03 E8 96 04 
7161.373 [RX] 00 10 A9 84 00 03 06 00 AA 00 00 03 E8 96 04 
7161.754 [RX] 00 10 A9 84 00 03 06 00 AA 00 00 03 E8 96 04 
7162.161 [RX] 00 10 A9 84 00 03 06 00 AA 00 00 03 E8 96 04 
7162.572 [RX] 00 10 A9 84 00 03 06 00 AA 00 00 03 E8 96 04 
7162.727 [RX] 09 03 A2 87 00 02 56 D2 
7162.740 [RX] 09 03 04 00 00 00 00 73 F3 
7162.842 [RX] 09 03 9C 8E 00 01 CB 39 
7162.858 [RX] 09 03 02 00 00 59 85 
7162.967 [RX] 00 10 A9 84 00 03 06 00 AA 00 00 03 E8 96 04 
7163.027 [RX] 09 03 A2 89 00 02 37 11 
7163.051 [RX] 09 03 04 00 00 00 00 73 F3 
7163.168 [RX] 09 03 9C 9B 00 01 DA FD 
7163.194 [RX] 09 03 02 00 00 59 85 
7163.305 [RX] 09 03 9C 99 00 01 7B 3D 
7163.328 [RX] 09 03 02 00 00 59 85 
7163.435 [RX] 00 10 A9 84 00 03 06 00 AA 00 00 03 E8 96 04 
7163.480 [RX] 09 03 9C 92 00 02 4A FE 
7163.496 [RX] 09 03 04 00 00 00 00 73 F3 
7163.587 [RX] 09 03 A2 97 00 02 57 17 
7163.614 [RX] 09 03 04 7F FF FF FF 5B A7 
7163.732 [RX] 09 03 9C 9E 00 01 CA FC 
7163.748 [RX] 09 03 02 00 00 59 85 
7163.858 [RX] 00 10 A9 84 00 03 06 00 AA 00 00 03 E8 96 04 
7163.908 [RX] 09 03 9C 9C 00 01 6B 3C 
7163.950 [RX] 09 03 02 00 00 59 85 
7164.068 [RX] 09 03 9C 92 00 02 4A FE 
7164.084 [RX] 09 03 04 00 00 00 00 73 F3 
7164.209 [RX] 00 10 A9 84 00 03 06 00 AA 00 00 03 E8 96 04 
7164.264 [RX] 09 03 A2 99 00 02 36 D4 
7164.286 [RX] 09 03 04 7F FF FF FF 5B A7 
7164.371 [RX] 09 03 9C A1 00 01 FA F0 
7164.395 [RX] 09 03 02 00 00 59 85 
7164.496 [RX] 09 03 9C 9F 00 01 9B 3C 
7164.538 [RX] 09 03 02 00 00 59 85 
7164.651 [RX] 00 10 A9 84 00 03 06 00 AA 00 00 03 E8 96 04 
7164.706 [RX] 09 03 9C 92 00 02 4A FE 
7164.731 [RX] 09 03 04 00 00 00 00 73 F3 
7164.827 [RX] 09 03 A2 9B 00 02 97 14 
7164.840 [RX] 09 03 04 7F FF FF FF 5B A7 
7164.952 [RX] 09 03 A0 73 00 02 16 98 
7164.983 [RX] 09 03 04 00 00 00 00 73 F3 
7165.082 [RX] 00 10 A9 84 00 03 06 00 AA 00 00 03 E8 96 04 
7165.137 [RX] 09 03 A0 18 00 18 E6 8F 
7165.151 [RX] 09 03 30 22 B8 00 00 22 B8 00 00 22 D7 00 00 22 D7 00 00 21 33 00 00 21 33 00 00 1A 23 00 00 1A 23 00 00 1A 25 00 00 1A 25 00 00 18 54 00 00 18 54 00 00 40 BA 
7165.297 [RX] 09 03 A0 7B 00 03 56 9A 
7165.319 [RX] 09 03 06 01 45 01 46 01 9B 2A B9 
7165.432 [RX] 00 10 A9 84 00 03 06 00 AA 00 00 03 E8 96 04 
7165.488 [RX] 09 03 A0 02 00 02 46 83 
7165.513 [RX] 09 03 04 00 00 00 00 73 F3 
7165.608 [RX] 09 03 A2 B6 00 02 07 1D 
7165.630 [RX] 09 03 04 00 00 00 6B 32 1C 
7165.774 [RX] 00 10 A9 84 00 03 06 00 AA 00 00 03 E8 96 04 
7166.132 [RX] 09 03 A0 00 00 01 A7 42 
7166.159 [RX] 09 03 02 55 00 66 D5 
7166.277 [RX] 00 10 A9 84 00 03 06 00 AA 00 00 03 E8 96 04 
7166.327 [RX] 09 03 A0 86 00 16 06 A5 
7166.352 [RX] 09 03 2C 04 00 00 00 00 00 00 00 00 00 00 00 00 00 00 00 00 00 00 00 00 00 00 00 00 00 00 00 00 00 00 00 00 00 04 00 00 00 00 00 00 00 00 00 5B 28 
7166.619 [RX] 00 10 A9 84 00 03 06 00 AA 00 00 03 E8 96 04 
7166.745 [RX] 09 03 A0 30 00 0C 66 88 
7166.772 [RX] 09 03 18 00 00 00 00 00 00 00 00 00 00 00 00 00 00 00 00 00 00 00 00 00 00 00 00 93 A3 
7166.930 [RX] 09 03 A0 3C 00 0C A6 8B 
7166.974 [RX] 09 03 18 00 00 00 00 00 00 00 00 00 00 00 00 00 00 00 00 00 01 00 00 00 01 00 00 D2 A3 
7167.090 [RX] 00 10 A9 84 00 03 06 00 AA 00 00 03 E8 96 04 
7167.145 [RX] 09 03 9C 8F 00 02 DA F8 
7167.167 [RX] 09 03 04 00 00 00 00 73 F3 
7167.370 [RX] 09 03 A0 0B 00 03 57 41 
7167.394 [RX] 09 03 06 00 00 22 D0 00 00 4D 34 
7167.505 [RX] 00 10 A9 84 00 03 06 00 AA 00 00 03 E8 96 04 
7167.550 [RX] 09 03 A0 85 00 01 B6 AB 09 03 02 00 00 59 85 
7167.772 [RX] 00 10 A9 84 00 03 06 00 AA 00 00 03 E8 96 04 
7168.158 [RX] 00 10 A9 84 00 03 06 00 AA 00 00 03 E8 96 04 
7168.585 [RX] 00 10 A9 84 00 03 06 00 AA 00 00 03 E8 96 04 
7168.970 [RX] 00 10 A9 84 00 03 06 00 AA 00 00 03 E8 96 04 
7169.397 [RX] 00 10 A9 84 00 03 06 00 AA 00 00 03 E8 96 04 
7169.789 [RX] 00 10 A9 84 00 03 06 00 AA 00 00 03 E8 96 04 
7170.166 [RX] 00 10 A9 84 00 03 06 00 AA 00 00 03 E8 96 04 
7170.583 [RX] 00 10 A9 84 00 03 06 00 AA 00 00 03 E8 96 04 
7170.994 [RX] 00 10 A9 84 00 03 06 00 AA 00 00 03 E8 96 04 
7171.405 [RX] 00 10 A9 84 00 03 06 00 AA 00 00 03 E8 96 04 
7171.766 [RX] 00 10 A9 84 00 03 06 00 AA 00 00 03 E8 96 04 
7172.181 [RX] 00 10 A9 84 00 03 06 00 AA 00 00 03 E8 96 04 
7172.587 [RX] 00 10 A9 84 00 03 06 00 AA 00 00 03 E8 96 04 
7173.003 [RX] 00 10 A9 84 00 03 06 00 AA 00 00 03 E8 96 04 
7173.399 [RX] 00 10 A9 84 00 03 06 00 AA 00 00 03 E8 96 04 
7173.789 [RX] 00 10 A9 84 00 03 06 00 AA 00 00 03 E8 96 04 
7174.191 [RX] 00 10 A9 84 00 03 06 00 AA 00 00 03 E8 96 04 
7174.592 [RX] 00 10 A9 84 00 03 06 00 AA 00 00 03 E8 96 04 
7174.967 [RX] 00 10 A9 84 00 03 06 00 AA 00 00 03 E8 96 04 
7175.383 [RX] 00 10 A9 84 00 03 06 00 AA 00 00 03 E8 96 04 
7175.788 [RX] 00 10 A9 84 00 03 06 00 AA 00 00 03 E8 96 04 
7176.194 [RX] 00 10 A9 84 00 03 06 00 AA 00 00 03 E8 96 04 
7176.575 [RX] 00 10 A9 84 00 03 06 00 AA 00 00 03 E8 96 04 
7176.990 [RX] 00 10 A9 84 00 03 06 00 AA 00 00 03 E8 96 04 
7177.390 [RX] 00 10 A9 84 00 03 06 00 AA 00 00 03 E8 96 04 
7177.780 [RX] 00 10 A9 84 00 03 06 00 AA 00 00 03 E8 96 04 
7178.226 [RX] 00 10 A9 84 00 03 06 00 AA 00 00 03 E8 96 04 
7178.596 [RX] 00 10 A9 84 00 03 06 00 AA 00 00 03 E8 96 04 
7179.009 [RX] 00 10 A9 84 00 03 06 00 AA 00 00 03 E8 96 04 
7179.419 [RX] 00 10 A9 84 00 03 06 00 AA 00 00 03 E8 96 04 
7179.784 [RX] 00 10 A9 84 00 03 06 00 AA 00 00 03 E8 96 04 
7180.196 [RX] 00 10 A9 84 00 03 06 00 AA 00 00 03 E8 96 04 
7180.597 [RX] 00 10 A9 84 00 03 06 00 AA 00 00 03 E8 96 04 
7181.014 [RX] 00 10 A9 84 00 03 06 00 AA 00 00 03 E8 96 04 
7181.389 [RX] 00 10 A9 84 00 03 06 00 AA 00 00 03 E8 96 04 
7181.794 [RX] 00 10 A9 84 00 03 06 00 AA 00 00 03 E8 96 04 
7182.190 [RX] 00 10 A9 84 00 03 06 00 AA 00 00 03 E8 96 04 
7182.606 [RX] 00 10 A9 84 00 03 06 00 AA 00 00 03 E8 96 04 
7183.008 [RX] 00 10 A9 84 00 03 06 00 AA 00 00 03 E8 96 04 
7183.396 [RX] 00 10 A9 84 00 03 06 00 AA 00 00 03 E8 96 04 
7184.293 [RX] 00 10 A9 84 00 03 06 00 AA 00 00 03 E8 96 04 
7184.438 [RX] 00 10 A9 84 00 03 06 00 AA 00 00 03 E8 96 04 
7184.898 [RX] 00 10 A9 84 00 03 06 00 AA 00 00 03 E8 96 04 
7185.258 [RX] 00 10 A9 84 00 03 06 00 AA 00 00 03 E8 96 04 
7185.645 [RX] 00 10 A9 84 00 03 06 00 AA 00 00 03 E8 96 04 
7186.082 [RX] 00 10 A9 84 00 03 06 00 AA 00 00 03 E8 96 04 
7186.483 [RX] 00 10 A9 84 00 03 06 00 AA 00 00 03 E8 96 04 
7186.851 [RX] 00 10 A9 84 00 03 06 00 AA 00 00 03 E8 96 04 
7187.272 [RX] 00 10 A9 84 00 03 06 00 AA 00 00 03 E8 96 04 
7187.674 [RX] 00 10 A9 84 00 03 06 00 AA 00 00 03 E8 96 04 
7188.060 [RX] 00 10 A9 84 00 03 06 00 AA 00 00 03 E8 96 04 
7188.472 [RX] 00 10 A9 84 00 03 06 00 AA 00 00 03 E8 96 04 
7188.869 [RX] 00 10 A9 84 00 03 06 00 AA 00 00 03 E8 96 04 
7189.247 [RX] 00 10 A9 84 00 03 06 00 AA 00 00 03 E8 96 04 
7189.668 [RX] 00 10 A9 84 00 03 06 00 AA 00 00 03 E8 96 04 
7190.061 [RX] 00 10 A9 84 00 03 06 00 AA 00 00 03 E8 96 04 
7190.476 [RX] 00 10 A9 84 00 03 06 00 AA 00 00 03 E8 96 04 
7190.877 [RX] 00 10 A9 84 00 03 06 00 AA 00 00 03 E8 96 04 
7193.528 [RX] 07 03 9D 23 00 02 1A 0B 
7193.545 [RX] 07 03 04 02 EE 02 58 FD 24 
7193.705 [RX] 07 03 A2 87 00 02 57 FC 
7193.738 [RX] 07 03 04 00 00 00 00 9C 33 
7193.835 [RX] 07 03 9C 8E 00 01 CA 17 07 03 02 00 00 30 44 
7193.956 [RX] 07 03 A2 89 00 02 36 3F 
7193.990 [RX] 07 03 04 00 00 00 00 9C 33 
7194.102 [RX] 07 03 9C 9B 00 01 DB D3 
7194.133 [RX] 07 03 02 00 00 30 44 
7194.237 [RX] 07 03 9C 99 00 01 7A 13 
7194.267 [RX] 07 03 02 00 00 30 44 
7194.372 [RX] 07 03 9C 92 00 02 4B D0 
7194.385 [RX] 07 03 04 00 00 00 00 9C 33 
7194.512 [RX] 07 03 A2 97 00 02 56 39 
7194.553 [RX] 07 03 04 7F FF FF FF B4 67 
7194.648 [RX] 07 03 9C 9E 00 01 CB D2 
7194.662 [RX] 07 03 02 00 00 30 44 
7194.758 [RX] 07 03 9C 9C 00 01 6A 12 
7194.771 [RX] 07 03 02 00 00 30 44 
7194.868 [RX] 07 03 9C 92 00 02 4B D0 
7194.889 [RX] 07 03 04 00 00 00 00 9C 33 
7194.975 [RX] 07 03 A2 99 00 02 37 FA 
7194.998 [RX] 07 03 04 7F FF FF FF B4 67 
7195.125 [RX] 07 03 9C A1 00 01 FB DE 
7195.141 [RX] 07 03 02 00 00 30 44 
7195.230 [RX] 07 03 9C 9F 00 01 9A 12 
7195.250 [RX] 07 03 02 00 00 30 44 
7195.341 [RX] 07 03 9C 92 00 02 4B D0 
7195.359 [RX] 07 03 04 00 00 00 00 9C 33 
7195.452 [RX] 07 03 A2 9B 00 02 96 3A 
7195.477 [RX] 07 03 04 7F FF FF FF B4 67 
7195.578 [RX] 07 03 A0 73 00 02 17 B6 
7195.611 [RX] 07 03 04 00 00 00 00 9C 33 
7195.718 [RX] 07 03 A0 18 00 18 E7 A1 
7195.754 [RX] 07 03 30 22 E9 00 00 22 E9 00 00 21 3A 00 00 21 3A 00 00 21 30 00 00 21 30 00 00 1A 26 00 00 1A 26 00 00 1A 34 00 00 1A 34 00 00 18 62 00 00 18 62 00 00 DD B3 
7195.905 [RX] 07 03 A0 7B 00 03 57 B4 
7195.922 [RX] 07 03 06 01 4B 01 4D 01 A5 FF 0A 
7196.026 [RX] 07 03 A0 02 00 02 47 AD 
7196.065 [RX] 07 03 04 00 00 00 00 9C 33 
7196.166 [RX] 07 03 A2 B6 00 02 06 33 
7196.199 [RX] 07 03 04 00 00 00 72 1C 16 
7196.781 [RX] 07 03 A0 00 00 01 A6 6C 
7196.821 [RX] 07 03 02 55 00 0F 14 
7196.951 [RX] 07 03 A0 86 00 16 07 8B 
7196.989 [RX] 07 03 2C 04 00 00 00 00 00 00 00 00 00 00 00 00 00 00 00 00 00 00 00 00 00 00 00 00 00 00 00 00 00 00 00 00 00 04 00 00 00 00 00 00 00 00 00 54 62 
7197.307 [RX] 07 03 A0 30 00 0C 67 A6 
7197.325 [RX] 07 03 18 00 00 00 00 00 00 00 00 00 00 00 00 00 00 00 00 00 00 00 00 00 00 00 00 6D 3A 
7231.625 [RX] 07 03 9D 23 00 02 1A 0B 
7231.646 [RX] 07 03 04 02 EE 02 58 FD 24 
7231.765 [RX] 07 03 A2 87 00 02 57 FC 
7231.790 [RX] 07 03 04 00 00 00 00 9C 33 
7231.922 [RX] 07 03 9C 8E 00 01 CA 17 
7231.957 [RX] 07 03 02 00 00 30 44 
7232.097 [RX] 07 03 A2 89 00 02 36 3F 
7232.125 [RX] 07 03 04 00 00 00 00 9C 33 
7232.227 [RX] 07 03 9C 9B 00 01 DB D3 
7232.269 [RX] 07 03 02 00 00 30 44 
7232.387 [RX] 07 03 9C 99 00 01 7A 13 
7232.402 [RX] 07 03 02 00 00 30 44 
7232.518 [RX] 07 03 9C 92 00 02 4B D0 
7232.545 [RX] 07 03 04 00 00 00 00 9C 33 
7232.673 [RX] 07 03 A2 97 00 02 56 39 
7232.689 [RX] 07 03 04 7F FF FF FF B4 67 
7232.829 [RX] 07 03 9C 9E 00 01 CB D2 
7232.857 [RX] 07 03 02 00 00 30 44 
7232.979 [RX] 07 03 9C 9C 00 01 6A 12 07 03 02 00 00 30 44 
7233.095 [RX] 07 03 9C 92 00 02 4B D0 
7233.109 [RX] 07 03 04 00 00 00 00 9C 33 
7233.210 [RX] 07 03 A2 99 00 02 37 FA 
7233.242 [RX] 07 03 04 7F FF FF FF B4 67 
7233.356 [RX] 07 03 9C A1 00 01 FB DE 
7233.385 [RX] 07 03 02 00 00 30 44 
7233.501 [RX] 07 03 9C 9F 00 01 9A 12 
7233.529 [RX] 07 03 02 00 00 30 44 
7233.621 [RX] 07 03 9C 92 00 02 4B D0 
7233.637 [RX] 07 03 04 00 00 00 00 9C 33 
7233.751 [RX] 07 03 A2 9B 00 02 96 3A 
7233.781 [RX] 07 03 04 7F FF FF FF B4 67 
7233.887 [RX] 07 03 A0 73 00 02 17 B6 
7233.914 [RX] 07 03 04 00 00 00 00 9C 33 
7234.022 [RX] 07 03 A0 18 00 18 E7 A1 
7234.057 [RX] 07 03 30 22 E3 00 00 22 E3 00 00 21 34 00 00 21 34 00 00 21 2B 00 00 21 2B 00 00 1A 22 00 00 1A 22 00 00 1A 30 00 00 1A 30 00 00 18 5F 00 00 18 5F 00 00 93 80 
7234.202 [RX] 07 03 A0 7B 00 03 57 B4 
7234.226 [RX] 07 03 06 01 4C 01 4D 01 A6 0A CB 
7234.348 [RX] 07 03 A0 02 00 02 47 AD 
7234.369 [RX] 07 03 04 00 00 00 00 9C 33 
7234.983 [RX] 07 03 9D 23 00 02 1A 0B 
7235.006 [RX] 07 03 04 02 EE 02 58 FD 24 
7235.107 [RX] 07 03 A2 87 00 02 e7 FC 
7235.125 [RX] 07 03 04 00 00 00 00 9C 33 
7235.222 [RX] 07 03 9C 8E 00 01 CA 17 07 03 02 00 00 30 44 
7235.327 [RX] 07 03 A2 89 00 02 36 3F 
7235.342 [RX] 07 03 04 00 00 00 00 9C 33 
7235.447 [RX] 07 03 9C 9B 00 01 DB D3 
7235.461 [RX] 07 03 02 00 00 30 44 
7235.562 [RX] 07 03 9C 99 00 01 7A 13 
7235.594 [RX] 07 03 02 00 00 30 44 
7235.693 [RX] 07 03 9C 92 00 02 4B D0 
7235.713 [RX] 07 03 04 00 00 00 00 9C 33 
7235.813 [RX] 07 03 A2 97 00 02 56 39 
7235.847 [RX] 07 03 04 7F FF FF FF B4 67 
7235.964 [RX] 07 03 9C 9E 00 01 CB D2 
7235.989 [RX] 07 03 02 00 00 30 44 
7236.144 [RX] 07 03 9C 9C 00 01 6A 12 
7236.157 [RX] 07 03 02 00 00 30 44 
7236.274 [RX] 07 03 9C 92 00 02 4B D0 
7236.301 [RX] 07 03 04 00 00 00 00 9C 33 
7236.394 [RX] 07 03 A2 99 00 02 37 FA 
7236.409 [RX] 07 03 04 7F FF FF FF B4 67 
7236.549 [RX] 07 03 9C A1 00 01 FB DE 
7236.577 [RX] 07 03 02 00 00 30 44 
7236.695 [RX] 07 03 9C 9F 00 01 9A 12 
7236.721 [RX] 07 03 02 00 00 30 44 
7236.835 [RX] 07 03 9C 92 00 02 4B D0 
7236.854 [RX] 07 03 04 00 00 00 00 9C 33 
7236.955 [RX] 07 03 A2 9B 00 02 96 3A 
7236.973 [RX] 07 03 04 7F FF FF FF B4 67 
7237.100 [RX] 07 03 A0 73 00 02 17 B6 
7237.141 [RX] 07 03 04 00 00 00 00 9C 33 
7237.270 [RX] 07 03 A0 18 00 18 E7 A1 
7237.309 [RX] 07 03 30 22 E2 00 00 22 E2 00 00 21 33 00 00 21 33 00 00 21 2A 00 00 21 2A 00 00 1A 21 00 00 1A 21 00 00 1A 30 00 00 1A 30 00 00 18 5F 00 00 18 5F 00 00 BC CA 
7237.481 [RX] 07 03 A0 7B 00 03 57 B4 
7237.501 [RX] 07 03 06 01 4C 01 4D 01 A6 0A CB 
7237.651 [RX] 07 03 A0 02 00 02 47 AD 
7237.669 [RX] 07 03 04 00 00 00 00 9C 33 
7239.952 [RX] 07 03 9D 23 00 02 1A 0B 
7239.997 [RX] 07 03 04 02 EE 02 58 FD 24 
7240.103 [RX] 07 03 A2 87 00 02 57 FC 
7240.130 [RX] 07 03 04 00 00 00 00 9C 33 
7240.234 [RX] 07 03 9C 8E 00 01 CA 17 
7240.249 [RX] 07 03 02 00 00 30 44 
7240.339 [RX] 07 03 A2 89 00 02 36 3F 
7240.357 [RX] 07 03 04 00 00 00 00 9C 33 
7240.524 [RX] 07 03 9C 9B 00 01 DB D3 
7240.550 [RX] 07 03 02 00 00 30 44 
7240.699 [RX] 07 03 9C 99 00 01 7A 13 
7240.718 [RX] 07 03 02 00 00 30 44 
7240.819 [RX] 07 03 9C 92 00 02 4B D0 
7240.837 [RX] 07 03 04 00 00 00 00 9C 33 
7240.940 [RX] 07 03 A2 97 00 02 56 39 
7240.970 [RX] 07 03 04 7F FF FF FF B4 67 
7241.070 [RX] 07 03 9C 9E 00 01 CB D2 
7241.089 [RX] 07 03 02 00 00 30 44 
7241.175 [RX] 07 03 9C 9C 00 01 6A 12 
7241.197 [RX] 07 03 02 00 00 30 44 
7241.330 [RX] 07 03 9C 92 00 02 4B D0 
7241.366 [RX] 07 03 04 00 00 00 00 9C 33 
7241.475 [RX] 07 03 A2 99 00 02 37 FA 
7241.509 [RX] 07 03 04 7F FF FF FF B4 67 
7241.625 [RX] 07 03 9C A1 00 01 FB DE 
7241.642 [RX] 07 03 02 00 00 30 44 
7241.795 [RX] 07 03 9C 9F 00 01 9A 12 
7241.810 [RX] 07 03 02 00 00 30 44 
7241.965 [RX] 07 03 9C 92 00 02 4B D0 
7241.978 [RX] 07 03 04 00 00 00 00 9C 33 
7242.140 [RX] 07 03 A2 9B 00 02 96 3A 
7242.181 [RX] 07 03 04 7F FF FF FF B4 67 
7242.325 [RX] 07 03 A0 73 00 02 17 B6 
7242.349 [RX] 07 03 04 00 00 00 00 9C 33 
7242.471 [RX] 07 03 A0 18 00 18 E7 A1 07 03 30 22 E1 00 00 22 E1 00 00 21 32 00 00 21 32 00 00 21 29 00 00 21 29 00 00 1A 20 00 00 1A 20 00 00 1A 2F 00 00 1A 2F 00 00 18 5E 00 00 18 5E 00 00 51 AA 
7242.632 [RX] 07 03 A0 7B 00 03 57 B4 
7242.650 [RX] 07 03 06 01 4C 01 4D 01 A6 0A CB 
7243.907 [RX] 07 03 9D 23 00 02 1A 0B 
7243.945 [RX] 07 03 04 02 EE 02 58 FD 24 
7244.063 [RX] 07 03 A2 87 00 02 57 FC 
7244.078 [RX] 07 03 04 00 00 00 00 9C 33 
7244.178 [RX] 07 03 9C 8E 00 01 CA 17 
7244.197 [RX] 07 03 02 00 00 30 44 
7244.288 [RX] 07 03 A2 89 00 02 36 3F 
7244.305 [RX] 07 03 04 00 00 00 00 9C 33 
7244.393 [RX] 07 03 9C 9B 00 01 DB D3 
7244.414 [RX] 07 03 02 00 00 30 44 
7244.498 [RX] 07 03 9C 99 00 01 7A 13 
7244.533 [RX] 07 03 02 00 00 30 44 
7244.658 [RX] 07 03 9C 92 00 02 4B D0 
7244.701 [RX] 07 03 04 00 00 00 00 9C 33 
7244.863 [RX] 07 03 A2 97 00 02 56 39 
7244.893 [RX] 07 03 04 7F FF FF FF B4 67 
7244.979 [RX] 07 03 9C 9E 00 01 CB D2 
7245.002 [RX] 07 03 02 00 00 30 44 
7245.089 [RX] 07 03 9C 9C 00 01 6A 12 
7245.121 [RX] 07 03 02 00 00 30 44 
7245.224 [RX] 07 03 9C 92 00 02 4B D0 
7245.254 [RX] 07 03 04 00 00 00 00 9C 33 
7245.354 [RX] 07 03 A2 99 00 02 37 FA 
7245.373 [RX] 07 03 04 7F FF FF FF B4 67 
7245.475 [RX] 07 03 9C A1 00 01 FB DE 
7245.506 [RX] 07 03 02 00 00 30 44 
7245.607 [RX] 07 03 9C 9F 00 01 9A 12 
7245.625 [RX] 07 03 02 00 00 30 44 
7245.727 [RX] 07 03 9C 92 00 02 4B D0 
7245.758 [RX] 07 03 04 00 00 00 00 9C 33 
7245.868 [RX] 07 03 A2 9B 00 02 96 3A 
7245.901 [RX] 07 03 04 7F FF FF FF B4 67 
7246.038 [RX] 07 03 A0 73 00 02 17 B6 
7246.069 [RX] 07 03 04 00 00 00 00 9C 33 
7246.199 [RX] 07 03 A0 18 00 18 E7 A1 
7246.213 [RX] 07 03 30 22 E1 00 00 22 E1 00 00 21 32 00 00 21 32 00 00 21 28 00 00 21 28 00 00 1A 20 00 00 1A 20 00 00 1A 2F 00 00 1A 2F 00 00 18 5E 00 00 18 5E 00 00 3E E8 
7246.374 [RX] 07 03 A0 7B 00 03 57 B4 
7246.405 [RX] 07 03 06 01 4C 01 4D 01 A6 0A CB 
7246.494 [RX] 07 03 A0 02 00 02 47 AD 
7246.514 [RX] 07 03 04 00 00 00 00 9C 33 
7246.614 [RX] 07 03 A2 B6 00 02 06 33 
7246.633 [RX] 07 03 04 00 00 00 72 1C 16 
7247.892 [RX] 07 03 9D 23 00 02 1A 0B 
7247.917 [RX] 07 03 04 02 EE 02 58 FD 24 
7248.052 [RX] 07 03 A2 87 00 02 57 FC 
7248.085 [RX] 07 03 04 00 00 00 00 9C 33 
7248.187 [RX] 07 03 9C 8E 00 01 CA 17 
7248.229 [RX] 07 03 02 00 00 30 44 
7248.339 [RX] 07 03 A2 89 00 02 36 3F 
7248.362 [RX] 07 03 04 00 00 00 00 9C 33 
7248.484 [RX] 07 03 9C 9B 00 01 DB D3 
7248.505 [RX] 07 03 02 00 00 30 44 
7248.604 [RX] 07 03 9C 99 00 01 7A 13 
7248.649 [RX] 07 03 02 00 00 30 44 
7248.809 [RX] 07 03 9C 92 00 02 4B D0 
7248.841 [RX] 07 03 04 00 00 00 00 9C 33 
7248.984 [RX] 07 03 A2 97 00 02 56 39 
7249.009 [RX] 07 03 04 7F FF FF FF B4 67 
7249.120 [RX] 07 03 9C 9E 00 01 CB D2 
7249.153 [RX] 07 03 02 00 00 30 44 
7249.256 [RX] 07 03 9C 9C 00 01 6A 12 
7249.286 [RX] 07 03 02 00 00 30 44 
7249.411 [RX] 07 03 9C 92 00 02 4B D0 
7249.429 [RX] 07 03 04 00 00 00 00 9C 33 
7249.531 [RX] 07 03 A2 99 00 02 37 FA 
7249.573 [RX] 07 03 04 7F FF FF FF B4 67 
7249.677 [RX] 07 03 9C A1 00 01 FB DE 
7249.706 [RX] 07 03 02 00 00 30 44 
7249.827 [RX] 07 03 9C 9F 00 01 9A 12 
7249.849 [RX] 07 03 02 00 00 30 44 
7249.977 [RX] 07 03 9C 92 00 02 4B D0 
7249.993 [RX] 07 03 04 00 00 00 00 9C 33 
7250.143 [RX] 07 03 A2 9B 00 02 96 3A 
7250.161 [RX] 07 03 04 7F FF FF FF B4 67 
7250.348 [RX] 07 03 A0 73 00 02 17 B6 
7250.378 [RX] 07 03 04 00 00 00 00 9C 33 
7250.563 [RX] 07 03 A0 18 00 18 E7 A1 
7250.581 [RX] 07 03 30 22 E0 00 00 22 E0 00 00 21 31 00 00 21 31 00 00 21 28 00 00 21 28 00 00 1A 1F 00 00 1A 1F 00 00 1A 2D 00 00 1A 2D 00 00 18 5D 00 00 18 5D 00 00 F9 BC 
7252.022 [RX] 07 03 9D 23 00 02 1A 0B 07 03 04 02 EE 02 58 FD 24 
7252.197 [RX] 07 03 A2 87 00 02 57 FC 
7252.226 [RX] 07 03 04 00 00 00 00 9C 33 
7252.397 [RX] 07 03 9C 8E 00 01 CA 17 
7252.429 [RX] 07 03 02 00 00 30 44 
7252.588 [RX] 07 03 A2 89 00 02 36 3F 
7252.621 [RX] 07 03 04 00 00 00 00 9C 33 
7252.743 [RX] 07 03 9C 9B 00 01 DB D3 
7252.765 [RX] 07 03 02 00 00 30 44 
7252.868 [RX] 07 03 9C 99 00 01 7A 13 
7252.898 [�X] 07 03 02 00 00 30 44 
7253.054 [RX] 07 03 9C 92 00 02 4B D0 
7253.066 [RX] 07 03 04 00 00 00 00 9C 33 
7253.249 [RX] 07 03 A2 97 00 02 56 39 
7253.269 [RX] 07 03 04 7F FF FF FF B4 67 
7253.411 [RX] 07 03 9C 9E 00 01 CB D2 
7253.437 [RX] 07 03 02 00 00 30 44 
7253.613 [RX] 07 03 9C 9C 00 01 6A 12 
7253.629 [RX] 07 03 02 00 00 30 44 
7253.788 [RX] 07 03 9C 92 00 02 4B D0 
7253.822 [RX] 07 03 04 00 00 00 00 9C 33 
7253.933 [RX] 07 03 A2 99 00 02 37 FA 
7253.966 [RX] 07 03 04 7F FF FF FF B4 67 
7254.110 [RX] 07 03 9C A1 00 01 FB DE 
7254.133 [RX] 07 03 02 00 00 30 44 
7254.280 [RX] 07 03 9C 9F 00 01 9A 12 
7254.301 [RX] 07 03 02 00 00 30 44 
7254.467 [RX] 07 03 9C 92 00 02 4B D0 
7254.494 [RX] 07 03 04 00 00 00 00 9C 33 
7254.687 [RX] 07 03 A2 9B 00 02 96 3A 
7254.721 [RX] 07 03 04 7F FF FF FF B4 67 
7254.837 [RX] 07 03 A0 73 00 02 17 B6 
7254.865 [RX] 07 03 04 00 00 00 00 9C 33 
7256.224 [RX] 07 03 9D 23 00 02 1A 0B 
7256.258 [RX] 07 03 04 02 EE 02 58 FD 24 
7256.429 [RX] 07 03 A2 87 00 02 57 FC 
7256.461 [RX] 07 03 04 00 00 00 00 9C 33 
7256.595 [RX] 07 03 9C 8E 00 01 CA 17 
7256.629 [RX] 07 03 02 00 00 30 44 
7256.782 [RX] 07 03 A2 89 00 02 36 3F 
7256.797 [RX] 07 03 04 00 00 00 00 9C 33 
7256.912 [RX] 07 03 9C 9B 00 01 DB D3 
7256.930 [RX] 07 03 02 00 00 30 44 
7257.037 [RX] 07 03 9C 99 00 01 7A 13 
7257.073 [RX] 07 03 02 00 00 30 44 
7257.226 [RX] 07 03 9C 92 00 02 4B D0 
7257.241 [RX] 07 03 04 00 00 00 00 9C 33 
7257.414 [RX] 07 03 A2 97 00 02 56 39 
7257.434 [RX] 07 03 04 7F FF FF FF B4 67 
7257.589 [RX] 07 03 9C 9E 00 01 CB D2 
7257.602 [RX] 07 03 02 00 00 30 44 
7257.724 [RX] 07 03 9C 9C 00 01 6A 12 
7257.746 [RX] 07 03 02 00 00 30 44 
7257.875 [RX] 07 03 9C 92 00 02 4B D0 
7257.889 [RX] 07 03 04 00 00 00 00 9C 33 
7258.016 [RX] 07 03 A2 99 00 02 37 FA 
7258.057 [RX] 07 03 04 7F FF FF FF B4 67 
7258.192 [RX] 07 03 9C A1 00 01 FB DE 
7258.225 [RX] 07 03 02 00 00 30 44 
7258.352 [RX] 07 03 9C 9F 00 01 9A 12 
7258.393 [RX] 07 03 02 00 00 30 44 
7258.552 [RX] 07 03 9C 92 00 02 4B D0 
7258.585 [RX] 07 03 04 00 00 00 00 9C 33 
7258.802 [RX] 07 03 A2 9B 00 02 96 3A 
7258.837 [RX] 07 03 04 7F FF FF FF B4 67 
7258.998 [RX] 07 03 A0 73 00 02 17 B6 
7259.030 [RX] 07 03 04 00 00 00 00 9C 33 
7260.419 [RX] 07 03 9D 23 00 02 1A 0B 
7260.433 [RX] 07 03 04 02 EE 02 58 FD 24 
7260.661 [RX] 07 03 A2 87 00 02 57 FC 
7260.685 [RX] 07 03 04 00 00 00 00 9C 33 
7260.827 [RX] 07 03 9C 8E 00 01 CA 17 
7260.854 [RX] 07 03 02 00 00 30 44 
7260.987 [RX] 07 03 A2 89 00 02 36 3F 
7261.021 [RX] 07 03 04 00 00 00 00 9C 33 
7261.137 [RX] 07 03 9C 9B 00 01 DB D3 
7261.165 [RX] 07 03 02 00 00 30 44 
7261.328 [RX] 07 03 9C 99 00 01 7A 13 
7261.357 [RX] 07 03 02 00 00 30 44 
7261.548 [RX] 07 03 9C 92 00 02 4B D0 
7261.585 [RX] 07 03 04 00 00 00 00 9C 33 
7261.723 [RX] 07 03 A2 97 00 02 56 39 
7261.753 [RX] 07 03 04 7F FF FF FF B4 67 
7261.858 [RX] 07 03 9C 9E 00 01 CB D2 
7261.886 [RX] 07 03 02 00 00 30 44 
7262.004 [RX] 07 03 9C 9C 00 01 6A 12 
7262.029 [RX] 07 03 02 00 00 30 44 
7262.140 [RX] 07 03 9C 92 00 02 4B D0 
7262.173 [RX] 07 03 04 00 00 00 00 9C 33 
7262.280 [RX] 07 03 A2 99 00 02 37 FA 
7262.306 [RX] 07 03 04 7F FF FF FF B4 67 
7262.416 [RX] 07 03 9C A1 00 01 FB DE 
7262.449 [RX] 07 03 02 00 00 30 44 
7262.551 [RX] 07 03 9C 9F 00 01 9A 12 
7262.593 [RX] 07 03 02 00 00 30 44 
7262.711 [RX] 07 03 9C 92 00 02 4B D0 
7262.726 [RX] 07 03 04 00 00 00 00 9C 33 
7262.877 [RX] 07 03 A2 9B 00 02 96 3A 
7262.894 [RX] 07 03 04 7F FF FF FF B4 67 
7263.053 [RX] 07 03 A0 73 00 02 17 B6 
7263.097 [RX] 07 03 04 00 00 00 00 9C 33 
7263.189 [RX] 07 03 A0 18 00 18 E7 A1 
7263.205 [RX] 07 03 30 22 E0 00 00 22 E0 00 00 21 30 00 00 21 30 00 00 21 27 00 00 21 27 00 00 1A 1F 00 00 1A 1F 00 00 1A 2D 00 00 1A 2D 00 00 18 5D 00 00 18 5D 00 00 AD CC 
7264.510 [RX] 07 03 9D 23 00 02 1A 0B 
7264.525 [RX] 07 03 04 02 EE 02 58 FD 24 
7264.631 [RX] 07 03 A2 87 00 02 57 FC 
7264.658 [RX] 07 03 04 00 00 00 00 9C 33 
7264.777 [RX] 07 03 9C 8E 00 01 CA 17 
7264.801 [RX] 07 03 02 00 00 30 44 
7264.912 [RX] 07 03 A2 89 00 02 36 3F 
7264.945 [RX] 07 03 04 00 00 00 00 9C 33 
7265.038 [RX] 07 03 9C 9B 00 01 DB D3 
7265.053 [RX] 07 03 02 00 00 30 44 
7265.183 [RX] 07 03 9C 99 00 01 7A 13 
7265.197 [RX] 07 03 02 00 00 30 44 
7265.304 [RX] 07 03 9C 92 00 02 4B D0 
7265.331 [RX] 07 03 04 00 00 00 00 9C 33 
7265.480 [RX] 07 03 A2 97 00 02 56 39 
7265.498 [RX] 07 03 04 7F FF FF FF B4 67 
7265.651 [RX] 07 03 9C 9E 00 01 CB D2 
7265.666 [RX] 07 03 02 00 00 30 44 
7265.801 [RX] 07 03 9C 9C 00 01 6A 12 
7265.834 [RX] 07 03 02 00 00 30 44 
7265.951 [RX] 07 03 9C 92 00 02 4B D0 
7265.977 [RX] 07 03 04 00 00 00 00 9C 33 
7266.086 [RX] 07 03 A2 99 00 02 37 FA 
7266.121 [RX] 07 03 04 7F FF FF FF B4 67 
7266.222 [RX] 07 03 9C A1 00 01 FB DE 
7266.254 [RX] 07 03 02 00 00 30 44 
7266.442 [RX] 07 03 9C 9F 00 01 9A 12 
7266.457 [RX] 07 03 02 00 00 30 44 
7266.617 [RX] 07 03 9C 92 00 02 4B D0 
7266.649 [RX] 07 03 04 00 00 00 00 9C 33 
7266.817 [RX] 07 03 A2 9B 00 02 96 3A 
7266.842 [RX] 07 03 04 7F FF FF FF B4 67 
7267.039 [RX] 07 03 A0 73 00 02 17 B6 
7267.069 [RX] 07 03 04 00 00 00 00 9C 33 
7267.219 [RX] 07 03 A0 18 00 18 E7 A1 
7267.237 [RX] 07 03 30 22 E0 00 00 22 E0 00 00 21 2F 00 00 21 2F 00 00 21 27 00 00 21 27 00 00 1A 1F 00 00 1A 1F 00 00 1A 2D 00 00 1A 2D 00 00 18 5C 00 00 18 5C 00 00 7F 2B 
7268.742 [RX] 07 03 9D 23 00 02 1A 0B 
7268.774 [RX] 07 03 04 02 EE 02 58 FD 24 
7268.883 [RX] 07 03 A2 87 00 02 57 FC 
7268.918 [RX] 07 03 04 00 00 00 00 9C 33 
7269.034 [RX] 07 03 9C 8E 00 01 CA 17 
7269.061 [RX] 07 03 02 00 00 30 44 
7269.169 [RX] 07 03 A2 89 00 02 36 3F 
7269.194 [RX] 07 03 04 00 00 00 00 9C 33 
7269.304 [RX] 07 03 9C 9B 00 01 DB D3 
7269.337 [RX] 07 03 02 00 00 30 44 
7269.429 [RX] 07 03 9C 99 00 01 7A 13 
7269.446 [RX] 07 03 02 00 00 30 44 
7269.534 [RX] 07 03 9C 92 00 02 4B D0 
7269.565 [RX] 07 03 04 00 00 00 00 9C 33 
7269.684 [RX] 07 03 A2 97 00 02 56 39 
7269.698 [RX] 07 03 04 7F FF FF FF B4 67 
7269.829 [RX] 07 03 9C 9E 00 01 CB D2 
7269.842 [RX] 07 03 02 00 00 30 44 
7269.940 [RX] 07 03 9C 9C 00 01 6A 12 
7269.985 [RX] 07 03 02 00 00 30 44 
7270.090 [RX] 07 03 9C 92 00 02 4B D0 
7270.119 [RX] 07 03 04 00 00 00 00 9C 33 
7270.215 [RX] 07 03 A2 99 00 02 37 FA 
7270.237 [RX] 07 03 04 7F FF FF FF B4 67 
7270.337 [RX] 07 03 9C A1 00 01 FB DE 
7270.370 [RX] 07 03 02 00 00 30 44 
7270.453 [RX] 07 03 9C 9F 00 01 9A 12 
7270.489 [RX] 07 03 02 00 00 30 44 
7270.578 [RX] 07 03 9C 92 00 02 4B D0 
7270.597 [RX] 07 03 04 00 00 00 00 9C 33 
7270.684 [RX] 07 03 A2 9B 00 02 96 3A 
7270.706 [RX] 07 03 04 7F FF FF FF B4 67 
7270.800 [RX] 07 03 A0 73 00 02 17 B6 
7270.825 [RX] 07 03 04 00 00 00 00 9C 33 
7270.910 [RX] 07 03 A0 18 00 18 E7 A1 
7270.933 [RX] 07 03 30 22 DF 00 00 22 DF 00 00 21 2F 00 00 21 2F 00 00 21 27 00 00 21 27 00 00 1A 1E 00 00 1A 1E 00 00 1A 2D 00 00 1A 2D 00 00 18 5C 00 00 18 5C 00 00 9C 49 
7271.083 [RX] 07 03 A0 7B 00 03 57 B4 
7271.101 [RX] 07 03 06 01 4C 01 4D 01 A6 0A CB 
7271.219 [RX] 07 03 A0 02 00 02 47 AD 
7271.245 [RX] 07 03 04 00 00 00 00 9C 33 
7271.344 [RX] 07 03 A2 B6 00 02 06 33 
7271.378 [RX] 07 03 04 00 00 00 72 1C 16 
7271.754 [RX] 07 03 A0 00 00 01 A6 6C 
7271.774 [RX] 07 03 02 55 00 0F 14 
7271.864 [RX] 07 03 A0 86 00 16 07 8B 
7271.882 [RX] 07 03 2C 04 00 00 00 00 00 00 00 00 00 00 00 00 00 00 00 00 00 00 00 00 00 00 00 00 00 00 00 00 00 00 00 00 00 04 00 00 00 00 00 00 00 00 00 54 62 
7272.185 [RX] 07 03 A0 30 00 0C 67 A6 
7272.218 [RX] 07 03 18 00 00 00 00 00 00 00 00 00 00 00 00 00 00 00 00 00 00 00 00 00 00 00 00 6D 3A 
7272.400 [RX] 07 03 A0 3C 00 0C A7 A5 
7272.421 [RX] 07 03 18 00 00 00 00 00 00 00 00 00 00 00 00 00 00 00 00 00 01 00 00 00 01 00 00 2C 3A 
7272.576 [RX] 07 03 9C 8F 00 02 DB D6 
7272.589 [RX] 07 03 04 00 00 00 00 9C 33 
7272.757 [RX] 07 03 A0 0B 00 03 56 6F 
7272.781 [RX] 07 03 06 00 00 22 DB 00 00 70 96 
7272.882 [RX] 07 03 A0 85 00 01 B7 85 
7272.925 [RX] 07 03 02 00 00 30 44 
7273.057 [RX] 07 03 A3 0B 00 1E 96 22 
7273.093 [RX] 07 03 3C 56 31 2D 54 47 5F 4D 61 73 74 65 72�5F 56 31 2E 31 34 00 00 00 00 00 00 00 00 00 00 00 00 56 31 2D 54 47 5F 53 6C 61 76 65 5F 56 31 2E 30 30 00 00 00 00 00 00 00 00 00 00 00 00 00 0D 1B 
7273.238 [RX] 07 03 A2 FC 00 0F E6 20 
7273.261 [RX] 07 03 1E 56 31 2D 54 47 5F 4D 61 6E 61 67 65 72 5F 56 31 2E 31 33 00 00 00 00 00 00 00 00 00 00 00 4D D5 
7273.373 [RX] 07 03 A3 47 00 0F 97 F9 
7273.394 [RX] 07 03 1E 56 31 2D 54 47 5F 41 46 43 49 5F 56 31 2E 30 31 00 00 00 00 00 00 00 00 00 00 00 00 00 00 08 FB 
7273.548 [RX] 07 03 9C 54 00 10 2B E0 
7273.562 [RX] 07 03 20 53 49 57 34 30 30 47 20 54 30 37 35 20 57 30 31 00 00 00 00 00 00 00 00 00 00 00 00 00 00 00 00 5E FC 
7273.679 [RX] 07 03 9C 54 00 10 2B E0 
7273.705 [RX] 07 03 20 53 49 57 34 30 30 47 20 54 30 37 35 20 57 30 31 00 00 00 00 00 00 00 00 00 00 00 00 00 00 00 00 5E FC 
7273.839 [RX] 07 03 9D 23 00 02 1A 0B 
7273.874 [RX] 07 03 04 02 EE 02 58 FD 24 
7274.054 [RX] 07 03 9D 23 00 02 1A 0B 
7274.066 [RX] 07 03 04 02 EE 02 58 FD 24 
7274.150 [RX] 08 03 A3 0B 00 1E 96 DD 
7274.176 [RX] 08 03 3C 56 31 2D 54 47 5F 4D 61 73 74 65 72 5F 56 31 2E 31 34 00 00 00 00 00 00 00 00 00 00 00 00 56 31 2D 54 47 5F 53 6C 61 76 65 5F 56 31 2E 30 30 00 00 00 00 00 00 00 00 00 00 00 00 00 C2 18 
7274.326 [RX] 08 03 A2 FC 00 0F E6 DF 
7274.344 [RX] 08 03 1E 56 31 2D 54 47 5F 4D 61 6E 61 67 65 72 5F 56 31 2E 31 33 00 00 00 00 00 00 00 00 00 00 00 29 D7 
7274.457 [RX] 08 03 A3 47 00 0F 97 06 
7274.487 [RX] 08 03 1E 56 31 2D 54 47 5F 41 46 43 49 5F 56 31 2E 30 31 00 00 00 00 00 00 00 00 00 00 00 00 00 00 6C F9 
7274.637 [RX] 08 03 9C 54 00 10 2B 1F 
7274.655 [RX] 08 03 20 53 49 57 34 30 30 47 20 54 30 37 35 20 57 30 31 00 00 00 00 00 00 00 00 00 00 00 00 00 00 00 00 F5 FD 
7274.782 [RX] 08 03 9C 54 00 10 2B 1F 
7274.799 [RX] 08 03 20 53 49 57 34 30 30 47 20 54 30 37 35 20 57 30 31 00 00 00 00 00 00 00 00 00 00 00 00 00 00 00 00 F5 FD 
7274.918 [RX] 08 03 9D 23 00 02 1A F4 
7274.932 [RX] 08 03 04 02 EE 02 58 02 24 
7275.068 [RX] 09 03 A3 0B 00 1E 97 0C 
7275.081 [RX] 09 03 3C 56 31 2D 54 47 5F 4D 61 73 74 65 72 5F 56 31 2E 31 34 00 00 00 00 00 00 00 00 00 00 00 00 56 31 2D 54 47 5F 53 6C 61 76 65 5F 56 31 2E 30 30 00 00 00 00 00 00 00 00 00 00 00 00 00 82 D8 
7275.239 [RX] 09 03 A2 FC 00 0F E7 0E 
7275.273 [RX] 09 03 1E 56 31 2D 54 47 5F 4D 61 6E 61 67 65 72 5F 56 31 2E 31 33 00 00 00 00 00 00 00 00 00 00 00 44 17 
7275.400 [RX] 09 03 A3 47 00 0F 96 D7 
7275.417 [RX] 09 03 1E 56 31 2D 54 47 5F 41 46 43 49 5F 56 31 2E 30 31 00 00 00 00 00 00 00 00 00 00 00 00 00 00 01 39 
7275.580 [RX] 09 03 9C 54 00 10 2A CE 
7275.610 [RX] 09 03 20 53 49 57 34 30 30 47 20 54 30 37 35 20 57 30 31 00 00 00 00 00 00 00 00 00 00 00 00 00 00 00 00 D9 3D 
7275.730 [RX] 09 03 9C 54 00 10 2A CE 
7275.753 [RX] 09 03 20 53 49 57 34 30 30 47 20 54 30 37 35 20 57 30 31 00 00 00 00 00 00 00 00 00 00 00 00 00 00 00 00 D9 3D 
7275.896 [RX] 09 03 9D 23 00 02 1B 25 
7275.921 [RX] 09 03 04 02 EE 02 58 12 E4 
7276.061 [RX] 07 03 9D 23 00 02 1A 0B 
7277.916 [RX] 07 03 9D 23 00 02 1A 0B 
7277.931 [RX] 07 03 04 02 EE 02 58 FD 24 
7278.036 [RX] 07 03 9D 23 00 02 1A 0B 
7278.048 [RX] 07 03 04 02 EE 02 58 FD 24 
7278.146 [RX] 07 03 9D 23 00 02 1A 0B 
7278.158 [RX] 07 03 04 02 EE 02 58 FD 24 
7278.276 [RX] 07 03 9D 23 00 02 1A 0B 
7278.300 [RX] 07 03 04 02 EE 02 58 FD 24 
7278.441 [RX] 00 10 A9 84 00 03 06 00 AA 00 00 03 E8 96 04 
7278.851 [RX] 00 10 A9 84 00 03 06 00 AA 00 00 03 E8 96 04 
7279.246 [RX] 00 10 A9 84 00 03 06 00 AA 00 00 03 E8 96 04 
7279.642 [RX] 00 10 A9 84 00 03 06 00 AA 00 00 03 E8 96 04 
7280.038 [RX] 00 10 A9 84 00 03 06 00 AA 00 00 03 E8 96 04 
7280.443 [RX] 00 10 A9 84 00 03 06 00 AA 00 00 03 E8 96 04 
7280.823 [RX] 00 10 A9 84 00 03 06 00 AA 00 00 03 E8 96 04 
7281.249 [RX] 00 10 A9 84 00 03 06 00 AA 00 00 03 E8 96 04 
7281.635 [RX] 00 10 A9 84 00 03 06 00 AA 00 00 03 E8 96 04 
7282.061 [RX] 00 10 A9 84 00 03 06 00 AA 00 00 03 E8 96 04 
7282.471 [RX] 00 10 A9 84 00 03 06 00 AA 00 00 03 E8 96 04 
7282.841 [RX] 00 10 A9 84 00 03 06 00 AA 00 00 03 E8 96 04 
7283.241 [RX] 00 10 A9 84 00 03 06 00 AA 00 00 03 E8 96 04 
7283.647 [RX] 00 10 A9 84 00 03 06 00 AA 00 00 03 E8 96 04 
7284.044 [RX] 00 10 A9 84 00 03 06 00 AA 00 00 03 E8 96 04 
7284.445 [RX] 00 10 A9 84 00 03 06 00 AA 00 00 03 E8 96 04 
7284.841 [RX] 00 10 A9 84 00 03 06 00 AA 00 00 03 E8 96 04 
7285.251 [RX] 00 10 A9 84 00 03 06 00 AA 00 00 03 E8 96 04 
7285.659 [RX] 00 10 A9 84 00 03 06 00 AA 00 00 03 E8 96 04 
7286.074 [RX] 00 10 A9 84 00 03 06 00 AA 00 00 03 E8 96 04 
7286.446 [RX] 00 10 A9 84 00 03 06 00 AA 00 00 03 E8 96 04 
7286.856 [RX] 00 10 A9 84 00 03 06 00 AA 00 00 03 E8 96 04 
7287.292 [RX] 00 10 A9 84 00 03 06 00 AA 00 00 03 E8 96 04 
7287.682 [RX] 00 10 A9 84 00 03 06 00 AA 00 00 03 E8 96 04 
7288.052 [RX] 00 10 A9 84 00 03 06 00 AA 00 00 03 E8 96 04 
7288.442 [RX] 00 10 A9 84 00 03 06 00 AA 00 00 03 E8 96 04 
7288.793 [RX] 08 03 A2 87 00 02 57 03 
7288.826 [RX] 08 03 04 00 00 00 00 63 33 
7288.933 [RX] 00 10 A9 84 00 03 06 00 AA 00 00 03 E8 96 04 
7288.978 [RX] 08 03 9C 8E 00 01 CA E8 
7288.994 [RX] 08 03 02 00 00 64 45 
7289.113 [RX] 08 03 A2 89 00 02 36 C0 
7289.128 [RX] 08 03 04 00 00 00 00 63 33 
7289.233 [RX] 08 03 9C 9B 00 01 DB 2C 
7289.246 [RX] 08 03 02 00 00 64 45 
7289.348 [RX] 00 10 A9 84 00 03 06 00 AA 00 00 03 E8 96 04 
7289.403 [RX] 08 03 9C 99 00 01 7A EC 
7289.439 [RX] 08 03 02 00 00 64 45 
7289.524 [RX] 08 03 9C 92 00 02 4B 2F 
7289.548 [RX] 08 03 04 00 00 00 00 63 33 
7289.654 [RX] 00 10 A9 84 00 03 06 00 AA 00 00 03 E8 96 04 
7289.739 [RX] 08 03 A2 97 00 02 56 C6 
7289.775 [RX] 08 03 04 7F FF FF FF 4B 67 
7289.869 [RX] 08 03 9C 9E 00 01 CB 2D 
7289.885 [RX] 08 03 02 00 00 64 45 
7290.001 [RX] 08 03 9C 9C 00 01 6A ED 
7290.027 [RX] 08 03 02 00 00 64 45 
7290.141 [RX] 00 10 A9 84 00 03 06 00 AA 00 00 03 E8 96 04 
7290.181 [RX] 08 03 9C 92 00 02 4B 2F 
7290.195 [RX] 08 03 04 00 00 00 00 63 33 
7290.312 [RX] 08 03 A2 99 00 02 37 05 
7290.338 [RX] 08 03 04 7F FF FF FF 4B 67 
7290.428 [RX] 08 03 9C A1 00 01 FB 21 
7290.447 [RX] 08 03 02 00 00 64 45 
7290.554 [RX] 00 10 A9 84 00 03 06 00 AA 00 00 03 E8 96 04 
7290.584 [RX] 08 03 9C 9F 00 01 9A ED 
7292.416 [RX] 00 10 A9 84 00 03 06 00 AA 00 00 03 E8 96 04 
7292.472 [RX] 00 10 A9 84 00 03 06 00 AA 00 00 03 E8 96 04 
7292.516 [RX] 00 10 A9 84 00 03 06 00 AA 00 00 03 E8 96 04 
7292.571 [RX] 00 10 A9 84 00 03 06 00 AA 00 00 03 E8 96 04 
7292.611 [RX] 00 10 A9 84 00 03 06 00 AA 00 00 03 E8 96 04 
7292.651 [RX] 08 03 9C 9F 00 01 9A ED 
7292.690 [RX] 08 03 02 00 00 64 45 
7292.792 [RX] 08 03 9C 92 00 02 4B 2F 
7292.824 [RX] 08 03 04 00 00 00 00 63 33 
7292.957 [RX] 00 10 A9 84 00 03 06 00 AA 00 00 03 E8 96 04 
7293.017 [RX] 08 03 A2 9B 00 02 96 C5 
7293.051 [RX] 08 03 04 7F FF FF FF 4B 67 
7293.187 [RX] 08 03 A0 73 00 02 17 49 
7293.220 [RX] 08 03 04 00 00 00 00 63 33 
7293.337 [RX] 00 10 A9 84 00 03 06 00 AA 00 00 03 E8 96 04 
7293.377 [RX] 08 03 A0 18 00 18 E7 5E 
7293.412 [RX] 08 03 30 22 CC 00 00 22 CC 00 00 22 C9 00 00 22 C9 00 00 21 32 00 00 21 32 00 00 1A 1E 00 00 1A 1E 00 00 1A 17 00 00 1A 17 00 00 18 44 00 00 18 44 00 00 B5 50 
7293.558 [RX] 08 03 A0 7B 00 03 57 4B 
7293.580 [RX] 08 03 06 01 4F 01 4E 01 A7 3E FB 
7293.688 [RX] 00 10 A9 84 00 03 06 00 AA 00 00 03 E8 96 04 
7293.743 [RX] 08 03 A0 02 00 02 47 52 
7293.782 [RX] 08 03 04 00 00 00 00 63 33 
7293.899 [RX] 08 03 A2 B6 00 02 06 CC 
7293.916 [RX] 08 03 04 00 00 00 6F 23 1F 
7294.144 [RX] 00 10 A9 84 00 03 06 00 AA 00 00 03 E8 96 04 
7294.465 [RX] 00 10 A9 84 00 03 06 00 AA 00 00 03 E8 96 04 
7294.581 [RX] 08 03 A0 00 00 01 A6 93 
7294.622 [RX] 08 03 02 55 00 5B 15 
7294.731 [RX] 08 03 A0 86 00 16 07 74 
7294.756 [RX] 08 03 2C 04 00 00 00 00 00 00 00 00 00 00 00 00 00 00 00 00 00 00 00 00 00 00 00 00 00 00 00 00 00 00 00 00 00 04 00 00 00 00 00 00 00 00 00 36 84 
7294.921 [RX] 00 10 A9 84 00 03 06 00 AA 00 00 03 E8 96 04 
7295.172 [RX] 08 03 A0 30 00 0C 67 59 
7295.210 [RX] 08 03 18 00 00 00 00 00 00 00 00 00 00 00 00 00 00 00 00 00 00 00 00 00 00 00 00 6D 21 
7295.336 [RX] 00 10 A9 84 00 03 06 00 AA 00 00 03 E8 96 04 
7295.421 [RX] 08 03 A0 3C 00 0C A7 5A 
7295.462 [RX] 08 03 18 00 00 00 00 00 00 00 00 00 00 00 00 00 00 00 00 00 01 00 00 00 01 00 00 2C 21 
7295.588 [RX] 08 03 9C 8F 00 02 DB 29 
7295.630 [RX] 08 03 04 00 00 00 00 63 33 
7295.738 [RX] 00 10 A9 84 00 03 06 00 AA 00 00 03 E8 96 04 
7295.808 [RX] 08 03 A0 0B 00 03 56 90 
7295.823 [RX] 08 03 06 00 00 22 C2 00 00 E0 A1 
7295.948 [RX] 08 03 A0 85 00 01 B7 7A 
7295.966 [RX] 08 03 02 00 00 64 45 
7296.114 [RX] 00 10 A9 84 00 03 06 00 AA 00 00 03 E8 96 04 
7296.474 [RX] 00 10 A9 84 00 03 06 00 AA 00 00 03 E8 96 04 
7296.884 [RX] 00 10 A9 84 00 03 06 00 AA 00 00 03 E8 96 04 
7297.259 [RX] 00 10 A9 84 00 03 06 00 AA 00 00 03 E8 96 04 
7297.655 [RX] 00 10 A9 84 00 03 06 00 AA 00 00 03 E8 96 04 
7298.065 [RX] 00 10 A9 84 00 03 06 00 AA 00 00 03 E8 96 04 
7298.500 [RX] 00 10 A9 84 00 03 06 00 AA 00 00 03 E8 96 04 
7298.876 [RX] 00 10 A9 84 00 03 06 00 AA 00 00 03 E8 96 04 
7299.286 [RX] 00 10 A9 84 00 03 06 00 AA 00 00 03 E8 96 04 
7299.666 [RX] 00 10 A9 84 00 03 06 00 AA 00 00 03 E8 96 04 
7300.071 [RX] 00 10 A9 84 00 03 06 00 AA 00 00 03 E8 96 04 
7300.470 [RX] 00 10 A9 84 00 03 06 00 AA 00 00 03 E8 96 04 
7300.877 [RX] 00 10 A9 84 00 03 06 00 AA 00 00 03 E8 96 04 
7301.279 [RX] 00 10 A9 84 00 03 06 00 AA 00 00 03 E8 96 04 
7301.690 [RX] 00 10 A9 84 00 03 06 00 AA 00 00 03 E8 96 04 
7302.059 [RX] 00 10 A9 84 00 03 06 00 AA 00 00 03 E8 96 04 
7302.519 [RX] 00 10 A9 84 00 03 06 00 AA 00 00 03 E8 96 04 
7302.895 [RX] 00 10 A9 84 00 03 06 00 AA 00 00 03 E8 96 04 
7303.302 [RX] 00 10 A9 84 00 03 06 00 AA 00 00 03 E8 96 04 
7303.693 [RX] 00 10 A9 84 00 03 06 00 AA 00 00 03 E8 96 04 
7304.085 [RX] 00 10 A9 84 00 03 06 00 AA 00 00 03 E8 96 04 
7304.491 [RX] 00 10 A9 84 00 03 06 00 AA 00 00 03 E8 96 04 
7304.888 [RX] 00 10 A9 84 00 03 06 00 AA 00 00 03 E8 96 04 
7305.275 [RX] 00 10 A9 84 00 03 06 00 AA 00 00 03 E8 96 04 
7305.697 [RX] 00 10 A9 84 00 03 06 00 AA 00 00 03 E8 96 04 
7306.117 [RX] 00 10 A9 84 00 03 06 00 AA 00 00 03 E8 96 04 
7306.517 [RX] 00 10 A9 84 00 03 06 00 AA 00 00 03 E8 96 04 
7306.953 [RX] 00 10 A9 84 00 03 06 00 AA 00 00 03 E8 96 04 
7307.268 [RX] 00 10 A9 84 00 03 06 00 AA 00 00 03 E8 96 04 
7307.701 [RX] 00 10 A9 84 00 03 06 00 AA 00 00 03 E8 96 04 
7308.136 [RX] 00 10 A9 84 00 03 06 00 AA 00 00 03 E8 96 04 
7308.491 [RX] 00 10 A9 84 00 03 06 00 AA 00 00 03 E8 96 04 
7308.782 [RX] 09 03 A2 87 00 02 56 D2 
7308.814 [RX] 09 03 04 00 00 00 00 73 F3 
7308.944 [RX] 00 10 A9 84 00 03 06 00 AA 00 00 03 E8 96 04 
7308.984 [RX] 09 03 9C 8E 00 01 CB 39 
7309.017 [RX] 09 03 02 00 00 59 85 
7309.159 [RX] 09 03 A2 89 00 02 37 11 
7309.185 [RX] 09 03 04 00 00 00 00 73 F3 
7309.295 [RX] 09 03 9C 9B 00 01 DA FD 
7309.318 [RX] 09 03 02 00 00 59 85 
7309.451 [RX] 00 10 A9 84 00 03 06 00 AA 00 00 03 E8 96 04 
7309.511 [RX] 09 03 9C 99 00 01 7B 3D 
7309.545 [RX] 09 03 02 00 00 59 85 
7309.636 [RX] 09 03 9C 92 00 02 4A FE 
7309.654 [RX] 09 03 04 00 00 00 00 73 F3 
7309.761 [RX] 00 10 A9 84 00 03 06 00 AA 00 00 03 E8 96 04 
7309.786 [RX] 09 03 A2 97 00 02 57 17 09 03 04 7F FF FF FF 5B A7 
7309.902 [RX] 09 03 9C 9E 00 01 CA FC 
7309.941 [RX] 09 03 02 00 00 59 85 
7310.037 [RX] 09 03 9C 9C 00 01 6B 3C 09 03 02 00 00 59 85 
7310.152 [RX] 00 10 A9 84 00 03 06 00 AA 00 00 03 E8 96 04 
7310.198 [RX] 09 03 9C 92 00 02 4A FE 
7310.217 [RX] 09 03 04 00 00 00 00 73 F3 
7310.370 [RX] 09 03 A2 99 00 02 36 D4 
7310.385 [RX] 09 03 04 7F FF FF FF 5B A7 
7310.540 [RX] 09 03 9C A1 00 01 FA F0 
7310.553 [RX] 09 03 02 00 00 59 85 
7310.691 [RX] 00 10 A9 84 00 03 06 00 AA 00 00 03 E8 96 04 
7310.731 [RX] 09 03 9C 9F 00 01 9B 3C 
7310.746 [RX] 09 03 02 00 00 59 85 
7310.857 [RX] 09 03 9C 92 00 02 4A FE 
7310.889 [RX] 09 03 04 00 00 00 00 73 F3 
7310.992 [RX] 00 10 A9 84 00 03 06 00 AA 00 00 03 E8 96 04 
7311.052 [RX] 09 03 A2 9B 00 02 97 14 
7311.082 [RX] 09 03 04 7F FF FF FF 5B A7 
7311.188 [RX] 09 03 A0 73 00 02 16 98 
7311.201 [RX] 09 03 04 00 00 00 00 73 F3 
7311.313 [RX] 00 10 A9 84 00 03 06 00 AA 00 00 03 E8 96 04 
7311.358 [RX] 09 03 A0 18 00 18 E6 8F 
7311.394 [RX] 09 03 30 22 B2 00 00 22 B2 00 00 22 CF 00 00 22 CF 00 00 21 2D 00 00 21 2D 00 00 1A 1D 00 00 1A 1D 00 00 1A 21 00 00 1A 21 00 00 18 53 00 00 18 53 00 00 8B B1 
7311.564 [RX] 09 03 A0 7B 00 03 56 9A 
7311.586 [RX] 09 03 06 01 46 01 47 01 9B 3F 79 
7311.686 [RX] 09 03 A0 02 00 02 46 83 
7311.705 [RX] 09 03 04 00 00 00 00 73 F3 
7311.821 [RX] 00 10 A9 84 00 03 06 00 AA 00 00 03 E8 96 04 
7311.876 [RX] 09 03 A2 B6 00 02 07 1D 
7311.897 [RX] 09 03 04 00 00 00 6B 32 1C 
7312.118 [RX] 00 10 A9 84 00 03 06 00 AA 00 00 03 E8 96 04 
7312.424 [RX] 09 03 A0 00 00 01 A7 42 
7312.461 [RX] 09 03 02 55 00 66 D5 
7312.624 [RX] 00 10 A9 84 00 03 06 00 AA 00 00 03 E8 96 04 
7312.669 [RX] 09 03 A0 86 00 16 06 A5 
7312.713 [RX] 09 03 2C 04 00 00 00 00 00 00 00 00 00 00 00 00 00 00 00 00 00 00 00 00 00 00 00 00 00 00 00 00 00 00 00 00 00 04 00 00 00 00 00 00 00 00 00 5B 28 
7312.919 [RX] 00 10 A9 84 00 03 06 00 AA 00 00 03 E8 96 04 
7313.104 [RX] 09 03 A0 30 00 0C 66 88 
7313.133 [RX] 09 03 18 00 00 00 00 00 00 00 00 00 00 00 00 00 00 00 00 00 00 00 00 00 00 00 00 93 A3 
7313.300 [RX] 09 03 A0 3C 00 0C A6 8B 
7313.325 [RX] 09 03 18 00 00 00 00 00 00 00 00 00 00 00 00 00 00 00 00 00 01 00 00 00 01 00 00 D2 A3 
7313.455 [RX] 00 10 A9 84 00 03 06 00 AA 00 00 03 E8 96 04 
7313.515 [RX] 09 03 9C 8F 00 02 DA F8 
7313.553 [RX] 09 03 04 00 00 00 00 73 F3 
7313.702 [RX] 09 03 A0 0B 00 03 57 41 
7313.721 [RX] 09 03 06 00 00 22 CD 00 00 DD 32 
7313.832 [RX] 00 10 A9 84 00 03 06 00 AA 00 00 03 E8 96 04 
7313.872 [RX] 09 03 A0 85 00 01 B6 AB 
7313.889 [RX] 09 03 02 00 00 59 85 
7314.133 [RX] 00 10 A9 84 00 03 06 00 AA 00 00 03 E8 96 04 
7314.520 [RX] 00 10 A9 84 00 03 06 00 AA 00 00 03 E8 96 04 
7314.926 [RX] 00 10 A9 84 00 03 06 00 AA 00 00 03 E8 96 04 
7315.317 [RX] 00 10 A9 84 00 03 06 00 AA 00 00 03 E8 96 04 
7315.717 [RX] 00 10 A9 84 00 03 06 00 AA 00 00 03 E8 96 04 
7316.128 [RX] 00 10 A9 84 00 03 06 00 AA 00 00 03 E8 96 04 
7316.529 [RX] 00 10 A9 84 00 03 06 00 AA 00 00 03 E8 96 04 
7316.919 [RX] 00 10 A9 84 00 03 06 00 AA 00 00 03 E8 96 04 
7317.374 [RX] 00 10 A9 84 00 03 06 00 AA 00 00 03 E8 96 04 
7317.729 [RX] 00 10 A9 84 00 03 06 00 AA 00 00 03 E8 96 04 
7318.105 [RX] 00 10 A9 84 00 03 06 00 AA 00 00 03 E8 96 04 
7318.521 [RX] 00 10 A9 84 00 03 06 00 AA 00 00 03 E8 96 04 
7318.947 [RX] 00 10 A9 84 00 03 06 00 AA 00 00 03 E8 96 04 
7319.314 [RX] 00 10 A9 84 00 03 06 00 AA 00 00 03 E8 96 04 
7319.704 [RX] 00 10 A9 84 00 03 06 00 AA 00 00 03 E8 96 04 
7320.157 [RX] 00 10 A9 84 00 03 06 00 AA 00 00 03 E8 96 04 
7320.574 [RX] 00 10 A9 84 00 03 06 00 AA 00 00 03 E8 96 04 
7320.900 [RX] 00 10 A9 84 00 03 06 00 AA 00 00 03 E8 96 04 
7321.316 [RX] 00 10 A9 84 00 03 06 00 AA 00 00 03 E8 96 04 
7321.728 [RX] 00 10 A9 84 00 03 06 00 AA 00 00 03 E8 96 04 
7322.116 [RX] 00 10 A9 84 00 03 06 00 AA 00 00 03 E8 96 04 
7322.522 [RX] 00 10 A9 84 00 03 06 00 AA 00 00 03 E8 96 04 
7323.019 [RX] 00 10 A9 84 00 03 06 00 AA 00 00 03 E8 96 04 
7323.325 [RX] 00 10 A9 84 00 03 06 00 AA 00 00 03 E8 96 04 
7323.721 [RX] 00 10 A9 84 00 03 06 00 AA 00 00 03 E8 96 04 
7324.147 [RX] 00 10 A9 84 00 03 06 00 AA 00 00 03 E8 96 04 
7324.521 [RX] 00 10 A9 84 00 03 06 00 AA 00 00 03 E8 96 04 
7324.932 [RX] 00 10 A9 84 00 03 06 00 AA 00 00 03 E8 96 04 
7325.367 [RX] 00 10 A9 84 00 03 06 00 AA 00 00 03 E8 96 04 
7325.712 [RX] 00 10 A9 84 00 03 06 00 AA 00 00 03 E8 96 04 
7326.208 [RX] 00 10 A9 84 00 03 06 00 AA 00 00 03 E8 96 04 
7326.524 [RX] 00 10 A9 84 00 03 06 00 AA 00 00 03 E8 96 04 
7326.905 [RX] 00 10 A9 84 00 03 06 00 AA 00 00 03 E8 96 04 
7327.330 [RX] 00 10 A9 84 00 03 06 00 AA 00 00 03 E8 96 04 
7327.746 [RX] 00 10 A9 84 00 03 06 00 AA 00 00 03 E8 96 04 
7328.117 [RX] 00 10 A9 84 00 03 06 00 AA 00 00 03 E8 96 04 
7328.539 [RX] 00 10 A9 84 00 03 06 00 AA 00 00 03 E8 96 04 
7328.947 [RX] 00 10 A9 84 00 03 06 00 AA 00 00 03 E8 96 04 
7329.373 [RX] 00 10 A9 84 00 03 06 00 AA 00 00 03 E8 96 04 
7329.753 [RX] 00 10 A9 84 00 03 06 00 AA 00 00 03 E8 96 04 
7330.465 [RX] 00 10 A9 84 00 03 06 00 AA 00 00 03 E8 96 04 
7330.610 [RX] 00 10 A9 84 00 03 06 00 AA 00 00 03 E8 96 04 
7331.035 [RX] 00 10 A9 84 00 03 06 00 AA 00 00 03 E8 96 04 
7331.411 [RX] 00 10 A9 84 00 03 06 00 AA 00 00 03 E8 96 04 
7331.813 [RX] 00 10 A9 84 00 03 06 00 AA 00 00 03 E8 96 04 
7332.234 [RX] 00 10 A9 84 00 03 06 00 AA 00 00 03 E8 96 04 
7332.655 [RX] 00 10 A9 84 00 03 06 00 AA 00 00 03 E8 96 04 
7333.037 [RX] 00 10 A9 84 00 03 06 00 AA 00 00 03 E8 96 04 
7333.463 [RX] 00 10 A9 84 00 03 06 00 AA 00 00 03 E8 96 04 
7333.825 [RX] 00 10 A9 84 00 03 06 00 AA 00 00 03 E8 96 04 
7334.236 [RX] 00 10 A9 84 00 03 06 00 AA 00 00 03 E8 96 04 
7334.626 [RX] 00 10 A9 84 00 03 06 00 AA 00 00 03 E8 96 04 
7335.013 [RX] 00 10 A9 84 00 03 06 00 AA 00 00 03 E8 96 04 
7335.429 [RX] 00 10 A9 84 00 03 06 00 AA 00 00 03 E8 96 04 
7335.835 [RX] 00 10 A9 84 00 03 06 00 AA 00 00 03 E8 96 04 
7336.231 [RX] 00 10 A9 84 00 03 06 00 AA 00 00 03 E8 96 04 
7336.689 [RX] 00 10 A9 84 00 03 06 00 AA 00 00 03 E8 96 04 
7337.019 [RX] 00 10 A9 84 00 03 06 00 AA 00 00 03 E8 96 04 
7337.454 [RX] 00 10 A9 84 00 03 06 00 AA 00 00 03 E8 96 04 
7337.964 [RX] 00 10 A9 84 00 03 06 00 AA 00 00 03 E8 96 04 
7338.245 [RX] 00 10 A9 84 00 03 06 00 AA 00 00 03 E8 96 04 
7338.637 [RX] 00 10 A9 84 00 03 06 00 AA 00 00 03 E8 96 04 
7339.089 [RX] 00 10 A9 84 00 03 06 00 AA 00 00 03 E8 96 04 
7339.445 [RX] 00 10 A9 84 00 03 06 00 AA 00 00 03 E8 96 04 
7339.835 [RX] 00 10 A9 84 00 03 06 00 AA 00 00 03 E8 96 04 
7340.282 [RX] 00 10 A9 84 00 03 06 00 AA 00 00 03 E8 96 04 
7340.644 [RX] 00 10 A9 84 00 03 06 00 AA 00 00 03 E8 96 04 
7341.035 [RX] 00 10 A9 84 00 03 06 00 AA 00 00 03 E8 96 04 
7341.441 [RX] 00 10 A9 84 00 03 06 00 AA 00 00 03 E8 96 04 
7341.852 [RX] 00 10 A9 84 00 03 06 00 AA 00 00 03 E8 96 04 
7342.232 [RX] 00 10 A9 84 00 03 06 00 AA 00 00 03 E8 96 04 
7342.642 [RX] 00 10 A9 84 00 03 06 00 AA 00 00 03 E8 96 04 
7343.053 [RX] 00 10 A9 84 00 03 06 00 AA 00 00 03 E8 96 04 
7343.460 [RX] 00 10 A9 84 00 03 06 00 AA 00 00 03 E8 96 04 
7343.852 [RX] 00 10 A9 84 00 03 06 00 AA 00 00 03 E8 96 04 
7344.245 [RX] 00 10 A9 84 00 03 06 00 AA 00 00 03 E8 96 04 
7344.671 [RX] 00 10 A9 84 00 03 06 00 AA 00 00 03 E8 96 04 
7345.047 [RX] 00 10 A9 84 00 03 06 00 AA 00 00 03 E8 96 04 
7345.449 [RX] 00 10 A9 84 00 03 06 00 AA 00 00 03 E8 96 04 
7345.845 [RX] 00 10 A9 84 00 03 06 00 AA 00 00 03 E8 96 04 
7346.251 [RX] 00 10 A9 84 00 03 06 00 AA 00 00 03 E8 96 04 
7346.657 [RX] 00 10 A9 84 00 03 06 00 AA 00 00 03 E8 96 04 
7347.049 [RX] 00 10 A9 84 00 03 06 00 AA 00 00 03 E8 96 04 
7347.455 [RX] 00 10 A9 84 00 03 06 00 AA 00 00 03 E8 96 04 
7347.843 [RX] 00 10 A9 84 00 03 06 00 AA 00 00 03 E8 96 04 
7348.229 [RX] 00 10 A9 84 00 03 06 00 AA 00 00 03 E8 96 04 
7348.675 [RX] 00 10 A9 84 00 03 06 00 AA 00 00 03 E8 96 04 
7349.045 [RX] 00 10 A9 84 00 03 06 00 AA 00 00 03 E8 96 04 
7349.436 [RX] 00 10 A9 84 00 03 06 00 AA 00 00 03 E8 96 04 
7349.686 [RX] 07 03 A2 87 00 02 57 FC 
7349.700 [RX] 07 03 04 00 00 00 00 9C 33 
7349.816 [RX] 07 03 9C 8E 00 01 CA 17 
7349.833 [RX] 07 03 02 00 00 30 44 
7349.942 [RX] 00 10 A9 84 00 03 06 00 AA 00 00 03 E8 96 04 
7349.997 [RX] 07 03 A2 89 00 02 36 3F 
7350.036 [RX] 07 03 04 00 00 00 00 9C 33 
7350.172 [RX] 07 03 9C 9B 00 01 DB D3 
7350.204 [RX] 07 03 02 00 00 30 44 
7350.297 [RX] 00 10 A9 84 00 03 06 00 AA 00 00 03 E8 96 04 
7350.337 [RX] 07 03 9C 99 00 01 7A 13 
7350.372 [RX] 07 03 02 00 00 30 44 
7350.482 [RX] 07 03 9C 92 00 02 4B D0 
7350.505 [RX] 07 03 04 00 00 00 00 9C 33 
7350.617 [RX] 07 03 A2 97 00 02 56 39 
7350.648 [RX] 07 03 04 7F FF FF FF B4 67 
7350.748 [RX] 00 10 A9 84 00 03 06 00 AA 00 00 03 E8 96 04 
7350.793 [RX] 07 03 9C 9E 00 01 CB D2 
7350.817 [RX] 07 03 02 00 00 30 44 
7350.903 [RX] 07 03 9C 9C 00 01 6A 12 
7350.925 [RX] 07 03 02 00 00 30 44 
7351.019 [RX] 07 03 9C 92 00 02 4B D0 
7351.044 [RX] 07 03 04 00 00 00 00 9C 33 
7351.159 [RX] 00 10 A9 84 00 03 06 00 AA 00 00 03 E8 96 04 
7351.204 [RX] 07 03 A2 99 00 02 37 FA 
7353.030 [RX] 00 10 A9 84 00 03 06 00 AA 00 00 03 E8 96 04 
7353.085 [RX] 00 10 A9 84 00 03 06 00 AA 00 00 03 E8 96 04 
7353.125 [RX] 00 10 A9 84 00 03 06 00 AA 00 00 03 E8 96 04 
7353.180 [RX] 00 10 A9 84 00 03 06 00 AA 00 00 03 E8 96 04 
7353.236 [RX] 00 10 A9 84 00 03 06 00 AA 00 00 03 E8 96 04 
7353.286 [RX] 07 03 A2 99 00 02 37 FA 
7353.312 [RX] 07 03 04 7F FF FF FF B4 67 
7353.406 [RX] 07 03 9C A1 00 01 FB DE 
7353.420 [RX] 07 03 02 00 00 30 44 
7353.502 [RX] 00 10 A9 84 00 03 06 00 AA 00 00 03 E8 96 04 
7353.547 [RX] 07 03 9C 9F 00 01 9A 12 
7353.564 [RX] 07 03 02 00 00 30 44 
7353.662 [RX] 07 03 9C 92 00 02 4B D0 
7353.697 [RX] 07 03 04 00 00 00 00 9C 33 
7353.803 [RX] 07 03 A2 9B 00 02 96 3A 
7353.816 [RX] 07 03 04 7F FF FF FF B4 67 
7353.948 [RX] 00 10 A9 84 00 03 06 00 AA 00 00 03 E8 96 04 
7353.988 [RX] 07 03 A0 73 00 02 17 B6 
7354.008 [RX] 07 03 04 00 00 00 00 9C 33 
7354.178 [RX] 07 03 A0 18 00 18 E7 A1 
7354.201 [RX] 07 03 30 22 F7 00 00 22 F7 00 00 21 45 00 00 21 45 00 00 21 3D 00 00 21 3D 00 00 1A 2F 00 00 1A 2F 00 00 1A 3E 00 00 1A 3E 00 00 18 6D 00 00 18 6D 00 00 36 20 
7354.388 [RX] 00 10 A9 84 00 03 06 00 AA 00 00 03 E8 96 04 
7354.453 [RX] 07 03 A0 7B 00 03 57 B4 
7354.488 [RX] 07 03 06 01 4C 01 4D 01 A6 0A CB 
7354.588 [RX] 07 03 A0 02 00 02 47 AD 
7354.621 [RX] 07 03 04 00 00 00 00 9C 33 
7354.738 [RX] 00 10 A9 84 00 03 06 00 AA FF E8 03 E8 26 24 
7354.783 [RX] 07 03 A2 B6 00 02 06 33 
7354.824 [RX] 07 03 04 00 00 00 72 1C 16 
7355.343 [RX] 07 03 A0 00 00 01 A6 6C 
7355.377 [RX] 07 03 02 55 00 0F 14 
7355.473 [RX] 07 03 A0 86 00 16 07 8B 
7355.496 [RX] 07 03 2C 04 00 00 00 00 00 00 00 00 00 00 00 00 00 00 00 00 00 00 00 00 00 00 00 00 00 00 00 00 00 00 00 00 00 04 00 00 00 00 00 00 00 00 00 54 62 
7355.839 [RX] 07 03 A0 30 00 0C 67 A6 
7355.856 [RX] 07 03 18 00 00 00 00 00 00 00 00 00 00 00 00 00 00 00 00 00 00 00 00 00 00 00 00 6D 3A 
7356.019 [RX] 07 03 A0 3C 00 0C A7 A5 
7356.049 [RX] 07 03 18 00 00 00 00 00 00 00 00 00 00 00 00 00 00 00 00 00 01 00 00 00 01 00 00 2C 3A 
7356.179 [RX] 07 03 9C 8F 00 02 DB D6 
7356.192 [RX] 07 03 04 00 00 00 00 9C 33 
7356.305 [RX] 00 10 A9 84 00 03 06 00 AA FF 1E 03 E8 C6 16 
7356.461 [RX] 07 03 A0 0B 00 03 56 6F 
7356.504 [RX] 07 03 06 00 00 22 F5 00 00 10 9F 
7356.622 [RX] 07 03 A0 85 00 01 B7 85 
7356.637 [RX] 07 03 02 00 00 30 44 
7357.868 [RX] 00 10 A9 84 00 03 06 00 AA FE FD 03 E8 36 1C 
7359.527 [RX] 00 10 A9 84 00 03 06 00 AA FF 01 03 E8 F7 D0 
7361.089 [RX] 00 10 A9 84 00 03 06 00 AA FF 0B 03 E8 D7 D2 
7362.700 [RX] 00 10 A9 84 00 03 06 00 AA FE A5 03 E8 B7 CF 
7364.274 [RX] 00 10 A9 84 00 03 06 00 AA FE AD 03 E8 36 0D 
7365.871 [RX] 00 10 A9 84 00 03 06 00 AA FE C2 03 E8 06 10 
7367.494 [RX] 00 10 A9 84 00 03 06 00 AA FE DF 03 E8 96 16 
7369.094 [RX] 00 10 A9 84 00 03 06 00 AA FF 01 03 E8 F7 D0 
7369.686 [RX] 08 03 A2 87 00 02 57 03 
