28.240 [RX] 01 03 15 0A 00 1A E0 0F 
28.255 [RX] 01 03 34 43 5A 4C CD 43 5A 19 9A 43 5A 80 00 42 FC 99 9A 42 FB 99 9A 42 FC 33 33 43 46 00 00 43 2B 00 00 43 24 99 9A 42 8! B8 52 41 C1 70 A4 41 A5 99 9A 41 9F D7 0A 5F DD 
28.539 [RX] 01 03 20 44 00 02 8F DE 
28.555 [RX] 01 03 04 45 BB 68 00 B0 DA 
28.744 [RX] 01 03 15 0A 00 1A E0 0F 
28.758 [RX] 01 03 34 43 5A 4C CD 43 5A 19 9A 43 5A 80 00 42 FC 99 9A 42 FB 99 9A 42 FC 33 33 43 46 00 00 43 2B 00 00 43 24 99 9A 42 81 00 00 41 C0 00 00 41 A5 1E B8 41 9E 8F 5C E0 29 
29.039 [RX] 01 03 18 1E 00 10 22 A0 
29.056 [RX] 01 03 20 47 C7 E9 00 47 0A 7E 78 46 F9 40 A0 47 08 B3 38 47 C7 CA 40 45 28 1C 80 44 53 BC 00 44 63 8E 00 CD 18 
29.248 [RX] 01 03 15 0A 00 1A E0 0F 
29.265 [RX] 01 03 34 43 5A 4C CD 43 5A 4C CD 43 5A B3 33 42 FC 99 9A 42 FB 99 9A 42 FC 99 9A 43 44 99 9A 43 2A 99 9A 43 23 66 66 42 80 D7 0A 41 C0 00 00 41 A4 7A E1 41 9E 8F 5C 4C C6 
29.542 [RX] 01 03 20 44 00 02 8F DE 
29.559 [RX] 01 03 04 45 BB 68 00 B0 DA 
29.844 [RX] 01 03 00 2B 00 01 F4 02 
29.861 [RX] 01 03 02 53 48 84 82 
30.046 [RX] 01 03 15 0A 00 1A E0 0F 
30.061 [RX] 01 03 34 43 5A 66 66 43 5A 4C CD 43 5A CC CD 42 FC CC CD 42 FB 99 9A 42 FC 99 9A 43 43 00 00 43 29 99 9A 43 22 33 33 42 80 B8 52 41 BF 33 33 41 A5 1E B8 41 9E 66 66 23 22 
30.340 [RX] 01 03 18 1E 00 10 22 A0 
30.358 [RX] 01 03 20 47 C7 E9 04 47 0A 7E 78 46 F9 40 B1 47 08 B3 38 47 C7 CA 44 45 28 1C 80 44 53 BC 00 44 63 8E 00 C1 DB 
30.550 [RX] 01 03 15 0A 00 1A E0 0F 
30.566 [RX] 01 03 34 43 5A 66 66 43 5A 4C CD 43 5A CC CD 42 FC CC CD 42 FB 99 9A 42 FC 99 9A 43 43 00 00 43 29 99 9A 43 22 33 33 42 81 A3 D7 41 BE B8 52 41 A3 AE 14 41 A3 D7 0A D4 07 
30.849 [RX] 01 03 20 44 00 02 8F DE 
30.863 [RX] 01 03 04 45 BB 70 00 BA DA 
31.139 [RX] 01 03 15 0A 00 1A E0 0F 
31.216 [RX] 01 03 34 43 5A 66 66 43 5A 4C CD 43 5A B3 33 42 FC CC CD 42 FB CC CD 42 FC 66 66 43 43 00 00 43 29 33 33 43 28 66 66 42 81 47 AE 41 BE 3D 71 41 A4 00 00 41 A2 B8 52 12 37 
31.353 [RX] 01 03 18 1E 00 10 22 A0 
31.371 [RX] 01 03 20 47 C7 E9 08 47 0A 7E 78 46 F9 40 B1 47 08 B3 40 47 C7 CA 48 45 28 1C 80 44 53 BC 00 44 63 8E 00 72 07 
31.642 [RX] 01 03 15 0A 00 1A E0 0F 
31.657 [RX] 01 03 34 43 5A 66 66 43 5A 66 66 43 5A CC CD 42 FC CC CD 42 FB CC CD 42 FC 99 9A 43 43 33 33 43 29 CC CD 43 27 99 9A 42 81 7A E1 41 BE 8F 5C 41 A4 51 EC 41 A2 E1 48 0A 26 
31.856 [RX] 01 03 20 44 00 02 8F DE 
31.871 [RX] 01 03 04 45 BB 70 00 BA DA 
32.146 [RX] 01 03 15 0A 00 1A E0 0F 
32.163 [RX] 01 03 34 43 5A 66 66 43 5A 4C CD 43 5A B3 33 42 FC CC CD 42 FB CC CD 42 FC 66 66 43 43 00 00 43 2A 00 00 43 27 00 00 42 82 47 AE 41 BF AE 14 41 A5 99 9A 41 A3 85 1F 90 80 
32.356 [RX] 01 03 00 2B 00 01 F4 02 
32.371 [RX] 01 03 02 53 48 84 82 
32.545 [RX] 01 03 18 1E 00 10 22 A0 
32.583 [RX] 01 03 20 47 C7 E9 0C 47 0A 7E 80 46 F9 40 B1 47 08 B3 40 47 C7 CA 48 45 28 1C 80 44 53 BC 00 44 63 8E 00 DE 8A 
32.839 [RX] 01 03 15 0A 00 1A E0 0F 
32.856 [RX] 01 03 34 43 5A 66 66 43 5A 66 66 43 5A CC CD 42 FC CC CD 42 FB CC CD 42 FC 99 9A 43 43 99 9A 43 2B 00 00 43 27 66 66 42 82 E1 48 41 C0 A3 D7 41 A6 3D 71 41 A4 7A E1 D8 E4 
33.049 [RX] 01 03 20 44 00 02 8F DE 
33.063 [RX] 01 03 04 45 BB 70 00 BA DA 
33.349 [RX] 01 03 15 0A 00 1A E0 0F 
33.367 [RX] 01 03 34 43 5A 66 66 43 5A 66 66 43 5A CC CD 42 FC CC CD 42 FB CC CD 42 FC 99 9A 43 45 33 33 43 2B CC CD 43 28 CC CD 42 82 85 1F 41 C0 7A E1 41 A5 70 A4 41 A4 00 00 18 4C 
33.639 [RX] 01 03 18 1E 00 10 22 A0 
33.656 [RX] 01 03 20 47 C7 E9 0C 47 0A 7E 80 46 F9 40 B1 47 08 B3 40 47 C7 CA 4C 45 28 1C 80 44 53 BC 00 44 63 8E 00 D0 0E 
33.852 [RX] 01 03 15 0A 00 1A E0 0F 
33.870 [RX] 01 03 34 43 5A 4C CD 43 5A 19 9A 43 5A 80 00 42 FC 99 9A 42 FB 99 9A 42 FC 33 33 43 43 CC CD 43 2A 00 00 43 27 66 66 42 81 85 1F 41 BF 0A 3D 41 A4 51 EC 41 A2 8F 5C 9D C6 
34.141 [RX] 01 03 20 44 00 02 8F DE 
34.156 [RX] 01 03 04 45 BB 70 00 BA DA 
34.356 [RX] 01 03 15 0A 00 1A E0 0F 
34.371 [RX] 01 03 34 43 5A 66 66 43 5A 33 33 43 5A B3 33 42 FC CC CD 42 FB 99 9A 42 FC 66 66 43 44 33 33 43 2B 99 9A 43 27 CC CD 42 82 47 AE 41 BF AE 14 41 A5 EB 85 41 A3 33 33 ED AC 
34.645 [RX] 01 03 18 1E 00 10 22 A0 
34.680 [RX] 01 03 20 47 C7 E9 0C 47 0A 7E 80 46 F9 40 B1 47 08 B3 40 47 C7 CA 4F 45 28 1C 80 44 53 BC 00 44 63 8E 00 D5 CD 
34.856 [RX] 01 03 00 2B 00 01 F4 02 
34.871 [RX] 01 03 02 53 48 84 82 
35.044 [RX] 01 03 15 0A 00 1A E0 0F 
35.060 [RX] 01 03 34 43 5A 4C CD 43 5A 19 9A 43 5A 80 00 42 FC 99 9A 42 FB 99 9A 42 FC 33 33 43 44 33 33 43 2A 66 66 43 23 99 9A 42 81 0A 3D 41 C0 00 00 41 A5 1E B8 41 9E E1 48 28 2C 
35.344 [RX] 01 03 20 44 00 02 8F DE 
35.382 [RX] 01 03 04 45 BB 70 00 BA DA 
35.739 [RX] 01 03 15 0A 00 1A E0 0F 
35.756 [RX] 01 03 34 43 5A 66 66 43 5A 33 33 43 5A 99 9A 42 FC CC CD 42 FB CC CD 42 FC 33 33 43 43 99 9A 43 29 CC CD 43 28 99 9A 42 82 EB 85 41 BF AE 14 41 A5 1E B8 41 A6 E1 48 37 55 
35.947 [RX] 01 03 18 1E 00 10 22 A0 
35.966 [RX] 01 03 20 47 C7 E9 0F 47 0A 7E 80 46 F9 40 C0 47 08 B3 40 47 C7 CA 4F 45 28 1C 80 44 53 BC 00 44 63 8E 00 FE 29 
36.241 [RX] 01 03 15 0A 00 1A E0 0F 
36.259 [RX] 01 03 34 43 5A 19 9A 43 59 E6 66 43 5A 33 33 42 FC 33 33 42 FB 99 9A 42 FB CC CD 43 45 00 00 43 2A 66 66 43 2B 33 33 42 83 0A 3D 41 C0 00 00 41 A5 1E B8 41 A6 E1 48 E2 B0 
36.451 [RX] 01 03 20 44 00 02 8F DE 
36.469 [RX] 01 03 04 45 BB 78 00 BD 1A 
36.745 [RX] 01 03 15 0A 00 1A E0 0F 
36.782 [RX] 01 03 34 43 5A 4C CD 43 5A 19 9A 43 5A 80 00 42 FC 99 9A 42 FB 99 9A 42 FC 33 33 43 44 CC CD 43 2B 33 33 43 2C 00 00 42 83 33 33 41 C0 51 EC 41 A5 47 AE 41 A7 0A 3D 80 66 
37.039 [RX] 01 03 18 1E 00 10 22 A0 
37.056 [RX] 01 03 20 47 C7 E9 14 47 0A 7E 80 46 F9 40 C0 47 08 B3 48 47 C7 CA 54 45 28 1C 80 44 53 BC 00 44 63 8E 00 1D E0 
37.249 [RX] 01 03 15 0A 00 1A E0 0F 
37.267 [RX] 01 03 34 43 5A 66 66 43 5A 33 33 43 5A 99 9A 42 FC CC CD 42 FB CC CD 42 FC 33 33 43 45 99 9A 43 2B CC CD 43 2C 66 66 42 83 99 9A 41 C0 CC CD 41 A5 C2 8F 41 A7 D7 0A A9 D6 
37.356 [RX] 01 03 00 2B 00 01 F4 02 
37.374 [RX] 01 03 02 53 48 84 82 
37.648 [RX] 01 03 20 44 00 02 8F DE 
37.662 [RX] 01 03 04 45 BB 80 00 FE DA 
38.048 [RX] 01 03 15 0A 00 1A E0 0F 
38.065 [RX] 01 03 34 43 5A 66 66 43 5A 33 33 43 5A 99 9A 42 FC CC CD 42 FB CC CD 42 FC 33 33 43 43 99 9A 43 2B 33 33 43 28 99 9A 42 81 51 EC 41 BE 3D 71 41 A4 A3 D7 41 A2 3D 71 E2 CF 
38.341 [RX] 01 03 18 1E 00 10 22 A0 
38.360 [RX] 01 03 20 47 C7 E9 18 47 0A 7E 88 46 F9 40 C0 47 08 B3 48 47 C7 CA 58 45 28 1C 80 44 53 BC 00 44 63 8E 00 A6 6F 
38.550 [RX] 01 03 15 0A 00 1A E0 0F 
38.569 [RX] 01 03 34 43 5A 66 66 43 5A 4C CD 43 5A B3 33 42 FC CC CD 42 FB CC CD 42 FC 66 66 43 41 CC CD 43 2A 33 33 43 25 00 00 42 80 F5 C3 41 BD C2 8F 41 A4 7A E1 41 A1 70 A4 23 3F 
38.850 [RX] 01 03 20 44 00 02 8F DE 
38.865 [RX] 01 03 04 45 BB 80 00 FE DA 
39.139 [RX] 01 03 15 0A 00 1A E0 0F 
39.153 [RX] 01 03 34 43 5A 4C CD 43 5A 19 9A 43 5A 80 00 42 FC 99 9A 42 FB 99 9A 42 FC 33 33 43 42 00 00 43 29 99 9A 43 23 33 33 42 80 47 AE 41 BE 14 7B 41 A4 7A E1 41 9E 8F 5C A6 C1 
39.354 [RX] 01 03 18 1E 00 10 22 A0 
39.371 [RX] 01 03 20 47 C7 E9 18 47 0A 7E 88 46 F9 40 C0 47 08 B3 48 47 C7 CA 58 45 28 1C 80 44 53 BC 00 44 63 8E 00 A6 6F 
39.643 [RX] 01 03 15 0A 00 1A E0 0F 
39.659 [RX] 01 03 34 43 5A 4C CD 43 5A 19 9A 43 5A 80 00 42 FC 99 9A 42 FB 99 9A 42 FC 33 33 43 41 66 66 43 29 66 66 43 23 00 00 42 7F C2 8F 41 BD 47 AE 41 A3 D7 0A 41 9E 3D 71 58 0F 
39.856 [RX] 01 03 00 2B 00 01 F4 02 
39.873 [RX] 01 03 02 53 48 84 82 
40.042 [RX] 01 03 20 44 00 02 8F DE 
40.059 [RX] 01 03 04 45 BB 80 00 FE DA 
40.344 [RX] 01 03 15 0A 00 1A E0 0F 
40.362 [RX] 01 03 34 43 5A 4C CD 43 5A 19 9A 43 5A 80 00 42 FC 99 9A 42 FB 99 9A 42 FC 33 33 43 42 99 9A 43 2A 33 33 43 25 00 00 42 80 CC CD 41 BD EB 85 41 A3 D7 0A 41 A1 1E B8 5D 24 
40.651 [RX] 01 03 18 1E 00 10 22 A0 
40.670 [RX] 01 03 20 47 C7 E9 1C 47 0A 7E 88 46 F9 40 CF 47 08 B3 48 47 C7 CA 5C 45 28 1C 80 44 53 BC 00 44 63 8E 00 57 13 
40.945 [RX] 01 03 15 0A 00 1A E0 0F 
40.963 [RX] 01 03 34 43 5A 4C CD 43 5A 19 9A 43 5A 80 00 42 FC 99 9A 42 FB 99 9A 42 FC 33 33 43 43 66 66 43 2A 00 00 43 27 00 00 42 81 AE 14 41 BF 5C 29 41 A4 F5 C3 41 A2 3D 71 14 CD 
41.239 [RX] 01 03 20 44 00 02 8F DE 
41.255 [RX] 01 03 04 45 BB 80 00 FE DA 
41.539 [RX] 01 03 15 0A 00 1A E0 0F 
41.555 [RX] 01 03 34 43 5A 66 66 43 5A 33 33 43 5A B3 33 42 FC CC CD 42 FB 99 9A 42 FC 66 66 43 44 00 00 43 2B 99 9A 43 25 33 33 42 80 EB 85 41 BE B8 52 41 A5 70 A4 41 9F 5C 29 78 9C 
41.743 [RX] 01 03 18 1E 00 10 22 A0 
41.757 [RX] 01 03 20 47 C7 E9 1C 47 0A 7E 88 46 F9 40 CF 47 08 B3 48 47 C7 CA 60 45 28 1C 80 44 53 BC 00 44 63 8E 00 07 2F 
42.039 [RX] 01 03 15 0A 00 1A E0 0F 
42.057 [RX] 01 03 34 43 5A 4C CD 43 5A 19 9A 43 5A 80 00 42 FC 99 9A 42 FB 99 9A 42 FC 33 33 43 42 66 66 43 2A 00 00 43 23 00 00 42 80 3D 71 41 BD EB 85 41 A4 7A E1 41 9E 66 66 88 31 
42.247 [RX] 01 03 20 44 00 02 8F DE 
42.261 [RX] 01 03 04 45 BB 80 00 FE DA 
42.541 [RX] 01 03 00 2B 00 01 F4 02 
42.554 [RX] 01 03 02 53 48 84 82 
42.646 [RX] 01 03 15 0A 00 1A E0 0F 
42.662 [RX] 01 03 34 43 5A 4C CD 43 5A 19 9A 43 5A 80 00 42 FC 99 9A 42 FB 99 9A 42 FC 33 33 43 42 00 00 43 2A 00 00 43 23 00 00 42 80 47 AE 41 BD 99 9A 41 A4 F5 C3 41 9E 8F 5C B4 56 
42.856 [RX] 01 03 18 1E 00 10 22 A0 
42.871 [RX] 01 03 20 47 C7 E9 24 47 0A 7E 90 46 F9 40 CF 47 08 B3 50 47 C7 CA 60 45 28 1C 80 44 53 BC 00 44 63 8E 00 73 DD 
43.150 [RX] 01 03 15 0A 00 1A E0 0F 
43.167 [RX] 01 03 34 43 5A 4C CD 43 5A 19 9A 43 5A 80 00 42 FC 99 9A 42 FB 99 9A 42 FC 33 33 43 42 00 00 43 2A 00 00 43 23 00 00 42 80 3D 71 41 BD 99 9A 41 A4 F5 C3 41 9E 3D 71 50 CF 
43.549 [RX] 01 03 20 44 00 02 8F DE 
43.564 [RX] 01 03 04 45 BB 80 00 FE DA 
43.848 [RX] 01 03 15 0A 00 1A E0 0F 
43.865 [RX] 01 03 34 43 5A 4C CD 43 5A 19 9A 43 5A 80 00 42 FC 99 9A 42 FB 99 9A 42 FC 33 33 43 43 00 00 43 2A 00 00 43 23 66 66 42 80 28 F6 41 BE 14 7B 41 A3 D7 0A 41 9E 66 66 F1 58 
44.139 [RX] 01 03 18 1E 00 10 22 A0 
44.153 [RX] 01 03 20 47 C7 E9 24 47 0A 7E 90 46 F9 40 CF 47 08 B3 50 47 C7 CA 64 45 28 1C 80 44 53 BC 00 44 63 8E 00 7D 59 
44.352 [RX] 01 03 15 0A 00 1A E0 0F 
44.367 [RX] 01 03 34 43 5A 4C CD 43 5A 19 9A 43 5A 80 00 42 FC 99 9A 42 FB 99 9A 42 FC 33 33 43 43 00 00 43 2A 00 00 43 23 66 66 42 80 0A 3D 41 BE B8 52 41 A4 A3 D7 41 9C A3 D7 5F 5F 
44.641 [RX] 01 03 20 44 00 02 8F DE 
44.655 [RX] 01 03 04 45 BB 80 00 FE DA 
44.856 [RX] 01 03 15 0A 00 1A E0 0F 
44.872 [RX] 01 03 34 43 5A 4C CD 43 5A 19 9A 43 5A 80 00 42 FC 99 9A 42 FB 99 9A 42 FC 33 33 43 43 33 33 43 2A 33 33 43 21 66 66 42 80 5C 29 41 BF 33 33 41 A4 7A E1 41 9D 99 9A 3D E8 
45.145 [RX] 01 03 00 2B 00 01 F4 02 
45.180 [RX] 01 03 02 53 48 84 82 
45.250 [RX] 01 03 18 1E 00 10 22 A0 
45.264 [RX] 01 03 20 47 C7 E9 24 47 0A 7E 90 46 F9 40 CF 47 08 B3 50 47 C7 CA 68 45 28 1C 80 44 53 BC 00 44 63 8E 00 6C 95 
45.544 [RX] 01 03 15 0A 00 1A E0 0F 
45.560 [RX] 01 03 34 43 5A 66 66 43 5A 19 9A 43 5A 99 9A 42 FC CC CD 42 FB 99 9A 42 FC 33 33 43 43 CC CD 43 2A 66 66 43 22 99 9A 42 80 70 A4 41 BF 0A 3D 41 A4 A3 D7 41 9D C2 8F 80 D8 
45.844 [RX] 01 03 20 44 00 02 8F DE 
45.857 [RX] 01 03 04 45 BB 80 00 FE DA 
46.239 [RX] 01 03 15 0A 00 1A E0 0F 
46.259 [RX] 01 03 34 43 5A 4C CD 43 5A 19 9A 43 5A 80 00 42 FC 99 9A 42 FB 99 9A 42 FC 33 33 43 42 66 66 43 29 66 66 43 21 CC CD 42 7F 99 9A 41 BE 14 7B 41 A3 D7 0A 41 9D 47 AE BF D9 
46.539 [RX] 01 03 18 1E 00 10 22 A0 
46.556 [RX] 01 03 20 47 C7 E9 28 47 0A 7E 90 46 F9 40 E0 47 08 B3 50 47 C7 CA 68 45 28 1C 80 44 53 BC 00 44 63 8E 00 B4 01 
46.741 [RX] 01 03 15 0A 00 1A E0 0F 
46.756 [RX] 01 03 34 43 5A 4C CD 43 5A 19 9A 43 5A 80 00 42 FC 99 9A 42 FB 99 9A 42 FC 33 33 43 42 66 66 43 29 66 66 43 21 CC CD 42 80 33 33 41 BE 8F 5C 41 A4 51 EC 41 9D C2 8F 3D 0A 
47.039 [RX] 01 03 20 44 00 02 8F DE 
47.053 [RX] 01 03 04 45 BB 78 00 BD 1A 
47.245 [RX] 01 03 15 0A 00 1A E0 0F 
47.260 [RX] 01 03 34 43 5A 4C CD 43 5A 19 9A 43 5A 80 00 42 FC 99 9A 42 FB 99 9A 42 FC 33 33 43 42 CC CD 43 29 CC CD 43 22 00 00 42 7F 99 9A 41 BD 70 A4 41 A4 51 EC 41 9D 47 AE 5A A9 
47.539 [RX] 01 03 18 1E 00 10 22 A0 
47.555 [RX] 01 03 20 47 C7 E9 2C 47 0A 7E 98 46 F9 40 E0 47 08 B3 50 47 C7 CA 6C 45 28 1C 80 44 53 BC 00 44 63 8E 00 10 C8 
47.749 [RX] 01 03 00 2B 00 01 F4 02 
47.763 [RX] 01 03 02 53 48 84 82 
47.856 [RX] 01 03 15 0A 00 1A E0 0F 
47.875 [RX] 01 03 34 43 5A 33 33 43 5A 00 00 43 5A 80 00 42 FC 99 9A 42 FB 66 66 42 FC 33 33 43 42 99 9A 43 2A 99 9A 43 22 33 33 42 80 66 66 41 BE B8 52 41 A4 F5 C3 41 9D EB 85 F3 2B 
48.148 [RX] 01 03 20 44 00 02 8F DE 
48.164 [RX] 01 03 04 45 BB 80 00 FE DA 
48.547 [RX] 01 03 15 0A 00 1A E0 0F 
48.562 [RX] 01 03 34 43 5A 4C CD 43 5A 19 9A 43 5A 80 00 42 FC 99 9A 42 FB 99 9A 42 FC 33 33 43 42 66 66 43 2A 33 33 43 22 66 66 42 80 A3 D7 41 BD C2 8F 41 A5 70 A4 41 9F 0A 3D 9F 65 
48.840 [RX] 01 03 18 1E 00 10 22 A0 
48.857 [RX] 01 03 20 47 C7 E9 31 47 0A 7E 98 46 F9 40 E0 47 08 B3 58 47 C7 CA 71 45 28 1C 80 44 53 BC 00 44 63 8E 00 7A C3 
49.050 [RX] 01 03 15 0A 00 1A E0 0F 
49.065 [RX] 01 03 34 43 5A 4C CD 43 5A 19 9A 43 5A 80 00 42 FC 99 9A 42 FB 99 9A 42 FC 33 33 43 42 66 66 43 2B 33 33 43 23 99 9A 42 80 F5 C3 41 BE 66 66 41 A5 47 AE 41 9F D7 0A E7 14 
49.350 [RX] 01 03 20 44 00 02 8F DE 
49.363 [RX] 01 03 04 45 BB 78 00 BD 1A 
49.639 [RX] 01 03 15 0A 00 1A E0 0F 
49.656 [RX] 01 03 34 43 5A 19 9A 43 5A 00 00 43 5A 66 66 42 FC 66 66 42 FB 66 66 42 FC 33 33 43 42 66 66 43 2A 33 33 43 23 CC CD 42 81 14 7B 41 BE B8 52 41 A5 99 9A 41 A0 00 00 0E 7C 
49.854 [RX] 01 03 18 1E 00 10 22 A0 
49.870 [RX] 01 03 20 47 C7 E9 31 47 0A 7E 98 46 F9 40 E0 47 08 B3 58 47 C7 CA 71 45 28 1C 80 44 53 BC 00 44 63 8E 00 7A C3 
50.143 [RX] 01 03 15 0A 00 1A E0 0F 
50.157 [RX] 01 03 34 43 5A 19 9A 43 5A 00 00 43 5A 66 66 42 FC 66 66 42 FB 66 66 42 FC 33 33 43 44 66 66 43 2B CC CD 43 25 00 00 42 80 D7 0A 41 BF 0A 3D 41 A5 47 AE 41 9E E1 48 44 CD 
50.356 [RX] 01 03 00 2B 00 01 F4 02 
50.371 [RX] 01 03 02 53 48 84 82 
50.542 [RX] 01 03 20 44 00 02 8F DE 
50.558 [RX] 01 03 04 45 BB 78 00 BD 1A 
50.845 [RX] 01 03 15 0A 00 1A E0 0F 
50.858 [RX] 01 03 34 43 5A 33 33 43 5A 00 00 43 5A 80 00 42 FC 99 9A 42 FB 66 66 42 FC 33 33 43 43 00 00 43 2A 33 33 43 23 00 00 42 80 CC CD 41 BF 0A 3D 41 A5 1E B8 41 9E E1 48 D3 EC 
51.150 [RX] 01 03 18 1E 00 10 22 A0 
51.166 [RX] 01 03 20 47 C7 E9 31 47 0A 7E 98 46 F9 40 E0 47 08 B3 58 47 C7 CA 74 45 28 1C 80 44 53 BC 00 44 63 8E 00 76 C6 
51.444 [RX] 01 03 15 0A 00 1A E0 0F 
51.483 [RX] 01 03 34 43 5A 33 33 43 5A 00 00 43 5A 80 00 42 FC 99 9A 42 FB 66 66 42 FC 33 33 43 42 CC CD 43 29 99 9A 43 22 99 9A 42 80 CC CD 41 BF 0A 3D 41 A4 CC CD 41 9F 33 33 11 E4 
51.739 [RX] 01 03 20 44 00 02 8F DE 
51.753 [RX] 01 03 04 45 BB 78 00 BD 1A 
52.039 [RX] 01 03 15 0A 00 1A E0 0F 
52.055 [RX] 01 03 34 43 5A 33 33 43 5A 00 00 43 5A 80 00 42 FC 99 9A 42 FB 66 66 42 FC 33 33 43 43 00 00 43 29 CC CD 43 23 66 66 42 84 C2 8F 41 BE 14 7B 41 B5 EB 85 41 9E E1 48 1D EA 
52.243 [RX] 01 03 18 1E 00 10 22 A0 
52.259 [RX] 01 03 20 47 C7 E9 38 47 0A 7E A0 46 F9 40 F1 47 08 B3 58 47 C7 CA 78 45 28 1C 80 44 53 BC 00 44 63 8E 00 F0 F0 
52.539 [RX] 01 03 15 0A 00 1A E0 0F 
52.555 [RX] 01 03 34 43 5A 00 00 43 59 CC CD 43 5A 66 66 42 FC 66 66 42 FB 33 33 42 FC 00 00 43 42 66 66 43 39 CC CD 43 23 33 33 42 85 D7 0A 41 BE 8F 5C 41 B3 85 1F 41 A5 1E B8 6C B3 
52.747 [RX] 01 03 20 44 00 02 8F DE 
52.764 [RX] 01 03 04 45 BB 78 00 BD 1A 
53.041 [RX] 01 03 00 2B 00 01 F4 02 
53.055 [RX] 01 03 02 53 48 84 82 
53.146 [RX] 01 03 15 0A 00 1A E0 0F 
53.162 [RX] 01 03 34 43 5A 19 9A 43 59 CC CD 43 5A 66 66 42 FC 99 9A 42 FB 33 33 42 FC 00 00 43 43 33 33 43 37 CC CD 43 29 99 9A 42 85 66 66 41 BE B8 52 41 B1 99 9A 41 A5 1E B8 94 6C 
53.356 [RX] 01 03 18 1E 00 10 22 A0 
53.372 [RX] 01 03 20 47 C7 E9 38 47 0A 7E A0 46 F9 40 F1 47 08 B3 58 47 C7 CA 78 45 28 1C 80 44 53 BC 00 44 63 8E 00 F0 F0 
53.650 [RX] 01 03 15 0A 00 1A E0 0F 
53.666 [RX] 01 03 34 43 5A 19 9A 43 59 E6 66 43 5A 80 00 42 FC 99 9A 42 FB 33 33 42 FC 33 33 43 43 66 66 43 36 CC CD 43 29 33 33 42 85 99 9A 41 BF AE 14 41 B1 99 9A 41 A4 F5 C3 17 08 
54.049 [RX] 01 03 20 44 00 02 8F DE 
54.062 [RX] 01 03 04 45 BB 78 00 BD 1A 
54.348 [RX] 01 03 15 0A 00 1A E0 0F 
54.366 [RX] 01 03 34 43 5A 00 00 43 59 CC CD 43 5A 4C CD 42 FC 66 66 42 FB 33 33 42 FB CC CD 43 44 66 66 43 38 33 33 43 29 66 66 42 85 00 00 41 BE B8 52 41 B1 C2 8F 41 A3 85 1F ED DD 
54.639 [RX] 01 03 18 1E 00 10 22 A0 
54.655 [RX] 01 03 20 47 C7 E9 3C 47 0A 7E A0 46 F9 40 F1 47 08 B3 60 47 C7 CA 7C 45 28 1C 80 44 53 BC 00 44 63 8E 00 6D BE 
54.852 [RX] 01 03 15 0A 00 1A E0 0F 
54.869 [RX] 01 03 34 43 5A 19 9A 43 59 CC CD 43 5A 66 66 42 FC 99 9A 42 FB 33 33 42 FC 00 00 43 42 00 00 43 36 00 00 43 27 33 33 42 83 A3 D7 41 BC A3 D7 41 AF D7 0A 41 A1 EB 85 F7 24 
55.140 [RX] 01 03 20 44 00 02 8F DE 
55.155 [RX] 01 03 04 45 BB 78 00 BD 1A 
55.356 [RX] 01 03 15 0A 00 1A E0 0F 
55.375 [RX] 01 03 34 43 5A 00 00 43 59 CC CD 43 5A 4C CD 42 FC 66 66 42 FB 33 33 42 FB CC CD 43 41 66 66 43 36 00 00 43 26 66 66 42 83 C2 8F 41 BC F5 C3 41 B0 28 F6 41 A1 C2 8F AE 7D 
55.645 [RX] 01 03 00 2B 00 01 F4 02 
55.682 [RX] 01 03 02 53 48 84 82 
55.749 [RX] 01 03 18 1E 00 10 22 A0 
55.766 [RX] 01 03 20 47 C7 E9 3C 47 0A 7E A0 46 F9 40 F1 47 08 B3 60 47 C7 CA 80 45 28 1C 80 44 53 BC 00 44 63 8E 00 3C 83 
56.043 [RX] 01 03 15 0A 00 1A E0 0F 
56.059 [RX] 01 03 34 43 5A 33 33 43 5A 00 00 43 5A 80 00 42 FC 99 9A 42 FB 66 66 42 FC 33 33 43 40 66 66 43 35 00 00 43 25 CC CD 42 83 14 7B 41 BC 7A E1 41 AF 0A 3D 41 A0 A3 D7 1C 7E 
56.344 [RX] 01 03 20 44 00 02 8F DE 
56.381 [RX] 01 03 04 45 BB 78 00 BD 1A 
56.739 [RX] 01 03 15 0A 00 1A E0 0F 
56.752 [RX] 01 03 34 43 5A 19 9A 43 59 E6 66 43 5A 80 00 42 FC 99 9A 42 FB 33 33 42 FC 33 33 43 42 00 00 43 35 00 00 43 25 33 33 42 81 47 AE 41 BC 7A E1 41 AA 66 66 41 9E 14 7B AB FF 
57.039 [RX] 01 03 18 1E 00 10 22 A0 
57.055 [RX] 01 03 20 47 C7 E9 44 47 0A 7E A8 46 F9 41 00 47 08 B3 60 47 C7 CA 80 45 28 1C 80 44 53 BC 00 44 63 8E 00 B2 71 
57.241 [RX] 01 03 15 0A 00 1A E0 0F 
57.260 [RX] 01 03 34 43 5A 4C CD 43 5A 19 9A 43 5A 80 00 42 FC 99 9A 42 FB 99 9A 42 FC 33 33 43 40 33 33 43 2F CC CD 43 21 33 33 42 7F 99 9A 41 BC 00 00 41 A6 E1 48 41 9C 28 F6 9E 7A 
57.539 [RX] 01 03 20 44 00 02 8F DE 
57.553 [RX] 01 03 04 45 BB 80 00 FE DA 
57.745 [RX] 01 03 15 0A 00 1A E0 0F 
57.761 [RX] 01 03 34 43 5A 4C CD 43 5A 19 9A 43 5A 80 00 42 FC 99 9A 42 FB 99 9A 42 FC 33 33 43 41 66 66 43 2C 66 66 43 21 99 9A 42 80 1E B8 41 BC CC CD 41 A6 B8 52 41 9C CC CD 14 7F 
58.039 [RX] 01 03 18 1E 00 10 22 A0 
58.055 [RX] 01 03 20 47 C7 E9 44 47 0A 7E A8 46 F9 41 00 47 08 B3 60 47 C7 CA 84 45 28 1C 80 44 53 BC 00 44 63 8E 00 BC F5 
58.249 [RX] 01 03 00 2B 00 01 F4 02 
58.265 [RX] 01 03 02 53 48 84 82 
58.356 [RX] 01 03 15 0A 00 1A E0 0F 
58.372 [RX] 01 03 34 43 5A 4C CD 43 5A 33 33 43 5A 99 9A 42 FC 99 9A 42 FB 99 9A 42 FC 66 66 43 3F 99 9A 43 27 CC CD 43 1F CC CD 42 7C 3D 71 41 BB 85 1F 41 A1 70 A4 41 9B 5C 29 74 FD 
58.647 [RX] 01 03 20 44 00 02 8F DE 
58.663 [RX] 01 03 04 45 BB 80 00 FE DA 
59.046 [RX] 01 03 15 0A 00 1A E0 0F 
59.062 [RX] 01 03 34 43 5A 4C CD 43 5A 33 33 43 5A 99 9A 42 FC 99 9A 42 FB 99 9A 42 FC 66 66 43 3F 99 9A 43 27 00 00 43 1F 66 66 42 7B D7 0A 41 BB 0A 3D 41 A1 47 AE 41 9B 33 33 F9 9A 
59.341 [RX] 01 03 18 1E 00 10 22 A0 
59.358 [RX] 01 03 20 47 C7 E9 48 47 0A 7E A8 46 F9 41 00 47 08 B3 68 47 C7 CA 88 45 28 1C 80 44 53 BC 00 44 63 8E 00 2A F2 
59.550 [RX] 01 03 15 0A 00 1A E0 0F 
59.568 [RX] 01 03 34 43 5A 33 33 43 5A 19 9A 43 5A 66 66 42 FC 66 66 42 FB 99 9A 42 FC 33 33 43 4C 33 33 43 27 99 9A 43 28 66 66 42 80 CC CD 41 C1 1E B8 41 A2 66 66 41 9F 85 1F 49 CA 
59.850 [RX] 01 03 20 44 00 02 8F DE 
59.868 [RX] 01 03 04 45 BB 80 00 FE DA 
60.139 [RX] 01 03 15 0A 00 1A E0 0F 
60.157 [RX] 01 03 34 43 5A 4C CD 43 5A 19 9A 43 5A 80 00 42 FC 99 9A 42 FB 99 9A 42 FC 33 33 43 48 CC CD 43 27 00 00 43 23 CC CD 42 82 28 F6 41 C5 C2 8F 41 A2 66 66 41 A0 51 EC A9 A7 
60.354 [RX] 01 03 18 1E 00 10 22 A0 
60.370 [RX] 01 03 20 47 C7 E9 48 47 0A 7E A8 46 F9 41 00 47 08 B3 68 47 C7 CA 88 45 28 1C 80 44 53 BC 00 44 63 8E 00 2A F2 
60.643 [RX] 01 03 15 0A 00 1A E0 0F 
60.658 [RX] 01 03 34 43 5A 33 33 43 5A 19 9A 43 5A 66 66 42 FC 66 66 42 FB 99 9A 42 FC 33 33 43 4A 99 9A 43 27 CC CD 43 25 CC CD 42 81 E1 48 41 C5 99 9A 41 A1 47 AE 41 A0 7A E1 D8 C2 
60.856 [RX] 01 03 00 2B 00 01 F4 02 
60.872 [RX] 01 03 02 53 48 84 82 
61.041 [RX] 01 03 20 44 00 02 8F DE 
61.055 [RX] 01 03 04 45 BB 80 00 FE DA 
61.344 [RX] 01 03 15 0A 00 1A E0 0F 
61.358 [RX] 01 03 34 43 5A 4C CD 43 5A 33 33 43 5A 99 9A 42 FC 99 9A 42 FB 99 9A 42 FC 66 66 43 4A 99 9A 43 27 CC CD 43 25 99 9A 42 82 D7 0A 41 C6 B8 52 41 A3 33 33 41 A1 70 A4 2D F6 
61.651 [RX] 01 03 18 1E 00 10 22 A0 
61.669 [RX] 01 03 20 47 C7 E9 4C 47 0A 7E B0 46 F9 41 00 47 08 B3 68 47 C7 CA 8C 45 28 1C 80 44 53 BC 00 44 63 8E 00 DA AE 
61.944 [RX] 01 03 15 0A 00 1A E0 0F 
61.962 [RX] 01 03 34 43 5A 4C CD 43 5A 33 33 43 5A 99 9A 42 FC 99 9A 42 FB 99 9A 42 FC 66 66 43 4B 33 33 43 29 00 00 43 27 33 33 42 83 1E B8 41 C7 0A 3D 41 A3 33 33 41 A2 14 7B E7 71 
62.239 [RX] 01 03 20 44 00 02 8F DE 
62.254 [RX] 01 03 04 45 BB 80 00 FE DA 
62.539 [RX] 01 03 15 0A 00 1A E0 0F 
62.557 [RX] 01 03 34 43 5A 4C CD 43 5A 19 9A 43 5A 80 00 42 FC 99 9A 42 FB 99 9A 42 FC 33 33 43 4A 00 00 43 27 CC CD 43 26 66 66 42 82 AE 14 41 C6 8F 5C 41 A2 3D 71 41 A1 99 9A 0E 81 
62.743 [RX] 01 03 18 1E 00 10 22 A0 
62.759 [RX] 01 03 20 47 C7 E9 4F 47 0A 7E B0 46 F9 41 0F 47 08 B3 68 47 C7 CA 8F 45 28 1C 80 44 53 BC 00 44 63 8E 00 60 90 
63.039 [RX] 01 03 15 0A 00 1A E0 0F 
63.056 [RX] 01 03 34 43 5A 4C CD 43 5A 33 33 43 5A 99 9A 42 FC 99 9A 42 FB 99 9A 42 FC 66 66 43 4A 99 9A 43 28 33 33 43 26 CC CD 42 82 85 1F 41 C6 66 66 41 A2 3D 71 41 A1 1E B8 8A F6 
63.247 [RX] 01 03 20 44 00 02 8F DE 
63.265 [RX] 01 03 04 45 BB 78 00 BD 1A 
63.356 [RX] 01 03 00 2B 00 01 F4 02 
63.370 [RX] 01 03 02 53 48 84 82 
63.645 [RX] 01 03 15 0A 00 1A E0 0F 
63.664 [RX] 01 03 34 43 5A 33 33 43 5A 00 00 43 5A 80 00 42 FC 99 9A 42 FB 66 66 42 FC 33 33 43 4B 33 33 43 27 99 9A 43 27 00 00 42 82 CC CD 41 C7 33 33 41 A1 99 9A 41 A2 3D 71 35 B6 
63.856 [RX] 01 03 18 1E 00 10 22 A0 
63.873 [RX] 01 03 20 47 C7 E9 4F 47 0A 7E B0 46 F9 41 0F 47 08 B3 68 47 C7 CA 8F 45 28 1C 80 44 53 BC 00 44 63 8E 00 60 90 
64.149 [RX] 01 03 15 0A 00 1A E0 0F 
64.164 [RX] 01 03 34 43 5A 33 33 43 5A 00 00 43 5A 80 00 42 FC 99 9A 42 FB 66 66 42 FC 33 33 43 4B 33 33 43 27 99 9A 43 27 00 00 42 82 F5 C3 41 C8 00 00 41 A1 47 AE 41 A2 66 66 42 50 
64.443 [RX] 01 03 20 44 00 02 8F DE 
64.458 [RX] 01 03 04 45 BB 78 00 BD 1A 
64.739 [RX] 01 03 15 0A 00 1A E0 0F 
64.756 [RX] 01 03 34 43 5A 4C CD 43 5A 19 9A 43 5A 80 00 42 FC 99 9A 42 FB 99 9A 42 FC 33 33 43 4B 66 66 43 26 CC CD 43 27 33 33 42 82 14 7B 41 C3 85 1F 41 A2 3D 71 41 A2 66 66 CE 6D 
65.039 [RX] 01 03 18 1E 00 10 22 A0 
65.055 [RX] 01 03 20 47 C7 E9 54 47 0A 7E B0 46 F9 41 0F 47 08 B3 70 47 C7 CA 94 45 28 1C 80 44 53 BC 00 44 63 8E 00 8E 9C 
65.241 [RX] 01 03 15 0A 00 1A E0 0F 
65.258 [RX] 01 03 34 43 5A 33 33 43 5A 00 00 43 5A 80 00 42 FC 99 9A 42 FB 66 66 42 FC 33 33 43 47 CC CD 43 28 00 00 43 27 99 9A 42 81 F5 C3 41 C2 E1 48 41 A2 8F 5C 41 A2 3D 71 27 09 
65.539 [RX] 01 03 20 44 00 02 8F DE 
65.556 [RX] 01 03 04 45 BB 80 00 FE DA 
65.746 [RX] 01 03 15 0A 00 1A E0 0F 
65.761 [RX] 01 03 34 43 5A 4C CD 43 5A 19 9A 43 5A 80 00 42 FC 99 9A 42 FB 99 9A 42 FC 33 33 43 47 66 66 43 28 CC CD 43 27 66 66 42 82 C2 8F 41 C4 51 EC 41 A3 AE 14 41 A2 E1 48 59 D9 
65.856 [RX] 01 03 00 2B 00 01 F4 02 
65.872 [RX] 01 03 02 53 48 84 82 
66.144 [RX] 01 03 18 1E 00 10 22 A0 
66.162 [RX] 01 03 20 47 C7 E9 58 47 0A 7E B8 46 F9 41 0F 47 08 B3 70 47 C7 CA 98 45 28 1C 80 44 53 BC 00 44 63 8E 00 35 13 
66.356 [RX] 01 03 15 0A 00 1A E0 0F 
66.370 [RX] 01 03 34 43 5A 33 33 43 5A 00 00 43 5A 80 00 42 FC 99 9A 42 FB 66 66 42 FC 33 33 43 49 33 33 43 29 66 66 43 28 99 9A 42 82 7A E1 41 C4 28 F6 41 A2 8F 5C 41 A3 0A 3D BB 97 
66.648 [RX] 01 03 20 44 00 02 8F DE 
66.662 [RX] 01 03 04 45 BB 80 00 FE DA 
67.047 [RX] 01 03 15 0A 00 1A E0 0F 
67.063 [RX] 01 03 34 43 5A 4C CD 43 5A 19 9A 43 5A 80 00 42 FC 99 9A 42 FB 99 9A 42 FC 33 33 43 47 66 66 43 27 99 9A 43 27 66 66 42 81 EB 85 41 C3 33 33 41 A1 C2 8F 41 A2 B8 52 51 B1 
67.347 [RX] 01 03 18 1E 00 10 22 A0 
67.362 [RX] 01 03 20 47 C7 E9 58 47 0A 7E B8 46 F9 41 0F 47 08 B3 70 47 C7 CA 98 45 28 1C 80 44 53 BC 00 44 63 8E 00 35 13 
67.639 [RX] 01 03 15 0A 00 1A E0 0F 
67.655 [RX] 01 03 34 43 5A 4C CD 43 5A 19 9A 43 5A 80 00 42 FC 99 9A 42 FB 99 9A 42 FC 33 33 43 47 99 9A 43 28 00 00 43 28 33 33 42 82 28 F6 41 C3 0A 3D 41 A2 14 7B 41 A3 5C 29 3E 98 
67.851 [RX] 01 03 20 44 00 02 8F DE 
67.867 [RX] 01 03 04 45 BB 80 00 FE DA 
68.140 [RX] 01 03 15 0A 00 1A E0 0F 
68.158 [RX] 01 03 34 43 5A 00 00 43 59 CC CD 43 5A 33 33 42 FC 33 33 42 FB 66 66 42 FB CC CD 43 48 00 00 43 27 CC CD 43 2E 66 66 42 84 00 00 41 C4 51 EC 41 A2 B8 52 41 A8 CC CD 0A 2B 
68.355 [RX] 01 03 18 1E 00 10 22 A0 
68.373 [RX] 01 03 20 47 C7 E9 5C 47 0A 7E B8 46 F9 41 20 47 08 B3 70 47 C7 CA 9C 45 28 1C 80 44 53 BC 00 44 63 8E 00 E3 0D 
68.539 [RX] 01 03 00 2B 00 01 F4 02 
68.554 [RX] 01 03 02 53 48 84 82 
68.748 [RX] 01 03 15 0A 00 1A E0 0F 
68.766 [RX] 01 03 34 43 5A 33 33 43 59 CC CD 43 5A 66 66 42 FC 99 9A 42 FB 66 66 42 FB CC CD 43 49 00 00 43 29 66 66 43 2A 66 66 42 83 7A E1 41 C5 1E B8 41 A3 5C 29 41 A5 1E B8 12 FC 
69.043 [RX] 01 03 20 44 00 02 8F DE 
69.059 [RX] 01 03 04 45 BB 88 00 F9 1A 
69.344 [RX] 01 03 15 0A 00 1A E0 0F 
69.359 [RX] 01 03 34 43 5A 4C CD 43 5A 19 9A 43 5A 80 00 42 FC 99 9A 42 FB 99 9A 42 FC 33 33 43 48 99 9A 43 28 99 9A 43 29 CC CD 42 82 A3 D7 41 C3 5C 29 41 A2 E1 48 41 A4 28 F6 E9 3B 
69.739 [RX] 01 03 18 1E 00 10 22 A0 
69.756 [RX] 01 03 20 47 C7 E9 5C 47 0A 7E B8 46 F9 41 20 47 08 B3 70 47 C7 CA A0 45 28 1C 80 44 53 BC 00 44 63 8E 00 B3 31 
69.945 [RX] 01 03 15 0A 00 1A E0 0F 
69.964 [RX] 01 03 34 43 5A 4C CD 43 5A 19 9A 43 5A 80 00 42 FC 99 9A 42 FB 99 9A 42 FC 33 33 43 47 33 33 43 28 33 33 43 28 99 9A 42 82 70 A4 41 C3 85 1F 41 A2 8F 5C 41 A3 AE 14 10 8C 
70.240 [RX] 01 03 20 44 00 02 8F DE 
70.256 [RX] 01 03 04 45 BB 88 00 F9 1A 
70.539 [RX] 01 03 15 0A 00 1A E0 0F 
70.557 [RX] 01 03 34 43 5A 4C CD 43 5A 19 9A 43 5A 80 00 42 FC 99 9A 42 FB 99 9A 42 FC 33 33 43 47 33 33 43 28 33 33 43 28 CC CD 42 82 51 EC 41 C3 33 33 41 A2 B8 52 41 A3 33 33 31 1C 
70.743 [RX] 01 03 18 1E 00 10 22 A0 
70.762 [RX] 01 03 20 47 C7 E9 64 47 0A 7E C0 46 F9 41 20 47 08 B3 78 47 C7 CA A0 45 28 1C 80 44 53 BC 00 44 63 8E 00 37 B9 
71.039 [RX] 01 03 00 2B 00 01 F4 02 
71.054 [RX] 01 03 02 53 48 84 82 
71.143 [RX] 01 03 15 0A 00 1A E0 0F 
71.161 [RX] 01 03 34 43 5A 4C CD 43 5A 19 9A 43 5A 80 00 42 FC 99 9A 42 FB 99 9A 42 FC 33 33 43 47 66 66 43 28 CC CD 43 28 CC CD 42 82 F5 C3 41 C4 28 F6 41 A3 D7 0A 41 A3 D7 0A DD 41 
71.356 [RX] 01 03 20 44 00 02 8F DE 
71.371 [RX] 01 03 04 45 BB 88 00 F9 1A 
71.647 [RX] 01 03 15 0A 00 1A E0 0F 
71.662 [RX] 01 03 34 43 5A 33 33 43 5A 00 00 43 5A 66 66 42 FC 66 66 42 FB 99 9A 42 FC 00 00 43 47 CC CD 43 29 33 33 43 28 CC CD 42 81 CC CD 41 C1 EB 85 41 A2 E1 48 41 A2 14 7B 1B 08 
72.045 [RX] 01 03 18 1E 00 10 22 A0 
72.062 [RX] 01 03 20 47 C7 E9 64 47 0A 7E C0 46 F9 41 20 47 08 B3 78 47 C7 CA A4 45 28 1C 80 44 53 BC 00 44 63 8E 00 39 3D 
72.340 [RX] 01 03 15 0A 00 1A E0 0F 
72.358 [RX] 01 03 34 43 59 E6 66 43 59 CC CD 43 5A 33 33 42 FC 33 33 42 FB 33 33 42 FB CC CD 43 45 CC CD 43 28 99 9A 43 27 66 66 42 81 51 EC 41 C1 99 9A 41 A1 EB 85 41 A1 99 9A EF 72 
72.550 [RX] 01 03 20 44 00 02 8F DE 
72.567 [RX] 01 03 04 45 BB 88 00 F9 1A 
72.849 [RX] 01 03 15 0A 00 1A E0 0F 
72.868 [RX] 01 03 34 43 5A 4C CD 43 5A 19 9A 43 5A 80 00 42 FC 99 9A 42 FB 99 9A 42 FC 33 33 43 46 33 33 43 28 99 9A 43 27 99 9A 42 81 D7 0A 41 C2 66 66 41 A2 3D 71 41 A2 8F 5C 6A 29 
73.139 [RX] 01 03 18 1E 00 10 22 A0 
73.157 [RX] 01 03 20 47 C7 E9 64 47 0A 7E C0 46 F9 41 20 47 08 B3 78 47 C7 CA A8 45 28 1C 80 44 53 BC 00 44 63 8E 00 28 F1 
73.353 [RX] 01 03 15 0A 00 1A E0 0F 
73.370 [RX] 01 03 34 43 5A 4C CD 43 5A 19 9A 43 5A 80 00 42 FC 99 9A 42 FB 99 9A 42 FC 33 33 43 47 66 66 43 28 00 00 43 28 00 00 42 82 28 F6 41 C3 0A 3D 41 A2 E1 48 41 A2 8F 5C 65 37 
73.539 [RX] 01 03 00 2B 00 01 F4 02 
73.556 [RX] 01 03 02 53 48 84 82 
73.747 [RX] 01 03 20 44 00 02 8F DE 
73.763 [RX] 01 03 04 45 BB 88 00 F9 1A 
74.040 [RX] 01 03 15 0A 00 1A E0 0F 
74.059 [RX] 01 03 34 43 5A 33 33 43 5A 00 00 43 5A 80 00 42 FC 99 9A 42 FB 66 66 42 FC 33 33 43 46 33 33 43 28 33 33 43 27 00 00 42 81 66 66 41 C1 C2 8F 41 A1 EB 85 41 A1 C2 8F 9C CE 
74.251 [RX] 01 03 18 1E 00 10 22 A0 
74.270 [RX] 01 03 20 47 C7 E9 68 47 0A 7E C0 46 F9 41 31 47 08 B3 78 47 C7 CA A8 45 28 1C 80 44 53 BC 00 44 63 8E 00 2A B8 
74.544 [RX] 01 03 15 0A 00 1A E0 0F 
74.562 [RX] 01 03 34 43 5A 4C CD 43 5A 19 9A 43 5A 80 00 42 FC 99 9A 42 FB 99 9A 42 FC 33 33 43 45 66 66 43 27 00 00 43 26 CC CD 42 81 00 00 41 C0 F5 C3 41 A1 70 A4 41 A1 70 A4 94 02 
74.839 [RX] 01 03 20 44 00 02 8F DE 
74.857 [RX] 01 03 04 45 BB 88 00 F9 1A 
75.048 [RX] 01 03 15 0A 00 1A E0 0F 
75.065 [RX] 01 03 34 43 5A 4C CD 43 5A 19 9A 43 5A 80 00 42 FC 99 9A 42 FB 99 9A 42 FC 33 33 43 46 00 00 43 27 99 9A 43 28 33 33 42 81 99 9A 41 C1 C2 8F 41 A1 C2 8F 41 A2 B8 52 DA 07 
75.348 [RX] 01 03 18 1E 00 10 22 A0 
75.368 [RX] 01 03 20 47 C7 E9 6C 47 0A 7E C8 46 F9 41 31 47 08 B3 78 47 C7 CA AC 45 28 1C 80 44 53 BC 00 44 63 8E 00 8E 71 
75.639 [RX] 01 03 15 0A 00 1A E0 0F 
75.656 [RX] 01 03 34 43 5A 66 66 43 5A 19 9A 43 5A 99 9A 42 FC CC CD 42 FB 99 9A 42 FC 33 33 43 45 CC CD 43 26 66 66 43 27 99 9A 42 81 7A E1 41 C1 EB 85 41 A1 70 A4 41 A2 66 66 70 D7 
75.852 [RX] 01 03 20 44 00 02 8F DE 
75.866 [RX] 01 03 04 45 BB 88 00 F9 1A 
76.039 [RX] 01 03 00 2B 00 01 F4 02 
76.055 [RX] 01 03 02 53 48 84 82 
76.245 [RX] 01 03 15 0A 00 1A E0 0F 
76.261 [RX] 01 03 34 43 5A 4C CD 43 5A 19 9A 43 5A 80 00 42 FC 99 9A 42 FB 99 9A 42 FC 33 33 43 45 CC CD 43 26 99 9A 43 26 99 9A 42 80 CC CD 41 C0 F5 C3 41 A0 CC CD 41 A1 47 AE 07 9E 
76.539 [RX] 01 03 18 1E 00 10 22 A0 
76.555 [RX] 01 03 20 47 C7 E9 71 47 0A 7E C8 46 F9 41 31 47 08 B3 80 47 C7 CA B1 45 28 1C 80 44 53 BC 00 44 63 8E 00 A0 49 
76.749 [RX] 01 03 15 0A 00 1A E0 0F 
76.764 [RX] 01 03 34 43 5A 4C CD 43 5A 19 9A 43 5A 80 00 42 FC 99 9A 42 FB 99 9A 42 FC 33 33 43 45 CC CD 43 26 99 9A 43 26 99 9A 42 81 51 EC 41 C1 47 AE 41 A1 70 A4 41 A2 8F 5C 05 E1 
77.043 [RX] 01 03 20 44 00 02 8F DE 
77.061 [RX] 01 03 04 45 BB 80 00 FE DA 
77.344 [RX] 01 03 15 0A 00 1A E0 0F 
77.361 [RX] 01 03 34 43 5A 4C CD 43 5A 19 9A 43 5A 80 00 42 FC 99 9A 42 FB 99 9A 42 FC 33 33 43 44 99 9A 43 26 66 66 43 27 00 00 42 82 7A E1 41 C3 0A 3D 41 A2 E1 48 41 A4 00 00 0F ED 
77.739 [RX] 01 03 18 1E 00 10 22 A0 
77.755 [RX] 01 03 20 47 C7 E9 71 47 0A 7E C8 46 F9 41 31 47 08 B3 80 47 C7 CA B1 45 28 1C 80 44 53 BC 00 44 63 8E 00 A0 49 
77.947 [RX] 01 03 15 0A 00 1A E0 0F 
77.963 [RX] 01 03 34 43 5A 4C CD 43 5A 19 9A 43 5A 80 00 42 FC 99 9A 42 FB 99 9A 42 FC 33 33 43 47 33 33 43 28 66 66 43 29 33 33 42 81 CC CD 41 C1 99 9A 41 A1 C2 8F 41 A3 D7 0A A7 F9 
78.240 [RX] 01 03 20 44 00 02 8F DE 
78.258 [RX] 01 03 04 45 BB 80 00 FE DA 
78.451 [RX] 01 03 15 0A 00 1A E0 0F 
78.466 [RX] 01 03 34 43 5A 4C CD 43 5A 00 00 43 5A 66 66 42 FC 99 9A 42 FB 99 9A 42 FC 00 00 43 45 33 33 43 27 00 00 43 28 66 66 42 81 F5 C3 41 C2 14 7B 41 A2 66 66 41 A3 5C 29 C9 0B 
78.639 [RX] 01 03 00 2B 00 01 F4 02 
78.656 [RX] 01 03 02 53 48 84 82 
78.855 [RX] 01 03 18 1E 00 10 22 A0 
78.870 [RX] 01 03 20 47 C7 E9 71 47 0A 7E C8 46 F9 41 31 47 08 B3 80 47 C7 CA B4 45 28 1C 80 44 53 BC 00 44 63 8E 00 AC 4C 
79.143 [RX] 01 03 15 0A 00 1A E0 0F 
79.159 [RX] 01 03 34 43 5A 4C CD 43 5A 19 9A 43 5A 80 00 42 FC 99 9A 42 FB 99 9A 42 FC 33 33 43 47 00 00 43 28 00 00 43 28 99 9A 42 82 0A 3D 41 C3 0A 3D 41 A1 C2 8F 41 A3 0A 3D F0 B0 
79.356 [RX] 01 03 20 44 00 02 8F DE 
79.371 [RX] 01 03 04 45 BB 78 00 BD 1A 
79.647 [RX] 01 03 15 0A 00 1A E0 0F 
79.662 [RX] 01 03 34 43 59 E6 66 43 59 CC CD 43 5A 33 33 42 FC 33 33 42 FB 33 33 42 FB CC CD 43 47 CC CD 43 27 99 9A 43 28 66 66 42 82 8F 5C 41 C3 AE 14 41 A2 B8 52 41 A3 AE 14 8E A2 
80.047 [RX] 01 03 18 1E 00 10 22 A0 
80.063 [RX] 01 03 20 47 C7 �9 78 47 0A 7E D0 46 F9 41 40 47 08 B3 80 47 C7 CA B8 45 28 1C 80 44 53 BC 00 44 63 8E 00 E8 B6 
80.340 [RX] 01 03 15 0A 00 1A E0 0F 
80.355 [RX] 01 03 34 43 5A 00 00 43 59 CC CD 43 5A 66 66 42 FC 66 66 42 FB 33 33 42 FC 00 00 43 49 00 00 43 29 99 9A 43 2A 00 00 42 82 47 AE 41 C3 0A 3D 41 A2 E1 48 41 A3 33 33 A1 A4 
80.551 [RX] 01 03 20 44 00 02 8F DE 
80.565 [RX] 01 03 04 45 BB 78 00 BD 1A 
80.850 [RX] 01 03 15 0A 00 1A E0 0F 
80.865 [RX] 01 03 34 43 5A 4C CD 43 5A 19 9A 43 5A 80 00 42 FC 99 9A 42 FB 99 9A 42 FC 33 33 43 46 CC CD 43 28 66 66 43 28 00 00 42 82 47 AE 41 C3 33 33 41 A2 66 66 41 A3 5C 29 EA 52 
81.139 [RX] 01 03 00 2B 00 01 F4 02 
81.152 [RX] 01 03 02 53 48 84 82 
81.243 [RX] 01 03 18 1E 00 10 22 A0 
81.260 [RX] 01 03 20 47 C7 E9 78 47 0A 7E D0 46 F9 41 40 47 08 B3 80 47 C7 CA B8 45 28 1C 80 44 53 BC 00 44 63 8E 00 E8 B6 
81.539 [RX] 01 03 15 0A 00 1A E0 0F 
81.554 [RX] 01 03 34 43 5A 4C CD 43 5A 19 9A 43 5A 80 00 42 FC 99 9A 42 FB 99 9A 42 FC 33 33 43 48 33 33 43 28 CC CD 43 29 66 66 42 83 99 9A 41 C5 47 AE 41 A3 D7 0A 41 A5 1E B8 DB B3 
81.747 [RX] 01 03 20 44 00 02 8F DE 
81.765 [RX] 01 03 04 45 BB 70 00 BA DA 
82.041 [RX] 01 03 15 0A 00 1A E0 0F 
82.060 [RX] 01 03 34 43 5A 4C CD 43 5A 19 9A 43 5A 80 00 42 FC 99 9A 42 FB 99 9A 42 FC 33 33 43 49 66 66 43 29 CC CD 43 2A 99 9A 42 83 C2 8F 41 C5 1E B8 41 A4 51 EC 41 A5 70 A4 E2 79 
82.344 [RX] 01 03 18 1E 00 10 22 A0 
82.361 [RX] 01 03 20 47 C7 E9 7C 47 0A 7E D0 46 F9 41 40 47 08 B3 88 47 C7 CA BC 45 28 1C 80 44 53 BC 00 44 63 8E 00 61 F7 
82.651 [RX] 01 03 15 0A 00 1A E0 0F 
82.666 [RX] 01 03 34 43 5A 19 9A 43 59 E6 66 43 5A 66 66 42 FC 66 66 42 FB 66 66 42 FC 00 00 43 49 00 00 43 29 CC CD 43 2A 33 33 42 83 1E B8 41 C4 00 00 41 A3 AE 14 41 A4 A3 D7 8E 08 
82.945 [RX] 01 03 20 44 00 02 8F DE 
82.958 [RX] 01 03 04 45 BB 70 00 BA DA 
83.239 [RX] 01 03 15 0A 00 1A E0 0F 
83.256 [RX] 01 03 34 43 5A 00 00 43 59 CC CD 43 5A 66 66 42 FC 66 66 42 FB 33 33 42 FC 00 00 43 49 33 33 43 2A 99 9A 43 2A CC CD 42 83 8F 5C 41 C4 A3 D7 41 A4 00 00 41 A5 47 AE D9 24 
83.539 [RX] 01 03 18 1E 00 10 22 A0 
83.554 [RX] 01 03 20 47 C7 E9 7C 47 0A 7E D0 46 F9 41 40 47 08 B3 88 47 C7 CA C0 45 28 1C 80 44 53 BC 00 44 63 8E 00 CF 0B 
83.639 [RX] 01 03 00 2B 00 01 F4 02 
83.652 [RX] 01 03 02 53 48 84 82 
83.853 [RX] 01 03 15 0A 00 1A E0 0F 
83.871 [RX] 01 03 34 43 59 E6 66 43 59 CC CD 43 5A 33 33 42 FC 33 33 42 FB 33 33 42 FB CC CD 43 49 33 33 43 2A 66 66 43 2B 00 00 42 84 7A E1 41 C5 EB 85 41 A5 47 AE 41 A6 8F 5C 8E 54 
84.141 [RX] 01 03 20 44 00 02 8F DE 
84.158 [RX] 01 03 04 45 BB 68 00 B0 DA 
84.356 [RX] 01 03 15 0A 00 1A E0 0F 
84.371 [RX] 01 03 34 43 5A 19 9A 43 59 E6 66 43 5A 66 66 42 FC 66 66 42 FB 66 66 42 FC 00 00 43 4A 00 00 43 2B 00 00 43 2B CC CD 42 84 66 66 41 C5 EB 85 41 A5 70 A4 41 A6 14 7B DC B3 
84.645 [RX] 01 03 18 1E 00 10 22 A0 
84.662 [RX] 01 03 20 47 C7 E9 84 47 0A 7E D8 46 F9 41 4F 47 08 B3 88 47 C7 CA C0 45 28 1C 80 44 53 BC 00 44 63 8E 00 9A 04 
84.856 [RX] 01 03 15 0A 00 1A E0 0F 
84.887 [RX] 01 03 34 43 5A 19 9A 43 59 E6 66 43 5A 66 66 42 FC 66 66 42 FB 66 66 42 FC 00 00 43 49 66 66 43 2A 00 00 43 2A 99 9A 42 83 A3 D7 41 C5 70 A4 41 A4 00 00 41 A4 F5 C3 97 B4 
85.149 [RX] 01 03 20 44 00 02 8F DE 
85.164 [RX] 01 03 04 45 BB 70 00 BA DA 
85.444 [RX] 01 03 15 0A 00 1A E0 0F 
85.458 [RX] 01 03 34 43 5A 19 9A 43 59 CC CD 43 5A 66 66 42 FC 99 9A 42 FB 33 33 42 FC 00 00 43 48 CC CD 43 2A 66 66 43 2A 33 33 42 84 14 7B 41 C5 1E B8 41 A5 47 AE 41 A5 C2 8F CE E8 
85.739 [RX] 01 03 18 1E 00 10 22 A0 
85.755 [RX] 01 03 20 47 C7 E9 84 47 0A 7E D8 46 F9 41 4F 47 08 B3 88 47 C7 CA C4 45 28 1C 80 44 53 BC 00 44 63 8E 00 94 80 
86.039 [RX] 01 03 15 0A 00 1A E0 0F 
86.057 [RX] 01 03 34 43 5A 19 9A 43 59 E6 66 43 5A 66 66 42 FC 66 66 42 FB 66 66 42 FC 00 00 43 48 33 33 43 2B 33 33 43 29 66 66 42 83 F5 C3 41 C4 A3 D7 41 A6 66 66 41 A4 A3 D7 02 2E 
86.139 [RX] 01 03 00 2B 00 01 F4 02 
86.155 [RX] 01 03 02 53 48 84 82 
86.352 [RX] 01 03 20 44 00 02 8F DE 
86.366 [RX] 01 03 04 45 BB 68 00 B0 DA 
86.640 [RX] 01 03 15 0A 00 1A E0 0F 
86.656 [RX] 01 03 34 43 5A 33 33 43 5A 00 00 43 5A 80 00 42 FC 99 9A 42 FB 66 66 42 FC 33 33 43 48 99 9A 43 2A CC CD 43 29 CC CD 42 83 5C 29 41 C4 28 F6 41 A4 7A E1 41 A4 7A E1 10 95 
86.856 [RX] 01 03 18 1E 00 10 22 A0 
86.875 [RX] 01 03 20 47 C7 E9 84 47 0A 7E D8 46 F9 41 4F 47 08 B3 88 47 C7 CA C8 45 28 1C 80 44 53 BC 00 44 63 8E 00 85 4C 
87.144 [RX] 01 03 15 0A 00 1A E0 0F 
87.160 [RX] 01 03 34 43 5A 33 33 43 59 E6 66 43 5A 66 66 42 FC 99 9A 42 FB 66 66 42 FC 00 00 43 48 66 66 43 2A 66 66 43 29 CC CD 42 83 28 F6 41 C3 AE 14 41 A4 51 EC 41 A4 7A E1 B0 6E 
87.356 [RX] 01 03 20 44 00 02 8F DE 
87.373 [RX] 01 03 04 45 BB 68 00 B0 DA 
87.648 [RX] 01 03 15 0A 00 1A E0 0F 
87.665 [RX] 01 03 34 43 5A 33 33 43 5A 00 00 43 5A 80 00 42 FC 99 9A 42 FB 66 66 42 FC 33 33 43 47 99 9A 43 29 99 9A 43 29 33 33 42 83 99 9A 41 C4 51 EC 41 A4 F5 C3 41 A5 1E B8 CD AA 
88.048 [RX] 01 03 18 1E 00 10 22 A0 
88.063 [RX] 01 03 20 47 C7 E9 88 47 0A 7E D8 46 F9 41 4F 47 08 B3 90 47 C7 CA C8 45 28 1C 80 44 53 BC 00 44 63 8E 00 0F 42 
88.347 [RX] 01 03 15 0A 00 1A E0 0F 
88.424 [RX] 01 03 34 43 5A 4C CD 43 5A 00 00 43 5A 66 66 42 FC 99 9A 42 FB 99 9A 42 FC 00 00 43 49 33 33 43 2B 66 66 43 2A 99 9A 42 84 7A E1 41 C5 99 9A 41 A6 3D 71 41 A5 EB 85 3A D2 
88.639 [RX] 01 03 00 2B 00 01 F4 02 
88.653 [RX] 01 03 02 53 48 84 82 
88.740 [RX] 01 03 20 44 00 02 8F DE 
88.754 [RX] 01 03 04 45 BB 68 00 B0 DA 
88.951 [RX] 01 03 15 0A 00 1A E0 0F 
88.969 [RX] 01 03 34 43 5A 33 33 43 59 E6 66 43 5A 66 66 42 FC 99 9A 42 FB 66 66 42 FC 00 00 43 49 00 00 43 2B 00 00 43 2A 33 33 42 83 CC CD 41 C4 7A E1 41 A5 70 A4 41 A5 1E B8 95 2B 
89.244 [RX] 01 03 18 1E 00 10 22 A0 
89.261 [RX] 01 03 20 47 C7 E9 8C 47 0A 7E E0 46 F9 41 4F 47 08 B3 90 47 C7 CA CC 45 28 1C 80 44 53 BC 00 44 63 8E 00 54 74 
89.540 [RX] 01 03 15 0A 00 1A E0 0F 
89.558 [RX] 01 03 34 43 5A 4C CD 43 5A 00 00 43 5A 66 66 42 FC 99 9A 42 FB 99 9A 42 FC 00 00 43 47 CC CD 43 2A 99 9A 43 29 CC CD 42 83 70 A4 41 C3 AE 14 41 A5 47 AE 41 A4 7A E1 31 7C 
89.748 [RX] 01 03 20 44 00 02 8F DE 
89.787 [RX] 01 03 04 45 BB 68 00 B0 DA 
90.043 [RX] 01 03 15 0A 00 1A E0 0F 
90.060 [RX] 01 03 34 43 5A 00 00 43 59 E6 66 43 5A 4C CD 42 FC 33 33 42 FB 66 66 42 FC 00 00 43 52 33 33 43 2C 00 00 43 29 66 66 42 86 1E B8 41 CD C2 8F 41 A6 3D 71 41 A4 51 EC D4 75 
90.344 [RX] 01 03 18 1E 00 10 22 A0 
90.359 [RX] 01 03 20 47 C7 E9 8F 47 0A 7E E0 46 F9 41 60 47 08 B3 90 47 C7 CA CF 45 28 1C 80 44 53 BC 00 44 63 8E 00 C9 28 
90.739 [RX] 01 03 15 0A 00 1A E0 0F 
90.753 [RX] 01 03 34 43 5A 00 00 43 59 CC CD 43 5A 33 33 42 FC 33 33 42 FB 66 66 42 FB CC CD 43 4B 99 9A 43 2C 00 00 43 2A 66 66 42 84 5C 29 41 C6 66 66 41 A5 EB 85 41 A5 1E B8 AB 38 
90.945 [RX] 01 03 20 44 00 02 8F DE 
90.961 [RX] 01 03 04 45 BB 68 00 B0 DA 
91.239 [RX] 01 03 00 2B 00 01 F4 02 
91.254 [RX] 01 03 02 53 48 84 82 
91.350 [RX] 01 03 15 0A 00 1A E0 0F 
91.366 [RX] 01 03 34 43 5A 19 9A 43 59 E6 66 43 5A 66 66 42 FC 66 66 42 FB 66 66 42 FC 00 00 43 48 99 9A 43 2A 33 33 43 28 CC CD 42 83 1E B8 41 C4 00 00 41 A4 7A E1 41 A3 D7 0A 7E A4 
91.639 [RX] 01 03 18 1E 00 10 22 A0 
91.658 [RX] 01 03 20 47 C7 E9 8F 47 0A 7E E0 46 F9 41 60 47 08 B3 90 47 C7 CA CF 45 28 1C 80 44 53 BC 00 44 63 8E 00 C9 28 
91.854 [RX] 01 03 15 0A 00 1A E0 0F 
91.889 [RX] 01 03 34 43 5A 4C CD 43 5A 00 00 43 5A 66 66 42 FC 99 9A 42 FB 99 9A 42 FC 00 00 43 48 33 33 43 2A 66 66 43 28 99 9A 42 82 C2 8F 41 C3 85 1F 41 A4 51 EC 41 A3 0A 3D 37 07 
92.143 [RX] 01 03 20 44 00 02 8F DE 
92.157 [RX] 01 03 04 45 BB 68 00 B0 DA 
92.356 [RX] 01 03 15 0A 00 1A E0 0F 
92.371 [RX] 01 03 34 43 5A 4C CD 43 5A 00 00 43 5A 66 66 42 FC 99 9A 42 FB 99 9A 42 FC 00 00 43 48 33 33 43 2A 66 66 43 28 99 9A 42 83 70 A4 41 C4 7A E1 41 A4 CC CD 41 A4 28 F6 0E 01 
92.647 [RX] 01 03 18 1E 00 10 22 A0 
92.665 [RX] 01 03 20 47 C7 E9 94 47 0A 7E E0 46 F9 41 60 47 08 B3 98 47 C7 CA D4 45 28 1C 80 44 53 BC 00 44 63 8E 00 2A E1 
93.046 [RX] 01 03 15 0A 00 1A E0 0F 
93.061 [RX] 01 03 34 43 5A 00 00 43 59 CC CD 43 5A 4C CD 42 FC 66 66 42 FB 33 33 42 FB CC CD 43 48 66 66 43 2B 99 9A 43 29 00 00 42 82 B8 52 41 C2 E1 48 41 A5 1E B8 41 A2 B8 52 1F 35 
93.339 [RX] 01 03 20 44 00 02 8F DE 
93.356 [RX] 01 03 04 45 BB 68 00 B0 DA 
93.549 [RX] 01 03 15 0A 00 1A E0 0F 
93.565 [RX] 01 03 34 43 5A 00 00 43 59 CC CD 43 5A 4C CD 42 FC 66 66 42 FB 33 33 42 FB CC CD 43 48 66 66 43 2B 99 9A 43 29 00 00 42 82 B8 52 41 C3 0A 3D 41 A4 A3 D7 41 A3 0A 3D 8E 40 
93.739 [RX] 01 03 00 2B 00 01 F4 02 
93.753 [RX] 01 03 02 53 48 84 82 
94.039 [RX] 01 03 18 1E 00 10 22 A0 
94.054 [RX] 01 03 20 47 C7 E9 98 47 0A 7E E8 46 F9 41 60 47 08 B3 98 47 C7 CA D8 45 28 1C 80 44 53 BC 00 44 63 8E 00 91 6E 
94.243 [RX] 01 03 15 0A 00 1A E0 0F 
94.257 [RX] 01 03 34 43 59 E6 66 43 59 CC CD 43 5A 33 33 42 FC 33 33 42 FB 33 33 42 FB CC CD 43 48 33 33 43 2A 33 33 43 28 99 9A 42 82 EB 85 41 C3 AE 14 41 A4 7A E1 41 A3 5C 29 B0 30 
94.539 [RX] 01 03 20 44 00 02 8F DE 
94.552 [RX] 01 03 04 45 BB 60 00 B7 1A 
94.747 [RX] 01 03 15 0A 00 1A E0 0F 
94.765 [RX] 01 03 34 43 59 E6 66 43 59 CC CD 43 5A 33 33 42 FC 33 33 42 FB 33 33 42 FB CC CD 43 48 33 33 43 2A 33 33 43 28 99 9A 42 84 28 F6 41 C5 47 AE 41 A6 3D 71 41 A4 F5 C3 6C 20 
95.040 [RX] 01 03 18 1E 00 10 22 A0 
95.058 [RX] 01 03 20 47 C7 E9 98 47 0A 7E E8 46 F9 41 60 47 08 B3 98 47 C7 CA D8 45 28 1C 80 44 53 BC 00 44 63 8E 00 91 6E 
95.251 [RX] 01 03 15 0A 00 1A E0 0F 
95.267 [RX] 01 03 34 43 59 E6 66 43 59 CC CD 43 5A 33 33 42 FC 33 33 42 FB 33 33 42 FB CC CD 43 49 CC CD 43 2C 00 00 43 2A 66 66 42 86 99 9A 41 C4 CC CD 41 A5 70 A4 41 AF D7 0A 44 BD 
95.545 [RX] 01 03 20 44 00 02 8F DE 
95.559 [RX] 01 03 04 45 BB 60 00 B7 1A 
95.839 [RX] 01 03 15 0A 00 1A E0 0F 
95.854 [RX] 01 03 34 43 5A 33 33 43 5A 00 00 43 5A 66 66 42 FC 66 66 42 FB 99 9A 42 FC 00 00 43 48 66 66 43 2A 00 00 43 32 99 9A 42 85 B8 52 41 C4 28 F6 41 A5 C2 8F 41 AC CC CD 7E 83 
96.048 [RX] 01 03 18 1E 00 10 22 A0 
96.064 [RX] 01 03 20 47 C7 E9 9C 47 0A 7E E8 46 F9 41 71 47 08 B3 98 47 C7 CA DC 45 28 1C 80 44 53 BC 00 44 63 8E 00 9D AD 
96.239 [RX] 01 03 00 2B 00 01 F4 02 
96.255 [RX] 01 03 02 53 48 84 82 
96.539 [RX] 01 03 15 0A 00 1A E0 0F 
96.555 [RX] 01 03 34 43 5A 4C CD 43 5A 00 00 43 5A 66 66 42 FC 99 9A 42 FB 99 9A 42 FC 00 00 43 48 33 33 43 2B 00 00 43 30 99 9A 42 85 C2 8F 41 C4 7A E1 41 A6 14 7B 41 AC 51 EC E0 FB 
96.741 [RX] 01 03 20 44 00 02 8F DE 
96.790 [RX] 01 03 04 45 BB 60 00 B7 1A 
97.039 [RX] 01 03 15 0A 00 1A E0 0F 
97.054 [RX] 01 03 34 43 5A 4C CD 43 5A 00 00 43 5A 66 66 42 FC 99 9A 42 FB 99 9A 42 FC 00 00 43 48 CC CD 43 2B 99 9A 43 31 33 33 42 86 8F 5C 41 C5 C2 8F 41 A6 B8 52 41 AD 70 A4 FD 1D 
97.245 [RX] 01 03 18 1E 00 10 22 A0 
97.260 [RX] 01 03 20 47 C7 E9 9C 47 0A 7E E8 46 F9 41 71 47 08 B3 98 47 C7 CA E0 45 28 1C 80 44 53 BC 00 44 63 8E 00 CD 91 
97.539 [RX] 01 03 15 0A 00 1A E0 0F 
97.556 [RX] 01 03 34 43 5A 4C CD 43 5A 19 9A 43 5A 80 00 42 FC 99 9A 42 FB 99 9A 42 FC 33 33 43 4A 00 00 43 2C 00 00 43 31 CC CD 42 85 0A 3D 41 C3 33 33 41 A5 1E B8 41 AB D7 0A 48 11 
97.749 [RX] 01 03 20 44 00 02 8F DE 
97.765 [RX] 01 03 04 45 BB 60 00 B7 1A 
98.044 [RX] 01 03 15 0A 00 1A E0 0F 
98.057 [RX] 01 03 34 43 5A 4C CD 43 5A 19 9A 43 5A 80 00 42 FC 99 9A 42 FB 99 9A 42 FC 33 33 43 48 33 33 43 2A 99 9A 43 30 66 66 42 85 70 A4 41 C4 51 EC 41 A5 47 AE 41 AC 00 00 94 A9 
98.344 [RX] 01 03 18 1E 00 10 22 A0 
98.359 [RX] 01 03 20 47 C7 E9 A4 47 0A 7E F0 46 F9 41 71 47 08 B3 A0 47 C7 CA E0 45 28 1C 80 44 53 BC 00 44 63 8E 00 A0 A9 
