[RX] 01 03 20 44 00 02 8F DE 01 03 04 45 BB 90 00 F3 1A 
[RX] 01 03 15 0A 00 1A E0 0F 01 03 34 43 58 66 66 43 58 66 66 43 58 99 9A 42 FA 33 33 42 F9 99 9A 42 FA 33 33 43 80 19 9A 43 62 00 00 43 5B 33 33 42 AB C2 8F 41 FC F5 C3 41 D9 C2 8F 41 D8 28 F6 DA E1 
[RX] 01 03 18 1E 00 10 22 A0 01 03 20 47 C2 70 68 47 06 C0 88 46 F2 30 60 47 05 08 18 47 C2 51 A8 45 28 1C 80 44 53 BC 00 44 63 8E 00 E8 68 
[RX] 01 03 15 0A 00 1A E0 0F 01 03 34 43 58 66 66 43 58 66 66 43 58 99 9A 42 FA 33 33 42 F9 99 9A 42 FA 33 33 43 80 4C CD 43 62 CC CD 43 5B 99 9A 42 AC 14 7B 41 FE 14 7B 41 D9 C2 8F 41 D8 51 EC 7C 48 
[RX] 01 03 20 44 00 02 8F DE 01 03 04 45 BB 90 00 F3 1A 
[RX] 01 03 00 2B 00 01 F4 02 01 03 02 53 48 84 82 
[RX] 01 03 15 0A 00 1A E0 0F 01 03 34 43 58 66 66 43 58 66 66 43 58 99 9A 42 FA 33 33 42 F9 99 9A 42 FA 33 33 43 81 19 9A 43 62 99 9A 43 5C 00 00 42 AB 3D 71 41 FD 99 9A 41 D8 7A E1 41 D6 B8 52 7B F8 
[RX] 01 03 18 1E 00 10 22 A0 01 03 20 47 C2 70 6C 47 06 C0 88 46 F2 30 60 47 05 08 20 47 C2 51 AC 45 28 1C 80 44 53 BC 00 44 63 8E 00 75 26 
[RX] 01 03 15 0A 00 1A E0 0F 01 03 34 43 58 66 66 43 58 66 66 43 58 99 9A 42 FA 33 33 42 F9 99 9A 42 FA 33 33 43 80 E6 66 43 62 00 00 43 5A CC CD 42 AB 14 7B 41 FD 99 9A 41 D7 AE 14 41 D6 B8 52 1D 81 
[RX] 01 03 20 44 00 02 8F DE 01 03 04 45 BB 90 00 F3 1A 
[RX] 01 03 15 0A 00 1A E0 0F 01 03 34 43 58 66 66 43 58 66 66 43 58 99 9A 42 FA 33 33 42 F9 99 9A 42 FA 33 33 43 80 B3 33 43 61 66 66 43 5B 33 33 42 AA E1 48 41 FC A3 D7 41 D7 85 1F 41 D7 0A 3D FF 95 01 03 18 1E 00 10 22 A0 01 03 20 47 C2 70 74 47 06 C0 90 46 F2 30 71 47 05 08 20 47 C2 51 B1 45 28 1C 80 44 53 BC 00 44 63 8E 00 A4 76 
[RX] 01 03 15 0A 00 1A E0 0F 01 03 34 43 58 66 66 43 58 66 66 43 58 99 9A 42 FA 33 33 42 F9 99 9A 42 FA 33 33 43 81 33 33 43 63 00 00 43 5C 99 9A 42 AC 33 33 41 FE B8 52 41 D9 47 AE 41 D8 CC CD 93 C0 01 03 20 44 00 02 8F DE 01 03 04 45 BB 90 00 F3 1A 
[RX] 01 03 15 0A 00 1A E0 0F 01 03 34 43 58 4C CD 43 58 4C CD 43 58 99 9A 42 FA 33 33 42 F9 66 66 42 FA 33 33 43 80 CC CD 43 61 33 33 43 5B 99 9A 42 AA 8F 5C 41 FC A3 D7 41 D6 66 66 41 D7 0A 3D 37 E0 01 03 00 2B 00 01 F4 02 01 03 02 53 48 84 82 
[RX] 01 03 18 1E 00 10 22 A0 01 03 20 47 C2 70 74 47 06 C0 90 46 F2 30 71 47 05 08 20 47 C2 51 B4 45 28 1C 80 44 53 BC 00 44 63 8E 00 A8 73 
[RX] 01 03 15 0A 00 1A E0 0F 01 03 34 43 58 66 66 43 58 66 66 43 58 99 9A 42 FA 33 33 42 F9 99 9A 42 FA 33 33 43 80 66 66 43 60 CC CD 43 5B 33 33 42 AA D7 0A 41 FC CC CD 41 D7 33 33 41 D7 0A 3D 01 FE 
[RX] 01 03 20 44 00 02 8F DE 01 03 04 45 BB 90 00 F3 1A 
[RX] 01 03 15 0A 00 1A E0 0F 01 03 34 43 58 66 66 43 58 66 66 43 58 99 9A 42 FA 33 33 42 F9 99 9A 42 FA 33 33 43 80 E6 66 43 61 99 9A 43 5C 33 33 42 AB 8F 5C 41 FD EB 85 41 D8 00 00 41 D8 28 F6 1D 3C 
[RX] 01 03 18 1E 00 10 22 A0 01 03 20 47 C2 70 78 47 06 C0 90 46 F2 30 71 47 05 08 28 47 C2 51 B8 45 28 1C 80 44 53 BC 00 44 63 8E 00 3E 74 
[RX] 01 03 15 0A 00 1A E0 0F 01 03 34 43 58 66 66 43 58 66 66 43 58 99 9A 42 FA 33 33 42 F9 99 9A 42 FA 33 33 43 81 00 00 43 62 00 00 43 5C 33 33 42 AA F5 C3 41 FC A3 D7 41 D7 85 1F 41 D7 85 1F 64 FD 
[RX] 01 03 20 44 00 02 8F DE 01 03 04 45 BB 98 00 F4 DA 
[RX] 01 03 15 0A 00 1A E0 0F 01 03 34 43 58 4C CD 43 58 4C CD 43 58 99 9A 42 FA 33 33 42 F9 66 66 42 FA 33 33 43 80 33 33 43 60 99 9A 43 5B 33 33 42 AA 5C 29 41 FC 00 00 41 D6 66 66 41 D6 B8 52 8B C7 01 03 18 1E 00 10 22 A0 01 03 20 47 C2 70 7C 47 06 C0 98 46 F2 30 71 47 05 08 28 47 C2 51 BC 45 28 1C 80 44 53 BC 00 44 63 8E 00 9A BD 01 03 00 2B 00 01 F4 02 01 03 02 53 48 84 82 
[RX] 01 03 15 0A 00 1A E0 0F 01 03 34 43 58 4C CD 43 58 4C CD 43 58 99 9A 42 FA 33 33 42 F9 66 66 42 FA 33 33 43 80 4C CD 43 61 00 00 43 5C 00 00 42 AB C2 8F 41 FD 47 AE 41 D8 CC CD 41 D8 CC CD 93 11 
[RX] 01 03 20 44 00 02 8F DE 01 03 04 45 BB 98 00 F4 DA 
[RX] 01 03 15 0A 00 1A E0 0F 01 03 34 43 58 33 33 43 58 4C CD 43 58 80 00 42 FA 00 00 42 F9 66 66 42 FA 33 33 43 81 19 9A 43 62 CC CD 43 5D 66 66 42 AB 99 9A 41 FD 1E B8 41 D8 28 F6 41 D8 F5 C3 80 D3 01 03 18 1E 00 10 22 A0 01 03 20 47 C2 70 80 47 06 C0 98 46 F2 30 80 47 05 08 28 47 C2 51 C0 45 28 1C 80 44 53 BC 00 44 63 8E 00 C0 D2 
[RX] 01 03 15 0A 00 1A E0 0F 01 03 34 43 58 19 9A 43 58 33 33 43 58 80 00 42 FA 00 00 42 F9 33 33 42 FA 33 33 43 80 00 00 43 61 66 66 43 5C 00 00 42 AB 33 33 41 FC 7A E1 41 D8 51 EC 41 D7 D7 0A FD 1B 
[RX] 01 03 20 44 00 02 8F DE 01 03 04 45 BB 98 00 F4 DA 
[RX] 01 03 15 0A 00 1A E0 0F 01 03 34 43 58 66 66 43 58 66 66 43 58 99 9A 42 FA 33 33 42 F9 99 9A 42 FA 33 33 43 80 4C CD 43 62 66 66 43 5B 66 66 42 AB B8 52 41 FC F5 C3 41 D9 C2 8F 41 D8 00 00 C6 B6 
[RX] 01 03 18 1E 00 10 22 A0 01 03 20 47 C2 70 80 47 06 C0 98 46 F2 30 80 47 05 08 28 47 C2 51 C4 45 28 1C 80 44 53 BC 00 44 63 8E 00 CE 56 
[RX] 01 03 15 0A 00 1A E0 0F 01 03 34 43 58 4C CD 43 58 4C CD 43 58 99 9A 42 FA 33 33 42 F9 66 66 42 FA 33 33 43 80 E6 66 43 62 CC CD 43 5D 33 33 42 AB A3 D7 41 FC CC CD 41 D9 1E B8 41 D8 7A E1 8C 58 01 03 00 2B 00 01 F4 02 01 03 02 53 48 84 82 
[RX] 01 03 20 44 00 02 8F DE 01 03 04 45 BB 98 00 F4 DA 
[RX] 01 03 15 0A 00 1A E0 0F 01 03 34 43 58 66 66 43 58 66 66 43 58 99 9A 42 FA 33 33 42 F9 99 9A 42 FA 33 33 43 80 66 66 43 62 CC CD 43 5C 99 9A 42 AB 8F 5C 41 FC 7A E1 41 D9 70 A4 41 D8 51 EC A7 3D 
[RX] 01 03 18 1E 00 10 22 A0 01 03 20 47 C2 70 88 47 06 C0 A0 46 F2 30 80 47 05 08 30 47 C2 51 C8 45 28 1C 80 44 53 BC 00 44 63 8E 00 00 26 
[RX] 01 03 15 0A 00 1A E0 0F 01 03 34 43 58 4C CD 43 58 4C CD 43 58 99 9A 42 FA 33 33 42 F9 66 66 42 FA 33 33 43 80 19 9A 43 62 66 66 43 5B CC CD 42 AB 00 00 41 FB D7 0A 41 D8 CC CD 41 D7 33 33 B8 26 
[RX] 01 03 20 44 00 02 8F DE 01 03 04 45 BB 90 00 F3 1A 
[RX] 01 03 15 0A 00 1A E0 0F 01 03 34 43 58 66 66 43 58 66 66 43 58 99 9A 42 FA 33 33 42 F9 99 9A 42 FA 33 33 43 80 33 33 43 62 66 66 43 5B CC CD 42 AC 5C 29 41 FD EB 85 41 DA 14 7B 41 D9 47 AE 5E 30 
[RX] 01 03 18 1E 00 10 22 A0 01 03 20 47 C2 70 8C 47 06 C0 A0 46 F2 30 8F 47 05 08 30 47 C2 51 C8 45 28 1C 80 44 53 BC 00 44 63 8E 00 FF DE 
[RX] 01 03 15 0A 00 1A E0 0F 01 03 34 43 58 4C CD 43 58 4C CD 43 58 99 9A 42 FA 33 33 42 F9 66 66 42 FA 33 33 43 81 33 33 43 62 CC CD 43 5D 33 33 42 AC 33 33 41 FE 3D 71 41 D9 70 A4 41 D9 1E B8 FD 43 
[RX] 01 03 20 44 00 02 8F DE 01 03 04 45 BB 90 00 F3 1A 
[RX] 01 03 00 2B 00 01 F4 02 01 03 02 53 48 84 82 
[RX] 01 03 15 0A 00 1A E0 0F 01 03 34 43 58 4C CD 43 58 4C CD 43 58 99 9A 42 FA 33 33 42 F9 66 66 42 FA 33 33 43 80 19 9A 43 60 66 66 43 5A CC CD 42 AB 00 00 41 FC F5 C3 41 D7 85 1F 41 D7 33 33 D5 69 
[RX] 01 03 18 1E 00 10 22 A0 01 03 20 47 C2 70 8C 47 06 C0 A0 46 F2 30 8F 47 05 08 30 47 C2 51 CC 45 28 1C 80 44 53 BC 00 44 63 8E 00 F1 5A 
[RX] 01 03 15 0A 00 1A E0 0F 01 03 34 43 58 4C CD 43 58 4C CD 43 58 99 9A 42 FA 33 33 42 F9 66 66 42 FA 33 33 43 80 B3 33 43 61 99 9A 43 5B 00 00 42 AB 66 66 41 FD 99 9A 41 D8 51 EC 41 D7 85 1F 15 53 
[RX] 01 03 20 44 00 02 8F DE 01 03 04 45 BB 90 00 F3 1A 
[RX] 01 03 15 0A 00 1A E0 0F 01 03 34 43 58 4C CD 43 58 4C CD 43 58 99 9A 42 FA 33 33 42 F9 66 66 42 FA 33 33 43 80 B3 33 43 61 66 66 43 5B 66 66 42 AB AE 14 41 FD C2 8F 41 D8 A3 D7 41 D8 00 00 5A 81 01 03 18 1E 00 10 22 A0 01 03 20 47 C2 70 8F 47 06 C0 A8 46 F2 30 8F 47 05 08 30 47 C2 51 CF 45 28 1C 80 44 53 BC 00 44 63 8E 00 1E D1 
[RX] 01 03 15 0A 00 1A E0 0F 
[RX] 01 03 34 43 58 4C CD 43 58 4C CD 43 58 99 9A 42 FA 33 33 42 F9 66 66 42 FA 33 33 43 80 CC CD 43 62 33 33 43 5C 66 66 42 AB 99 9A 41 FD 70 A4 41 D8 A3 D7 41 D8 51 EC 41 FC 01 03 20 44 00 02 8F DE 01 03 04 45 BB 90 00 F3 1A 
[RX] 01 03 15 0A 00 1A E0 0F 01 03 34 43 58 4C CD 43 58 4C CD 43 58 99 9A 42 FA 33 33 42 F9 66 66 42 FA 33 33 43 80 CC CD 43 62 33 33 43 5C 66 66 42 AA 1E B8 41 FB 85 1F 41 D6 B8 52 41 D6 14 7B 01 FD 01 03 00 2B 00 01 F4 02 01 03 02 53 48 84 82 
[RX] 01 03 18 1E 00 10 22 A0 01 03 20 47 C2 70 94 47 06 C0 A8 46 F2 30 8F 47 05 08 38 47 C2 51 D4 45 28 1C 80 44 53 BC 00 44 63 8E 00 FD 18 
[RX] 01 03 15 0A 00 1A E0 0F 01 03 34 43 58 66 66 43 58 80 00 43 58 B3 33 42 FA 33 33 42 F9 99 9A 42 FA 66 66 43 7F CC CD 43 60 99 9A 43 5B 66 66 42 AA F5 C3 41 FC 00 00 41 D7 AE 14 41 D7 D7 0A 75 1E 
[RX] 01 03 20 44 00 02 8F DE 01 03 04 45 BB 88 00 F9 1A 
[RX] 01 03 15 0A 00 1A E0 0F 01 03 34 43 58 66 66 43 58 80 00 43 58 CC CD 42 FA 33 33 42 F9 99 9A 42 FA 99 9A 43 80 80 00 43 61 CC CD 43 5C CC CD 42 AB 8F 5C 41 FC F5 C3 41 D8 51 EC 41 D8 CC CD 39 B3 
[RX] 01 03 18 1E 00 10 22 A0 01 03 20 47 C2 70 98 47 06 C0 A8 46 F2 30 A0 47 05 08 38 47 C2 51 D8 45 28 1C 80 44 53 BC 00 44 63 8E 00 34 40 
[RX] 01 03 15 0A 00 1A E0 0F 01 03 34 43 58 66 66 43 58 80 00 43 58 CC CD 42 FA 33 33 42 F9 99 9A 42 FA 99 9A 43 80 80 00 43 61 CC CD 43 5C CC CD 42 AB 14 7B 41 FC 51 EC 41 D8 00 00 41 D7 D7 0A AF 9E 
[RX] 01 03 20 44 00 02 8F DE 01 03 04 45 BB 88 00 F9 1A 
[RX] 01 03 15 0A 00 1A E0 0F 01 03 34 43 58 80 00 43 58 80 00 43 58 CC CD 42 FA 66 66 42 F9 99 9A 42 FA 66 66 43 80 00 00 43 60 99 9A 43 5B 00 00 42 AA A3 D7 41 FC 00 00 41 D7 5C 29 41 D7 0A 3D 93 DD 01 03 18 1E 00 10 22 A0 01 03 20 47 C2 70 9C 47 06 C0 B0 46 F2 30 A0 47 05 08 38 47 C2 51 DC 45 28 1C 80 44 53 BC 00 44 63 8E 00 C4 1C 01 03 00 2B 00 01 F4 02 01 03 02 53 48 84 82 
[RX] 01 03 15 0A 00 1A E0 0F 01 03 34 43 58 66 66 43 58 80 00 43 58 B3 33 42 FA 33 33 42 F9 99 9A 42 FA 66 66 43 80 19 9A 43 60 99 9A 43 5B 00 00 42 AB 66 66 41 FC A3 D7 41 D8 7A E1 41 D8 28 F6 1E 72 
[RX] 01 03 20 44 00 02 8F DE 01 03 04 45 BB 88 00 F9 1A 
[RX] 01 03 15 0A 00 1A E0 0F 01 03 34 43 58 66 66 43 58 66 66 43 58 99 9A 42 FA 33 33 42 F9 99 9A 42 FA 33 33 43 80 CC CD 43 63 33 33 43 5C 99 9A 42 AB AE 14 41 FD 1E B8 41 D9 47 AE 41 D8 51 EC 44 D2 01 03 18 1E 00 10 22 A0 01 03 20 47 C2 70 A0 47 06 C0 B0 46 F2 30 A0 47 05 08 40 47 C2 51 E0 45 28 1C 80 44 53 BC 00 44 63 8E 00 36 14 
[RX] 01 03 15 0A 00 1A E0 0F 01 03 34 43 58 66 66 43 58 66 66 43 58 99 9A 42 FA 33 33 42 F9 99 9A 42 FA 33 33 43 80 CC CD 43 63 33 33 43 5C 99 9A 42 AA D7 0A 41 FC 51 EC 41 D8 28 F6 41 D6 B8 52 BB DF 
[RX] 01 03 20 44 00 02 8F DE 01 03 04 45 BB 88 00 F9 1A 
[RX] 01 03 15 0A 00 1A E0 0F 01 03 34 43 58 66 66 43 58 66 66 43 58 99 9A 42 FA 33 33 42 F9 99 9A 42 FA 33 33 43 80 4C CD 43 62 00 00 43 5A CC CD 42 AA C2 8F 41 FB D7 0A 41 D8 28 F6 41 D6 E1 48 DE E4 
[RX] 01 03 18 1E 00 10 22 A0 01 03 20 47 C2 70 A4 47 06 C0 B0 46 F2 30 B1 47 05 08 40 47 C2 51 E4 45 28 1C 80 44 53 BC 00 44 63 8E 00 3A D7 
[RX] 01 03 15 0A 00 1A E0 0F 01 03 34 43 58 4C CD 43 58 4C CD 43 58 99 9A 42 FA 33 33 42 F9 66 66 42 FA 33 33 43 80 66 66 43 62 66 66 43 5B 99 9A 42 AC 14 7B 41 FD 99 9A 41 D9 C2 8F 41 D8 CC CD BE 9B 01 03 00 2B 00 01 F4 02 01 03 02 53 48 84 82 
[RX] 01 03 20 44 00 02 8F DE 01 03 04 45 BB 88 00 F9 1A 
[RX] 01 03 15 0A 00 1A E0 0F 01 03 34 43 58 66 66 43 58 66 66 43 58 99 9A 42 FA 33 33 42 F9 99 9A 42 FA 33 33 43 81 00 00 43 63 99 9A 43 5D 00 00 42 AB 7A E1 41 FC F5 C3 41 D9 47 AE 41 D7 85 1F C0 DE 
[RX] 01 03 18 1E 00 10 22 A0 01 03 20 47 C2 70 A8 47 06 C0 B8 46 F2 30 B1 47 05 08 40 47 C2 51 E8 45 28 1C 80 44 53 BC 00 44 63 8E 00 81 58 
[RX] 01 03 15 0A 00 1A E0 0F 01 03 34 43 58 66 66 43 58 66 66 43 58 99 9A 42 FA 33 33 42 F9 99 9A 42 FA 33 33 43 80 80 00 43 62 33 33 43 5A CC CD 42 AB 28 F6 41 FC F5 C3 41 D8 F5 C3 41 D6 66 66 6F BA 
[RX] 01 03 20 44 00 02 8F DE 01 03 04 45 BB 88 00 F9 1A 
[RX] 01 03 15 0A 00 1A E0 0F 01 03 34 43 58 4C CD 43 58 4C CD 43 58 99 9A 42 FA 33 33 42 F9 66 66 42 FA 33 33 43 80 4C CD 43 62 33 33 43 5B 00 00 42 AB A3 D7 41 FC F5 C3 41 DA 14 7B 41 D7 5C 29 7D C2 01 03 18 1E 00 10 22 A0 01 03 20 47 C2 70 A8 47 06 C0 B8 46 F2 30 B1 47 05 08 40 47 C2 51 E8 45 28 1C 80 44 53 BC 00 44 63 8E 00 81 58 
[RX] 01 03 15 0A 00 1A E0 0F 01 03 34 43 58 66 66 43 58 66 66 43 58 99 9A 42 FA 33 33 42 F9 99 9A 42 FA 33 33 43 80 99 9A 43 63 99 9A 43 5B 66 66 42 AC 51 EC 41 FD C2 8F 41 DA E1 48 41 D8 7A E1 09 65 01 03 20 44 00 02 8F DE 01 03 04 45 BB 88 00 F9 1A 
[RX] 01 03 00 2B 00 01 F4 02 01 03 02 53 48 84 82 
[RX] 01 03 15 0A 00 1A E0 0F 01 03 34 43 58 4C CD 43 58 4C CD 43 58 99 9A 42 FA 33 33 42 F9 66 66 42 FA 33 33 43 80 4C CD 43 64 66 66 43 5B 66 66 42 AA E1 48 41 FB 5C 29 41 D9 99 9A 41 D6 66 66 94 98 
[RX] 01 03 18 1E 00 10 22 A0 01 03 20 47 C2 70 AC 47 06 C0 B8 46 F2 30 B1 47 05 08 48 47 C2 51 EC 45 28 1C 80 44 53 BC 00 44 63 8E 00 08 19 
[RX] 01 03 15 0A 00 1A E0 0F 01 03 34 43 58 33 33 43 58 4C CD 43 58 80 00 42 FA 00 00 42 F9 66 66 42 FA 33 33 43 80 80 00 43 63 CC CD 43 5A CC CD 42 AB 66 66 41 FC 7A E1 41 DA 14 7B 41 D6 E1 48 A4 94 
[RX] 01 03 20 44 00 02 8F DE 01 03 04 45 BB 80 00 FE DA 
[RX] 01 03 15 0A 00 1A E0 0F 01 03 34 43 58 19 9A 43 58 33 33 43 58 80 00 42 FA 00 00 42 F9 33 33 42 FA 33 33 43 80 33 33 43 63 CC CD 43 5B 99 9A 42 AC 3D 71 41 FC CC CD 41 DB 0A 3D 41 D8 CC CD 70 9D 01 03 18 1E 00 10 22 A0 01 03 20 47 C2 70 B4 47 06 C0 C0 46 F2 30 C0 47 05 08 48 47 C2 51 F1 45 28 1C 80 44 53 BC 00 44 63 8E 00 4D 50 
[RX] 01 03 15 0A 00 1A E0 0F 01 03 34 43 58 19 9A 43 58 33 33 43 58 80 00 42 FA 00 00 42 F9 33 33 42 FA 33 33 43 80 66 66 43 68 66 66 43 5C 99 9A 42 AC AE 14 41 FC 00 00 41 DE B8 52 41 D7 D7 0A 99 F1 01 03 20 44 00 02 8F DE 01 03 04 45 BB 80 00 FE DA 
[RX] 01 03 15 0A 00 1A E0 0F 01 03 34 43 58 19 9A 43 58 19 9A 43 58 80 00 42 FA 00 00 42 F9 33 33 42 FA 00 00 43 7F CC CD 43 68 99 9A 43 5B 99 9A 42 AC 00 00 41 FA E1 48 41 DE 3D 71 41 D6 B8 52 9D 59 01 03 00 2B 00 01 F4 02 01 03 02 53 48 84 82 
[RX] 01 03 18 1E 00 10 22 A0 01 03 20 47 C2 70 B4 47 06 C0 C0 46 F2 30 C0 47 05 08 48 47 C2 51 F4 45 28 1C 80 44 53 BC 00 44 63 8E 00 41 55 
[RX] 01 03 15 0A 00 1A E0 0F 01 03 34 43 58 4C CD 43 58 4C CD 43 58 99 9A 42 FA 33 33 42 F9 66 66 42 FA 33 33 43 7F 99 9A 43 68 CC CD 43 5B 00 00 42 AC 47 AE 41 FA E1 48 41 DE 8F 5C 41 D7 5C 29 35 B2 
[RX] 01 03 20 44 00 02 8F DE 01 03 04 45 BB 80 00 FE DA 
[RX] 01 03 15 0A 00 1A E0 0F 01 03 34 43 58 33 33 43 58 19 9A 43 58 80 00 42 FA 33 33 42 F9 33 33 42 FA 00 00 43 80 66 66 43 69 00 00 43 5D 00 00 42 AD 51 EC 41 FC 7A E1 41 DF AE 14 41 D8 F5 C3 0A D6 01 03 18 1E 00 10 22 A0 01 03 20 47 C2 70 B4 47 06 C0 C0 46 F2 30 C0 47 05 08 48 47 C2 51 F8 45 28 1C 80 44 53 BC 00 44 63 8E 00 50 99 
[RX] 01 03 15 0A 00 1A E0 0F 01 03 34 43 58 19 9A 43 58 33 33 43 58 80 00 42 FA 00 00 42 F9 33 33 42 FA 33 33 43 80 80 00 43 68 CC CD 43 5B CC CD 42 AB CC CD 41 FB 85 1F 41 DC F5 C3 41 D6 8F 5C 5C 4A 
[RX] 01 03 20 44 00 02 8F DE 01 03 04 45 BB 80 00 FE DA 
[RX] 01 03 15 0A 00 1A E0 0F 01 03 34 43 58 33 33 43 58 33 33 43 58 99 9A 42 FA 33 33 42 F9 33 33 42 FA 33 33 43 80 33 33 43 66 66 66 43 5A CC CD 42 AB CC CD 41 FB 85 1F 41 DC A3 D7 41 D6 B8 52 E1 E9 
[RX] 01 03 18 1E 00 10 22 A0 01 03 20 47 C2 70 C0 47 06 C0 C8 46 F2 30 CF 47 05 08 50 47 C2 51 FC 45 28 1C 80 44 53 BC 00 44 63 8E 00 81 FC 
[RX] 01 03 00 2B 00 01 F4 02 01 03 02 53 48 84 82 
[RX] 01 03 15 0A 00 1A E0 0F 01 03 34 43 58 33 33 43 58 4C CD 43 58 80 00 42 FA 00 00 42 F9 66 66 42 FA 33 33 43 80 80 00 43 68 66 66 43 5C 00 00 42 AD 5C 29 41 FD 47 AE 41 DF AE 14 41 D8 7A E1 44 60 
[RX] 01 03 20 44 00 02 8F DE 01 03 04 45 BB 80 00 FE DA 
[RX] 01 03 15 0A 00 1A E0 0F 01 03 34 43 58 33 33 43 58 33 33 43 58 80 00 42 FA 00 00 42 F9 66 66 42 FA 00 00 43 80 19 9A 43 64 00 00 43 62 66 66 42 AC 5C 29 41 FB 5C 29 41 D9 EB 85 41 DC 28 F6 49 43 
[RX] 01 03 18 1E 00 10 22 A0 01 03 20 47 C2 70 C0 47 06 C0 C8 46 F2 30 CF 47 05 08 50 47 C2 52 00 45 28 1C 80 44 53 BC 00 44 63 8E 00 D3 C2 
[RX] 01 03 15 0A 00 1A E0 0F 01 03 34 43 58 19 9A 43 58 33 33 43 58 66 66 42 F9 CC CD 42 F9 66 66 42 FA 00 00 43 7F 33 33 43 63 33 33 43 63 33 33 42 AE CC CD 41 FC 00 00 41 DB 33 33 41 E3 D7 0A D9 CA 01 03 20 44 00 02 8F DE 01 03 04 45 BB 80 00 FE DA 
[RX] 01 03 15 0A 00 1A E0 0F 01 03 34 43 58 33 33 43 58 19 9A 43 58 66 66 42 FA 00 00 42 F9 66 66 42 F9 CC CD 43 80 4C CD 43 63 00 00 43 66 CC CD 42 AE 28 F6 41 FC 28 F6 41 D9 C2 8F 41 E2 8F 5C 64 4A 
[RX] 01 03 18 1E 00 10 22 A0 01 03 20 47 C2 70 C0 47 06 C0 C8 46 F2 30 CF 47 05 08 50 47 C2 52 04 45 28 1C 80 44 53 BC 00 44 63 8E 00 DD 46 
[RX] 01 03 15 0A 00 1A E0 0F 01 03 34 43 58 33 33 43 58 19 9A 43 58 66 66 42 FA 00 00 42 F9 66 66 42 F9 CC CD 43 80 4C CD 43 63 00 00 43 66 CC CD 42 AD CC CD 41 FC 28 F6 41 D9 C2 8F 41 E1 1E B8 05 0F 01 03 00 2B 00 01 F4 02 01 03 02 53 48 84 82 
[RX] 01 03 20 44 00 02 8F DE 01 03 04 45 BB 80 00 FE DA 
[RX] 01 03 15 0A 00 1A E0 0F 01 03 34 43 58 33 33 43 58 4C CD 43 58 80 00 42 FA 00 00 42 F9 66 66 42 FA 33 33 43 80 4C CD 43 63 33 33 43 65 33 33 42 AC 51 EC 41 FA E1 48 41 D9 1E B8 41 DC F5 C3 20 27 
[RX] 01 03 18 1E 00 10 22 A0 01 03 20 47 C2 70 C8 47 06 C0 D0 46 F2 30 CF 47 05 08 58 47 C2 52 04 45 28 1C 80 44 53 BC 00 44 63 8E 00 A4 55 
[RX] 01 03 15 0A 00 1A E0 0F 01 03 34 43 58 00 00 43 58 19 9A 43 58 66 66 42 F9 CC CD 42 F9 33 33 42 FA 00 00 43 7F 66 66 43 62 CC CD 43 60 66 66 42 AC AE 14 41 FB D7 0A 41 D9 C2 8F 41 DD 1E B8 5E A9 
[RX] 01 03 20 44 00 02 8F DE 01 03 04 45 BB 88 00 F9 1A 
[RX] 01 03 15 0A 00 1A E0 0F 01 03 34 43 58 33 33 43 58 33 33 43 58 99 9A 42 FA 33 33 42 F9 33 33 42 FA 33 33 43 80 99 9A 43 65 33 33 43 5E 33 33 42 AC C2 8F 41 FC A3 D7 41 DC 28 F6 41 DA 14 7B 4C 95 01 03 18 1E 00 10 22 A0 01 03 20 47 C2 70 CC 47 06 C0 D0 46 F2 30 E0 47 05 08 58 47 C2 52 0C 45 28 1C 80 44 53 BC 00 44 63 8E 00 63 87 
[RX] 01 03 15 0A 00 1A E0 0F 01 03 34 43 58 33 33 43 58 33 33 43 58 99 9A 42 FA 33 33 42 F9 33 33 42 FA 33 33 43 80 99 9A 43 65 33 33 43 5E 33 33 42 AB 1E B8 41 FB 0A 3D 41 DA 14 7B 41 D7 5C 29 8E 9C 01 03 20 44 00 02 8F DE 01 03 04 45 BB 88 00 F9 1A 
[RX] 01 03 00 2B 00 01 F4 02 01 03 02 53 48 84 82 
[RX] 01 03 15 0A 00 1A E0 0F 01 03 34 43 58 4C CD 43 58 66 66 43 58 B3 33 42 FA 33 33 42 F9 66 66 42 FA 66 66 43 7F 66 66 43 63 99 9A 43 5B 99 9A 42 A9 C2 8F 41 F7 0A 3D 41 D7 85 1F 41 D8 51 EC 3E 4A 
[RX] 01 03 18 1E 00 10 22 A0 01 03 20 47 C2 70 CC 47 06 C0 D0 46 F2 30 E0 47 05 08 58 47 C2 52 0C 45 28 1C 80 44 53 BC 00 44 63 8E 00 63 87 
[RX] 01 03 15 0A 00 1A E0 0F 01 03 34 43 58 33 33 43 58 33 33 43 58 99 9A 42 FA 33 33 42 F9 33 33 42 FA 33 33 43 7B 33 33 43 60 99 9A 43 5C 00 00 42 A9 8F 5C 41 F6 8F 5C 41 D7 5C 29 41 D8 28 F6 DA FD 
[RX] 01 03 20 44 00 02 8F DE 01 03 04 45 BB 88 00 F9 1A 
[RX] 01 03 15 0A 00 1A E0 0F 01 03 34 43 58 33 33 43 58 33 33 43 58 99 9A 42 FA 33 33 42 F9 33 33 42 FA 33 33 43 7B 00 00 43 61 99 9A 43 5C 66 66 42 A9 A3 D7 41 F6 3D 71 41 D8 00 00 41 D8 28 F6 97 8D 01 03 18 1E 00 10 22 A0 01 03 20 47 C2 70 CC 47 06 C0 D0 46 F2 30 E0 47 05 08 58 47 C2 52 0F 45 28 1C 80 44 53 BC 00 44 63 8E 00 66 44 
[RX] 01 03 15 0A 00 1A E0 0F 01 03 34 43 58 33 33 43 58 33 33 43 58 99 9A 42 FA 33 33 42 F9 33 33 42 FA 33 33 43 7B 00 00 43 61 99 9A 43 5C 66 66 42 A9 66 66 41 F6 E1 48 41 D6 E1 48 41 D7 AE 14 DE 6A 01 03 20 44 00 02 8F DE 01 03 04 45 BB 88 00 F9 1A 
[RX] 01 03 00 2B 00 01 F4 02 01 03 02 53 48 84 82 
[RX] 01 03 15 0A 00 1A E0 0F 01 03 34 43 58 33 33 43 58 33 33 43 58 99 9A 42 FA 33 33 42 F9 33 33 42 FA 33 33 43 7E CC CD 43 60 66 66 43 5B CC CD 42 AC 7A E1 41 FB D7 0A 41 D9 47 AE 41 DC A3 D7 46 55 01 03 18 1E 00 10 22 A0 01 03 20 47 C2 70 D8 47 06 C0 D8 46 F2 30 F1 47 05 08 60 47 C2 52 14 45 28 1C 80 44 53 BC 00 44 63 8E 00 79 83 
[RX] 01 03 15 0A 00 1A E0 0F 01 03 34 43 58 4C CD 43 58 4C CD 43 58 99 9A 42 FA 33 33 42 F9 66 66 42 FA 33 33 43 80 19 9A 43 62 66 66 43 60 CC CD 42 AD 0A 3D 41 FB D7 0A 41 D9 70 A4 41 DE B8 52 AE 9D 
[RX] 01 03 20 44 00 02 8F DE 01 03 04 45 BB 88 00 F9 1A 
[RX] 01 03 15 0A 00 1A E0 0F 01 03 34 43 58 66 66 43 58 80 00 43 58 B3 33 42 FA 33 33 42 F9 99 9A 42 FA 66 66 43 7F 66 66 43 61 00 00 43 61 33 33 42 AB 66 66 41 F9 99 9A 41 D7 D7 0A 41 DC 00 00 8A 2C 01 03 18 1E 00 10 22 A0 01 03 20 47 C2 70 D8 47 06 C0 D8 46 F2 30 F1 47 05 08 60 47 C2 52 18 45 28 1C 80 44 53 BC 00 44 63 8E 00 68 4F 
[RX] 01 03 15 0A 00 1A E0 0F 01 03 34 43 58 4C CD 43 58 4C CD 43 58 99 9A 42 FA 33 33 42 F9 66 66 42 FA 33 33 43 7D 99 9A 43 60 99 9A 43 5E CC CD 42 AB 47 AE 41 FA 3D 71 41 D7 0A 3D 41 DB AE 14 72 93 
[RX] 01 03 20 44 00 02 8F DE 01 03 04 45 BB 88 00 F9 1A 
[RX] 01 03 15 0A 00 1A E0 0F 01 03 34 43 58 4C CD 43 58 4C CD 43 58 99 9A 42 FA 33 33 42 F9 66 66 42 FA 33 33 43 7E CC CD 43 60 00 00 43 5F 66 66 42 AC 8F 5C 41 FA E1 48 41 D7 D7 0A 41 DF 5C 29 C2 D4 01 03 00 2B 00 01 F4 02 01 03 02 53 48 84 82 
[RX] 01 03 18 1E 00 10 22 A0 01 03 20 47 C2 70 D8 47 06 C0 D8 46 F2 30 F1 47 05 08 60 47 C2 52 1C 45 28 1C 80 44 53 BC 00 44 63 8E 00 66 CB 
[RX] 01 03 15 0A 00 1A E0 0F 01 03 34 43 58 4C CD 43 58 4C CD 43 58 99 9A 42 FA 33 33 42 F9 66 66 42 FA 33 33 43 7F CC CD 43 61 33 33 43 64 33 33 42 AC E1 48 41 FB 33 33 41 D8 7A E1 41 DF AE 14 DE 79 
[RX] 01 03 20 44 00 02 8F DE 01 03 04 45 BB 88 00 F9 1A 
[RX] 01 03 15 0A 00 1A E0 0F 01 03 34 43 58 33 33 43 58 4C CD 43 58 80 00 42 FA 00 00 42 F9 66 66 42 FA 33 33 43 7F CC CD 43 61 CC CD 43 63 99 9A 42 AC 3D 71 41 F9 C2 8F 41 D8 7A E1 41 DE 8F 5C 8C 56 
[RX] 01 03 18 1E 00 10 22 A0 01 03 20 47 C2 70 E0 47 06 C0 E0 46 F2 30 F1 47 05 08 68 47 C2 52 20 45 28 1C 80 44 53 BC 00 44 63 8E 00 E4 AA 
[RX] 01 03 15 0A 00 1A E0 0F 01 03 34 43 58 66 66 43 58 66 66 43 58 99 9A 42 FA 33 33 42 F9 99 9A 42 FA 33 33 43 7E 00 00 43 61 99 9A 43 62 CC CD 42 AB EB 85 41 F6 E1 48 41 D8 A3 D7 41 E0 00 00 1D FE 01 03 20 44 00 02 8F DE 01 03 04 45 BB 88 00 F9 1A 
[RX] 01 03 15 0A 00 1A E0 0F 01 03 34 43 58 66 66 43 58 66 66 43 58 99 9A 42 FA 33 33 42 F9 99 9A 42 FA 33 33 43 7A CC CD 43 61 66 66 43 63 CC CD 42 AC 66 66 41 F6 B8 52 41 D9 EB 85 41 E0 CC CD D7 28 
[RX] 01 03 00 2B 00 01 F4 02 01 03 02 53 48 84 82 
[RX] 01 03 18 1E 00 10 22 A0 01 03 20 47 C2 70 E4 47 06 C0 E0 46 F2 31 00 47 05 08 68 47 C2 52 24 45 28 1C 80 44 53 BC 00 44 63 8E 00 CE CB 
[RX] 01 03 15 0A 00 1A E0 0F 01 03 34 43 58 80 00 43 58 66 66 43 58 B3 33 42 FA 66 66 42 F9 99 9A 42 FA 33 33 43 7A 00 00 43 62 33 33 43 64 33 33 42 AB 99 9A 41 F5 99 9A 41 D8 28 F6 41 E0 51 EC 6C BD 
[RX] 01 03 20 44 00 02 8F DE 01 03 04 45 BB 88 00 F9 1A 
[RX] 01 03 15 0A 00 1A E0 0F 01 03 34 43 58 66 66 43 58 66 66 43 58 99 9A 42 FA 33 33 42 F9 99 9A 42 FA 33 33 43 79 CC CD 43 60 99 9A 43 63 99 9A 42 AB 7A E1 41 F5 99 9A 41 D8 00 00 41 E0 28 F6 FA 17 
[RX] 01 03 18 1E 00 10 22 A0 01 03 20 47 C2 70 E4 47 06 C0 E0 46 F2 31 00 47 05 08 68 47 C2 52 24 45 28 1C 80 44 53 BC 00 44 63 8E 00 CE CB 
[RX] 01 03 15 0A 00 1A E0 0F 01 03 34 43 58 80 00 43 58 80 00 43 58 E6 66 42 FA 99 9A 42 F9 99 9A 42 FA 66 66 43 79 CC CD 43 60 99 9A 43 63 00 00 42 AD 85 1F 41 F6 E1 48 41 DC F5 C3 41 E0 CC CD A3 6A 
[RX] 01 03 20 44 00 02 8F DE 01 03 04 45 BB 88 00 F9 1A 
[RX] 01 03 15 0A 00 1A E0 0F 01 03 34 43 58 80 00 43 58 80 00 43 58 E6 66 42 FA 99 9A 42 F9 99 9A 42 FA 66 66 43 7A 99 9A 43 67 00 00 43 64 66 66 42 AC 0A 3D 41 F5 99 9A 41 DD 47 AE 41 DC F5 C3 1D 3A 01 03 18 1E 00 10 22 A0 01 03 20 47 C2 70 E8 47 06 C0 E8 46 F2 31 00 47 05 08 68 47 C2 52 28 45 28 1C 80 44 53 BC 00 44 63 8E 00 75 44 
[RX] 01 03 00 2B 00 01 F4 02 01 03 02 53 48 84 82 
[RX] 01 03 15 0A 00 1A E0 0F 01 03 34 43 58 80 00 43 58 80 00 43 58 E6 66 42 FA 99 9A 42 F9 99 9A 42 FA 66 66 43 79 33 33 43 64 99 9A 43 5F 33 33 42 AB 33 33 41 F4 F5 C3 41 DC A3 D7 41 DB 0A 3D F8 AD 
[RX] 01 03 20 44 00 02 8F DE 01 03 04 45 BB 88 00 F9 1A 
[RX] 01 03 15 0A 00 1A E0 0F 01 03 34 43 58 80 00 43 58 80 00 43 58 E6 66 42 FA 99 9A 42 F9 99 9A 42 FA 66 66 43 78 99 9A 43 65 66 66 43 5E CC CD 42 AB 7A E1 41 F4 F5 C3 41 DD 99 9A 41 DB 0A 3D B5 FD 
[RX] 01 03 18 1E 00 10 22 A0 01 03 20 47 C2 70 F1 47 06 C0 E8 46 F2 31 0F 47 05 08 70 47 C2 52 2C 45 28 1C 80 44 53 BC 00 44 63 8E 00 CE 2B 
[RX] 01 03 15 0A 00 1A E0 0F 01 03 34 43 58 80 00 43 58 80 00 43 58 E6 66 42 FA 99 9A 42 F9 99 9A 42 FA 66 66 43 7A 66 66 43 66 99 9A 43 5D 33 33 42 AB C2 8F 41 F6 8F 5C 41 DE 8F 5C 41 D9 C2 8F AB B9 
[RX] 01 03 20 44 00 02 8F DE 01 03 04 45 BB 88 00 F9 1A 
[RX] 01 03 15 0A 00 1A E0 0F 01 03 34 43 58 80 00 43 58 80 00 43 59 00 00 42 FA 99 9A 42 F9 99 9A 42 FA 99 9A 43 7A 33 33 43 66 00 00 43 5C 99 9A 42 AA 7A E1 41 F4 CC CD 41 DC A3 D7 41 D8 28 F6 90 0D 
[RX] 01 03 18 1E 00 10 22 A0 01 03 20 47 C2 70 F1 47 06 C0 E8 46 F2 31 0F 47 05 08 70 47 C2 52 31 45 28 1C 80 44 53 BC 00 44 63 8E 00 E3 F6 
[RX] 01 03 15 0A 00 1A E0 0F 
[RX] 01 03 34 43 58 80 00 43 58 80 00 43 58 E6 66 42 FA 99 9A 42 F9 99 9A 42 FA 66 66 43 7A 33 33 43 62 66 66 43 5B CC CD 42 A9 85 1F 41 F5 70 A4 41 D8 A3 D7 41 D7 D7 0A B0 34 01 03 00 2B 00 01 F4 02 01 03 02 53 48 84 82 
[RX] 01 03 20 44 00 02 8F DE 01 03 04 45 BB 88 00 F9 1A 
[RX] 01 03 15 0A 00 1A E0 0F 01 03 34 43 58 80 00 43 58 80 00 43 58 E6 66 42 FA 99 9A 42 F9 99 9A 42 FA 66 66 43 7A 00 00 43 62 00 00 43 5C 66 66 42 AA A3 D7 41 F6 B8 52 41 D9 99 9A 41 DA 14 7B D6 C3 01 03 18 1E 00 10 22 A0 01 03 20 47 C2 70 F4 47 06 C0 F0 46 F2 31 0F 47 05 08 70 47 C2 52 34 45 28 1C 80 44 53 BC 00 44 63 8E 00 D1 2A 
[RX] 01 03 15 0A 00 1A E0 0F 01 03 34 43 58 80 00 43 58 80 00 43 58 CC CD 42 FA 66 66 42 F9 99 9A 42 FA 66 66 43 7A CC CD 43 62 66 66 43 5D 66 66 42 AA B8 52 41 F6 8F 5C 41 DA 3D 71 41 D9 C2 8F 4A A3 
[RX] 01 03 20 44 00 02 8F DE 01 03 04 45 BB 88 00 F9 1A 
[RX] 01 03 15 0A 00 1A E0 0F 01 03 34 43 58 80 00 43 58 80 00 43 58 E6 66 42 FA 66 66 42 F9 99 9A 42 FA 99 9A 43 79 33 33 43 61 66 66 43 5B CC CD 42 AB A3 D7 41 F5 EB 85 41 DF 0A 3D 41 D9 70 A4 F9 A1 01 03 18 1E 00 10 22 A0 01 03 20 47 C2 70 F8 47 06 C0 F0 46 F2 31 0F 47 05 08 78 47 C2 52 38 45 28 1C 80 44 53 BC 00 44 63 8E 00 47 2D 
[RX] 01 03 15 0A 00 1A E0 0F 01 03 34 43 58 80 00 43 58 80 00 43 58 E6 66 42 FA 99 9A 42 F9 99 9A 42 FA 66 66 43 7A 66 66 43 68 33 33 43 5C CC CD 42 AB F5 C3 41 F6 66 66 41 DF 85 1F 41 D9 C2 8F A9 A5 
[RX] 01 03 20 44 00 02 8F DE 01 03 04 45 BB 88 00 F9 1A 
[RX] 01 03 00 2B 00 01 F4 02 
[RX] 01 03 02 53 48 84 82 
[RX] 01 03 15 0A 00 1A E0 0F 01 03 34 43 58 80 00 43 58 80 00 43 58 E6 66 42 FA 99 9A 42 F9 99 9A 42 FA 66 66 43 7B 66 66 43 69 33 33 43 5D 99 9A 42 AB 8F 5C 41 F6 3D 71 41 DE E1 48 41 D8 F5 C3 34 26 01 03 18 1E 00 10 22 A0 01 03 20 47 C2 70 FC 47 06 C0 F0 46 F2 31 20 47 05 08 78 47 C2 52 3C 45 28 1C 80 44 53 BC 00 44 63 8E 00 91 33 
[RX] 01 03 15 0A 00 1A E0 0F 01 03 34 43 58 99 9A 43 58 99 9A 43 59 00 00 42 FA 99 9A 42 F9 CC CD 42 FA 99 9A 43 78 66 66 43 65 33 33 43 5B 99 9A 42 AB 0A 3D 41 F5 1E B8 41 DD 99 9A 41 D9 47 AE A5 53 
[RX] 01 03 20 44 00 02 8F DE 01 03 04 45 BB 88 00 F9 1A 
[RX] 01 03 15 0A 00 1A E0 0F 01 03 34 43 58 80 00 43 58 80 00 43 59 00 00 42 FA 99 9A 42 F9 99 9A 42 FA 99 9A 43 78 99 9A 43 65 CC CD 43 5C 00 00 42 AB 1E B8 41 F4 F5 C3 41 DD EB 85 41 D9 99 9A A6 0D 
[RX] 01 03 18 1E 00 10 22 A0 01 03 20 47 C2 71 00 47 06 C0 F8 46 F2 31 20 47 05 08 78 47 C2 52 40 45 28 1C 80 44 53 BC 00 44 63 8E 00 94 68 
[RX] 01 03 15 0A 00 1A E0 0F 01 03 34 43 58 80 00 43 58 80 00 43 59 00 00 42 FA 99 9A 42 F9 99 9A 42 FA 99 9A 43 7A 66 66 43 67 CC CD 43 5D 99 9A 42 AB EB 85 41 F6 B8 52 41 DE E1 48 41 D9 EB 85 31 06 
[RX] 01 03 20 44 00 02 8F DE 01 03 04 45 BB 88 00 F9 1A 
[RX] 01 03 15 0A 00 1A E0 0F 01 03 34 43 58 80 00 43 58 80 00 43 59 00 00 42 FA 99 9A 42 F9 99 9A 42 FA 99 9A 43 79 99 9A 43 6F 33 33 43 5C 66 66 42 AD 5C 29 41 F5 99 9A 41 E6 B8 52 41 D8 F5 C3 C0 54 01 03 00 2B 00 01 F4 02 01 03 02 53 48 84 82 
[RX] 01 03 18 1E 00 10 22 A0 01 03 20 47 C2 71 00 47 06 C0 F8 46 F2 31 20 47 05 08 78 47 C2 52 44 45 28 1C 80 44 53 BC 00 44 63 8E 00 9A EC 
[RX] 01 03 15 0A 00 1A E0 0F 01 03 34 43 58 80 00 43 58 80 00 43 59 00 00 42 FA 99 9A 42 F9 99 9A 42 FA 99 9A 43 79 66 66 43 6E 33 33 43 5C CC CD 42 AD C2 8F 41 F5 99 9A 41 E7 AE 14 41 D9 C2 8F 55 48 
[RX] 01 03 20 44 00 02 8F DE 01 03 04 45 BB 88 00 F9 1A 
[RX] 01 03 15 0A 00 1A E0 0F 01 03 34 43 58 80 00 43 58 80 00 43 59 00 00 42 FA 99 9A 42 F9 99 9A 42 FA 99 9A 43 79 66 66 43 6E 33 33 43 5C CC CD 42 AF 85 1F 41 F5 99 9A 41 EE E1 48 41 D9 70 A4 22 D2 
[RX] 01 03 18 1E 00 10 22 A0 01 03 20 47 C2 71 08 47 06 C0 F8 46 F2 31 31 47 05 08 80 47 C2 52 48 45 28 1C 80 44 53 BC 00 44 63 8E 00 4A 9F 
[RX] 01 03 15 0A 00 1A E0 0F 01 03 34 43 58 80 00 43 58 80 00 43 59 19 9A 42 FA CC CD 42 F9 66 66 42 FA 99 9A 43 7A 00 00 43 77 00 00 43 5D 33 33 42 AF 14 7B 41 F6 B8 52 41 EA B8 52 41 DA B8 52 6A 76 
[RX] 01 03 20 44 00 02 8F DE 01 03 04 45 BB 88 00 F9 1A 
[RX] 01 03 15 0A 00 1A E0 0F 01 03 34 43 58 80 00 43 58 80 00 43 59 00 00 42 FA 99 9A 42 F9 99 9A 42 FA 99 9A 43 7A 99 9A 43 73 66 66 43 5E 33 33 42 AD 1E B8 41 F5 70 A4 41 E5 EB 85 41 D9 1E B8 9E 00 
[RX] 01 03 18 1E 00 10 22 A0 01 03 20 47 C2 71 0C 47 06 C1 00 46 F2 31 31 47 05 08 80 47 C2 52 48 45 28 1C 80 44 53 BC 00 44 63 8E 00 1E ED 
[RX] 01 03 00 2B 00 01 F4 02 01 03 02 53 48 84 82 
[RX] 01 03 15 0A 00 1A E0 0F 01 03 34 43 58 99 9A 43 58 80 00 43 59 19 9A 42 FA CC CD 42 F9 99 9A 42 FA 99 9A 43 78 99 9A 43 6D 33 33 43 5C 00 00 42 AC 5C 29 41 F5 1E B8 41 E2 B8 52 41 D9 70 A4 BE EA 01 03 20 44 00 02 8F DE 01 03 04 45 BB 88 00 F9 1A 
[RX] 01 03 15 0A 00 1A E0 0F 01 03 34 43 58 66 66 43 58 66 66 43 58 CC CD 42 FA 66 66 42 F9 66 66 42 FA 66 66 43 79 33 33 43 6B 00 00 43 5C CC CD 42 AC AE 14 41 F6 3D 71 41 E2 B8 52 41 D9 99 9A 78 62 01 03 18 1E 00 10 22 A0 01 03 20 47 C2 71 0C 47 06 C1 00 46 F2 31 31 47 05 08 80 47 C2 52 4C 45 28 1C 80 44 53 BC 00 44 63 8E 00 10 69 
[RX] 01 03 15 0A 00 1A E0 0F 01 03 34 43 58 80 00 43 58 66 66 43 58 E6 66 42 FA 99 9A 42 F9 66 66 42 FA 66 66 43 7A 33 33 43 6B 00 00 43 5D 66 66 42 AC AE 14 41 F6 14 7B 41 E2 3D 71 41 DA 3D 71 E3 C8 
[RX] 01 03 20 44 00 02 8F DE 01 03 04 45 BB 88 00 F9 1A 
[RX] 01 03 15 0A 00 1A E0 0F 01 03 34 43 58 80 00 43 58 80 00 43 59 00 00 42 FA 99 9A 42 F9 99 9A 42 FA 99 9A 43 79 CC CD 43 6D 66 66 43 5D CC CD 42 AC A3 D7 41 F4 F5 C3 41 E4 A3 D7 41 D8 CC CD 90 DF 
[RX] 01 03 18 1E 00 10 22 A0 01 03 20 47 C2 71 0F 47 06 C1 00 46 F2 31 31 47 05 08 88 47 C2 52 4F 45 28 1C 80 44 53 BC 00 44 63 8E 00 D2 6A 
[RX] 01 03 15 0A 00 1A E0 0F 01 03 34 43 58 80 00 43 58 66 66 43 58 E6 66 42 FA 99 9A 42 F9 66 66 42 FA 66 66 43 79 00 00 43 6D 66 66 43 5C 99 9A 42 AD C2 8F 41 F5 1E B8 41 E8 51 EC 41 D9 99 9A 57 05 01 03 00 2B 00 01 F4 02 01 03 02 53 48 84 82 
[RX] 01 03 20 44 00 02 8F DE 01 03 04 45 BB 88 00 F9 1A 
[RX] 01 03 15 0A 00 1A E0 0F 01 03 34 43 58 80 00 43 58 80 00 43 59 00 00 42 FA 99 9A 42 F9 66 66 42 FA 99 9A 43 79 00 00 43 72 66 66 43 5C 99 9A 42 AC E1 48 41 F6 14 7B 41 E3 85 1F 41 D9 C2 8F 06 40 01 03 18 1E 00 10 22 A0 01 03 20 47 C2 71 18 47 06 C1 08 46 F2 31 40 47 05 08 88 47 C2 52 54 45 28 1C 80 44 53 BC 00 44 63 8E 00 77 C4 
[RX] 01 03 15 0A 00 1A E0 0F 01 03 34 43 58 66 66 43 58 80 00 43 58 E6 66 42 FA 66 66 42 F9 66 66 42 FA 99 9A 43 7A 99 9A 43 69 99 9A 43 5D 66 66 42 AC 0A 3D 41 F6 B8 52 41 DE E1 48 41 DA 66 66 B3 B5 
[RX] 01 03 20 44 00 02 8F DE 
[RX] 01 03 04 45 BB 88 00 F9 1A 
[RX] 01 03 15 0A 00 1A E0 0F 01 03 34 43 58 4C CD 43 58 66 66 43 58 B3 33 42 FA 33 33 42 F9 66 66 42 FA 66 66 43 79 CC CD 43 66 33 33 43 5C 99 9A 42 AA 99 9A 41 F4 CC CD 41 DC A3 D7 41 D8 CC CD 0C D1 01 03 18 1E 00 10 22 A0 01 03 20 47 C2 71 18 47 06 C1 08 46 F2 31 40 47 05 08 88 47 C2 52 58 45 28 1C 80 44 53 BC 00 44 63 8E 00 66 08 
[RX] 01 03 15 0A 00 1A E0 0F 01 03 34 43 58 66 66 43 58 66 66 43 58 CC CD 42 FA 66 66 42 F9 66 66 42 FA 66 66 43 79 99 9A 43 65 CC CD 43 5D 00 00 42 AB 14 7B 41 F5 47 AE 41 DB 85 1F 41 DB 5C 29 57 32 
[RX] 01 03 00 2B 00 01 F4 02 01 03 02 53 48 84 82 
[RX] 01 03 20 44 00 02 8F DE 01 03 04 45 BB 88 00 F9 1A 
[RX] 01 03 15 0A 00 1A E0 0F 01 03 34 43 58 80 00 43 58 80 00 43 58 E6 66 42 FA 66 66 42 F9 99 9A 42 FA 99 9A 43 78 99 9A 43 63 00 00 43 5E 66 66 42 AB EB 85 41 F5 C2 8F 41 DE 14 7B 41 DB 85 1F 8D 67 
[RX] 01 03 18 1E 00 10 22 A0 01 03 20 47 C2 71 18 47 06 C1 08 46 F2 31 40 47 05 08 88 47 C2 52 5C 45 28 1C 80 44 53 BC 00 44 63 8E 00 68 8C 
[RX] 01 03 15 0A 00 1A E0 0F 01 03 34 43 58 80 00 43 58 80 00 43 59 00 00 42 FA 99 9A 42 F9 99 9A 42 FA 99 9A 43 7A 66 66 43 68 00 00 43 5F 00 00 42 AB 70 A4 41 F4 F5 C3 41 DE 14 7B 41 DA 8F 5C 25 6B 
[RX] 01 03 20 44 00 02 8F DE 01 03 04 45 BB 88 00 F9 1A 
[RX] 01 03 15 0A 00 1A E0 0F 01 03 34 43 58 80 00 43 58 80 00 43 59 00 00 42 FA 99 9A 42 F9 99 9A 42 FA 99 9A 43 77 CC CD 43 65 CC CD 43 5D 99 9A 42 AC 47 AE 41 F3 85 1F 41 DD 99 9A 41 DF D7 0A E8 B3 
[RX] 01 03 18 1E 00 10 22 A0 01 03 20 47 C2 71 24 47 06 C1 10 46 F2 31 4F 47 05 08 90 47 C2 52 60 45 28 1C 80 44 53 BC 00 44 63 8E 00 B3 BA 
[RX] 01 03 15 0A 00 1A E0 0F 01 03 34 43 58 80 00 43 58 80 00 43 58 E6 66 42 FA 99 9A 42 F9 99 9A 42 FA 66 66 43 78 66 66 43 66 CC CD 43 63 00 00 42 AD 0A 3D 41 F4 CC CD 41 DE 8F 5C 41 E0 CC CD 7A 91 
[RX] 01 03 20 44 00 02 8F DE 01 03 04 45 BB 88 00 F9 1A 
[RX] 01 03 00 2B 00 01 F4 02 01 03 02 53 48 84 82 
[RX] 01 03 15 0A 00 1A E0 0F 01 03 34 43 58 80 00 43 58 80 00 43 58 CC CD 42 FA 66 66 42 F9 99 9A 42 FA 66 66 43 79 99 9A 43 67 99 9A 43 64 00 00 42 AD 28 F6 41 F5 EB 85 41 DE B8 52 41 E0 00 00 B1 FB 
[RX] 01 03 18 1E 00 10 22 A0 01 03 20 47 C2 71 24 47 06 C1 10 46 F2 31 4F 47 05 08 90 47 C2 52 64 45 28 1C 80 44 53 BC 00 44 63 8E 00 BD 3E 
[RX] 01 03 15 0A 00 1A E0 0F 01 03 34 43 58 80 00 43 58 80 00 43 58 CC CD 42 FA 66 66 42 F9 99 9A 42 FA 66 66 43 79 CC CD 43 67 00 00 43 62 CC CD 42 AC E1 48 41 F5 47 AE 41 DF 5C 29 41 DE E1 48 D7 DE 
[RX] 01 03 20 44 00 02 8F DE 01 03 04 45 BB 88 00 F9 1A 
[RX] 01 03 15 0A 00 1A E0 0F 01 03 34 43 58 80 00 43 58 80 00 43 58 CC CD 42 FA 66 66 42 F9 99 9A 42 FA 66 66 43 78 CC CD 43 66 CC CD 43 62 66 66 42 AD 28 F6 41 F5 99 9A 41 DF 33 33 41 DF AE 14 71 8F 
[RX] 01 03 18 1E 00 10 22 A0 01 03 20 47 C2 71 24 47 06 C1 10 46 F2 31 4F 47 05 08 90 47 C2 52 64 45 28 1C 80 44 53 BC 00 44 63 8E 00 BD 3E 
[RX] 01 03 15 0A 00 1A E0 0F 01 03 34 43 58 80 00 43 58 80 00 43 58 E6 66 42 FA 99 9A 42 F9 99 9A 42 FA 66 66 43 79 66 66 43 69 33 33 43 63 CC CD 42 AD A3 D7 41 F5 1E B8 41 E0 F5 C3 41 E0 7A E1 F6 8E 01 03 20 44 00 02 8F DE 01 03 04 45 BB 88 00 F9 1A 
[RX] 01 03 15 0A 00 1A E0 0F 01 03 34 43 58 80 00 43 58 80 00 43 58 CC CD 42 FA 66 66 42 F9 99 9A 42 FA 66 66 43 7A CC CD 43 6B 00 00 43 64 CC CD 42 AE B8 52 41 F6 B8 52 41 E2 8F 5C 41 E1 70 A4 B3 0F 01 03 00 2B 00 01 F4 02 01 03 02 53 48 84 82 
[RX] 01 03 18 1E 00 10 22 A0 01 03 20 47 C2 71 28 47 06 C1 10 46 F2 31 4F 47 05 08 98 47 C2 52 68 45 28 1C 80 44 53 BC 00 44 63 8E 00 2B 39 
[RX] 01 03 15 0A 00 1A E0 0F 
[RX] 01 03 34 43 58 80 00 43 58 80 00 43 58 CC CD 42 FA 66 66 42 F9 99 9A 42 FA 66 66 43 78 99 9A 43 6A CC CD 43 62 99 9A 42 AD E1 48 41 F4 F5 C3 41 E2 B8 52 41 DF AE 14 AE 09 01 03 20 44 00 02 8F DE 01 03 04 45 BB 88 00 F9 1A 
[RX] 01 03 15 0A 00 1A E0 0F 01 03 34 43 58 66 66 43 58 80 00 43 58 E6 66 42 FA 66 66 42 F9 66 66 42 FA 99 9A 43 7E 66 66 43 6B 99 9A 43 5E 99 9A 42 AE 28 F6 41 FB 33 33 41 E2 B8 52 41 DA 8F 5C B9 AB 01 03 18 1E 00 10 22 A0 01 03 20 47 C2 71 31 47 06 C1 18 46 F2 31 60 47 05 08 98 47 C2 52 6C 45 28 1C 80 44 53 BC 00 44 63 8E 00 97 79 
[RX] 01 03 15 0A 00 1A E0 0F 01 03 34 43 58 66 66 43 58 80 00 43 58 E6 66 42 FA 66 66 42 F9 66 66 42 FA 99 9A 43 7E 66 66 43 6B 99 9A 43 5E 99 9A 42 AE 1E B8 41 FA E1 48 41 E1 99 9A 41 DB D7 0A EE E1 
[RX] 01 03 20 44 00 02 8F DE 01 03 04 45 BB 80 00 FE DA 
[RX] 01 03 15 0A 00 1A E0 0F 01 03 34 43 58 66 66 43 58 80 00 43 58 CC CD 42 FA 33 33 42 F9 99 9A 42 FA 99 9A 43 81 33 33 43 69 00 00 43 5F 66 66 42 AE 51 EC 41 FD C2 8F 41 DF D7 0A 41 DB 5C 29 71 E6 01 03 18 1E 00 10 22 A0 01 03 20 47 C2 71 31 47 06 C1 18 46 F2 31 60 47 05 08 98 47 C2 52 71 45 28 1C 80 44 53 BC 00 44 63 8E 00 BA A4 
[RX] 01 03 00 2B 00 01 F4 02 01 03 02 53 48 84 82 
[RX] 01 03 15 0A 00 1A E0 0F 01 03 34 43 58 66 66 43 58 80 00 43 58 E6 66 42 FA 66 66 42 F9 66 66 42 FA 99 9A 43 80 CC CD 43 69 00 00 43 5F 66 66 42 AE 7A E1 41 FD 70 A4 41 E0 7A E1 41 DB D7 0A B3 CB 
[RX] 01 03 20 44 00 02 8F DE 01 03 04 45 BB 80 00 FE DA 
[RX] 01 03 15 0A 00 1A E0 0F 01 03 34 43 58 66 66 43 58 80 00 43 58 E6 66 42 FA 66 66 42 F9 66 66 42 FA 99 9A 43 80 CC CD 43 69 00 00 43 5F 66 66 42 AE 00 00 41 FD 1E B8 41 DF D7 0A 41 DA B8 52 C1 79 
[RX] 01 03 18 1E 00 10 22 A0 01 03 20 47 C2 71 31 47 06 C1 18 46 F2 31 60 47 05 08 98 47 C2 52 74 45 28 1C 80 44 53 BC 00 44 63 8E 00 B6 A1 
[RX] 01 03 15 0A 00 1A E0 0F 01 03 34 43 58 66 66 43 58 80 00 43 58 E6 66 42 FA 66 66 42 F9 66 66 42 FA 99 9A 43 80 E6 66 43 69 33 33 43 5F 00 00 42 AF 85 1F 41 FF 33 33 41 E2 14 7B 41 DC A3 D7 BD C0 
[RX] 01 03 20 44 00 02 8F DE 01 03 04 45 BB 80 00 FE DA 
[RX] 01 03 15 0A 00 1A E0 0F 01 03 34 43 58 4C CD 43 58 66 66 43 58 E6 66 42 FA 66 66 42 F9 33 33 42 FA 99 9A 43 80 CC CD 43 69 99 9A 43 5F 00 00 42 AE 0A 3D 41 FC A3 D7 41 DF D7 0A 41 DB 5C 29 4B 8B 
[RX] 01 03 18 1E 00 10 22 A0 01 03 20 47 C2 71 3C 47 06 C1 20 46 F2 31 71 47 05 08 A0 47 C2 52 78 45 28 1C 80 44 53 BC 00 44 63 8E 00 A3 5D 
[RX] 01 03 15 0A 00 1A E0 0F 01 03 34 43 58 4C CD 43 58 80 00 43 58 CC CD 42 FA 33 33 42 F9 66 66 42 FA 99 9A 43 80 00 00 43 66 66 66 43 5E 33 33 42 AC 3D 71 41 FB 85 1F 41 DA B8 52 41 DA 66 66 41 48 01 03 00 2B 00 01 F4 02 01 03 02 53 48 84 82 
[RX] 01 03 20 44 00 02 8F DE 01 03 04 45 BB 80 00 FE DA 
[RX] 01 03 15 0A 00 1A E0 0F 01 03 34 43 58 4C CD 43 58 80 00 43 58 CC CD 42 FA 33 33 42 F9 66 66 42 FA 99 9A 43 80 19 9A 43 64 33 33 43 5E 66 66 42 AD E1 48 41 FD 70 A4 41 DE 3D 71 41 DB AE 14 77 6D 
[RX] 01 03 18 1E 00 10 22 A0 01 03 20 47 C2 71 3C 47 06 C1 20 46 F2 31 71 47 05 08 A0 47 C2 52 7C 45 28 1C 80 44 53 BC 00 44 63 8E 00 AD D9 
[RX] 01 03 15 0A 00 1A E0 0F 01 03 34 43 58 33 33 43 58 66 66 43 58 CC CD 42 FA 33 33 42 F9 33 33 42 FA 99 9A 43 80 B3 33 43 67 CC CD 43 5E CC CD 42 AE 00 00 41 FC F5 C3 41 E0 51 EC 41 DA 66 66 B2 DC 
[RX] 01 03 20 44 00 02 8F DE 01 03 04 45 BB 80 00 FE DA 
[RX] 01 03 15 0A 00 1A E0 0F 01 03 34 43 58 33 33 43 58 4C CD 43 58 B3 33 42 FA 33 33 42 F9 33 33 42 FA 66 66 43 80 66 66 43 69 00 00 43 5D 66 66 42 AD 66 66 41 FC 00 00 41 DF D7 0A 41 D9 99 9A 7F 4D 
[RX] 01 03 18 1E 00 10 22 A0 01 03 20 47 C2 71 3C 47 06 C1 20 46 F2 31 71 47 05 08 A0 47 C2 52 80 45 28 1C 80 44 53 BC 00 44 63 8E 00 FC E4 
[RX] 01 03 15 0A 00 1A E0 0F 01 03 34 43 58 33 33 43 58 66 66 43 58 CC CD 42 FA 33 33 42 F9 33 33 42 FA 99 9A 43 80 4C CD 43 68 66 66 43 5D CC CD 42 AD A3 D7 41 FD 1E B8 41 DE 3D 71 41 DA E1 48 28 BD 
[RX] 01 03 00 2B 00 01 F4 02 01 03 02 53 48 84 82 
[RX] 01 03 20 44 00 02 8F DE 01 03 04 45 BB 80 00 FE DA 
[RX] 01 03 15 0A 00 1A E0 0F 01 03 34 43 58 66 66 43 58 80 00 43 58 E6 66 42 FA 66 66 42 F9 66 66 42 FA 99 9A 43 80 B3 33 43 67 33 33 43 5E 66 66 42 AE CC CD 41 FE 66 66 41 E0 CC CD 41 DB D7 0A 6D 5B 01 03 18 1E 00 10 22 A0 01 03 20 47 C2 71 44 47 06 C1 28 46 F2 31 71 47 05 08 A8 47 C2 52 84 45 28 1C 80 44 53 BC 00 44 63 8E 00 DF B2 
[RX] 01 03 15 0A 00 1A E0 0F 01 03 34 43 58 4C CD 43 58 80 00 43 58 CC CD 42 FA 33 33 42 F9 66 66 42 FA 99 9A 43 80 33 33 43 67 33 33 43 5D 66 66 42 AD 47 AE 41 FC F5 C3 41 DD EB 85 41 DA 14 7B 30 18 01 03 20 44 00 02 8F DE 01 03 04 45 BB 80 00 FE DA 
[RX] 01 03 15 0A 00 1A E0 0F 01 03 34 43 58 33 33 43 58 66 66 43 58 CC CD 42 FA 33 33 42 F9 33 33 42 FA 99 9A 43 80 80 00 43 66 99 9A 43 5D 00 00 42 AD 99 9A 41 FB 5C 29 41 DF 85 1F 41 DB 5C 29 FD 7C 01 03 18 1E 00 10 22 A0 01 03 20 47 C2 71 48 47 06 C1 28 46 F2 31 80 47 05 08 A8 47 C2 52 88 45 28 1C 80 44 53 BC 00 44 63 8E 00 3A 59 
[RX] 01 03 15 0A 00 1A E0 0F 01 03 34 43 58 66 66 43 58 80 00 43 58 E6 66 42 FA 66 66 42 F9 66 66 42 FA 99 9A 43 7D 66 66 43 66 CC CD 43 5D CC CD 42 AC D7 0A 41 F9 1E B8 41 DE E1 48 41 DB 33 33 6C C0 
[RX] 01 03 20 44 00 02 8F DE 01 03 04 45 BB 80 00 FE DA 
[RX] 01 03 00 2B 00 01 F4 02 01 03 02 53 48 84 82 
[RX] 01 03 15 0A 00 1A E0 0F 01 03 34 43 58 66 66 43 58 80 00 43 58 E6 66 42 FA 66 66 42 F9 66 66 42 FA 99 9A 43 7D 99 9A 43 68 CC CD 43 5F 00 00 42 AC AE 14 41 F6 8F 5C 41 E0 F5 C3 41 DB 0A 3D 58 6A 
[RX] 01 03 18 1E 00 10 22 A0 01 03 20 47 C2 71 48 47 06 C1 28 46 F2 31 80 47 05 08 A8 47 C2 52 8C 45 28 1C 80 44 53 BC 00 44 63 8E 00 34 DD 
[RX] 01 03 15 0A 00 1A E0 0F 01 03 34 43 58 66 66 43 58 80 00 43 58 E6 66 42 FA 66 66 42 F9 66 66 42 FA 99 9A 43 78 99 9A 43 67 99 9A 43 5D 00 00 42 AB A3 D7 41 F4 7A E1 41 DF AE 14 41 DA 3D 71 06 81 
[RX] 01 03 20 44 00 02 8F DE 01 03 04 45 BB 80 00 FE DA 
[RX] 01 03 15 0A 00 1A E0 0F 01 03 34 43 58 80 00 43 58 80 00 43 58 E6 66 42 FA 66 66 42 F9 99 9A 42 FA 99 9A 43 79 00 00 43 69 33 33 43 5D CC CD 42 AC D7 0A 41 F5 70 A4 41 E2 66 66 41 DB 5C 29 6A 59 
[RX] 01 03 18 1E 00 10 22 A0 01 03 20 47 C2 71 4C 47 06 C1 30 46 F2 31 80 47 05 08 A8 47 C2 52 8C 45 28 1C 80 44 53 BC 00 44 63 8E 00 CA 05 
[RX] 01 03 15 0A 00 1A E0 0F 01 03 34 43 58 66 66 43 58 80 00 43 58 E6 66 42 FA 66 66 42 F9 66 66 42 FA 99 9A 43 7A 33 33 43 6D 99 9A 43 5F 00 00 42 AD 70 A4 41 F5 EB 85 41 E4 7A E1 41 DB 33 33 DA A4 
[RX] 01 03 20 44 00 02 8F DE 01 03 04 45 BB 80 00 FE DA 
[RX] 01 03 15 0A 00 1A E0 0F 01 03 34 43 58 4C CD 43 58 66 66 43 58 B3 33 42 FA 33 33 42 F9 66 66 42 FA 66 66 43 79 99 9A 43 65 33 33 43 5E 00 00 42 AC 00 00 41 F8 00 00 41 DC F5 C3 41 DA E1 48 94 9F 01 03 00 2B 00 01 F4 02 01 03 02 53 48 84 82 
[RX] 01 03 18 1E 00 10 22 A0 01 03 20 47 C2 71 54 47 06 C1 30 46 F2 31 8F 47 05 08 B0 47 C2 52 8F 45 28 1C 80 44 53 BC 00 44 63 8E 00 BA 2C 
[RX] 01 03 15 0A 00 1A E0 0F 01 03 34 43 58 66 66 43 58 80 00 43 58 CC CD 42 FA 33 33 42 F9 99 9A 42 FA 99 9A 43 7D 00 00 43 65 99 9A 43 5E 99 9A 42 AC 99 9A 41 F8 28 F6 41 DF 85 1F 41 DA 8F 5C C3 8E 
[RX] 01 03 20 44 00 02 8F DE 01 03 04 45 BB 80 00 FE DA 
[RX] 01 03 15 0A 00 1A E0 0F 01 03 34 43 58 33 33 43 58 66 66 43 58 CC CD 42 FA 33 33 42 F9 33 33 42 FA 99 9A 43 7D CC CD 43 69 66 66 43 5F 00 00 42 AE 1E B8 41 FA B8 52 41 E1 99 9A 41 DC 00 00 8B 42 
[RX] 01 03 18 1E 00 10 22 A0 01 03 20 47 C2 71 54 47 06 C1 30 46 F2 31 8F 47 05 08 B0 47 C2 52 94 45 28 1C 80 44 53 BC 00 44 63 8E 00 9E 37 
[RX] 01 03 15 0A 00 1A E0 0F 01 03 34 43 58 4C CD 43 58 80 00 43 58 CC CD 42 FA 33 33 42 F9 66 66 42 FA 99 9A 43 7F 99 9A 43 6A 66 66 43 5F 33 33 42 AE 14 7B 41 FB 5C 29 41 E0 F5 C3 41 DC 00 00 E6 C3 
[RX] 01 03 20 44 00 02 8F DE 01 03 04 45 BB 80 00 FE DA 
[RX] 01 03 15 0A 00 1A E0 0F 01 03 34 43 57 E6 66 43 58 00 00 43 58 80 00 42 F9 CC CD 42 F8 CC CD 42 FA 33 33 43 80 66 66 43 67 33 33 43 5E 99 9A 42 AD 70 A4 41 FC 28 F6 41 DE B8 52 41 DA E1 48 6C 1E 
[RX] 01 03 00 2B 00 01 F4 02 01 03 02 53 48 84 82 
[RX] 01 03 18 1E 00 10 22 A0 01 03 20 47 C2 71 58 47 06 C1 38 46 F2 31 8F 47 05 08 B0 47 C2 52 98 45 28 1C 80 44 53 BC 00 44 63 8E 00 25 B8 
[RX] 01 03 15 0A 00 1A E0 0F 01 03 34 43 58 33 33 43 58 4C CD 43 58 B3 33 42 FA 33 33 42 F9 33 33 42 FA 66 66 43 80 80 00 43 68 99 9A 43 5F 33 33 42 AC AE 14 41 F7 5C 29 41 DF 85 1F 41 DB AE 14 51 08 01 03 20 44 00 02 8F DE 01 03 04 45 BB 80 00 FE DA 
[RX] 01 03 15 0A 00 1A E0 0F 01 03 34 43 58 33 33 43 58 4C CD 43 58 B3 33 42 FA 33 33 42 F9 33 33 42 FA 66 66 43 7B 00 00 43 67 CC CD 43 5F CC CD 42 AC AE 14 41 F6 3D 71 41 E0 28 F6 41 DC 00 00 46 B7 01 03 18 1E 00 10 22 A0 01 03 20 47 C2 71 58 47 06 C1 38 46 F2 31 8F 47 05 08 B0 47 C2 52 9C 45 28 1C 80 44 53 BC 00 44 63 8E 00 2B 3C 
[RX] 01 03 15 0A 00 1A E0 0F 01 03 34 43 58 33 33 43 58 4C CD 43 58 B3 33 42 FA 33 33 42 F9 33 33 42 FA 66 66 43 7B 00 00 43 67 CC CD 43 5F CC CD 42 AC 8F 5C 41 F4 F5 C3 41 E1 99 9A 41 DB 85 1F 2C 66 01 03 20 44 00 02 8F DE 01 03 04 45 BB 78 00 BD 1A 
[RX] 01 03 15 0A 00 1A E0 0F 01 03 34 43 58 4C CD 43 58 66 66 43 58 B3 33 42 FA 33 33 42 F9 66 66 42 FA 66 66 43 78 CC CD 43 69 66 66 43 5E 66 66 42 AC 7A E1 41 F4 A3 D7 41 E2 14 7B 41 DB 0A 3D 74 85 
[RX] 01 03 18 1E 00 10 22 A0 01 03 20 47 C2 71 60 47 06 C1 38 46 F2 31 A0 47 05 08 B8 47 C2 52 A0 45 28 1C 80 44 53 BC 00 44 63 8E 00 24 75 
[RX] 01 03 00 2B 00 01 F4 02 01 03 02 53 48 84 82 
[RX] 01 03 15 0A 00 1A E0 0F 01 03 34 43 58 66 66 43 58 66 66 43 58 CC CD 42 FA 66 66 42 F9 66 66 42 FA 66 66 43 79 CC CD 43 6A 99 9A 43 5F 99 9A 42 AF 00 00 41 F6 B8 52 41 E7 0A 3D 41 DE 14 7B 67 15 
[RX] 01 03 20 44 00 02 8F DE 01 03 04 45 BB 78 00 BD 1A 
[RX] 01 03 15 0A 00 1A E0 0F 01 03 34 43 58 4C CD 43 58 4C CD 43 58 CC CD 42 FA 66 66 42 F9 33 33 42 FA 66 66 43 7A 00 00 43 6F 33 33 43 60 66 66 42 AD EB 85 41 F4 F5 C3 41 E6 14 7B 41 DC 7A E1 54 E8 01 03 18 1E 00 10 22 A0 01 03 20 47 C2 71 64 47 06 C1 40 46 F2 31 A0 47 05 08 B8 47 C2 52 A4 45 28 1C 80 44 53 BC 00 44 63 8E 00 29 96 
[RX] 01 03 15 0A 00 1A E0 0F 01 03 34 43 58 19 9A 43 58 19 9A 43 58 99 9A 42 FA 33 33 42 F9 00 00 42 FA 33 33 43 7A 66 66 43 6F 66 66 43 60 66 66 42 AD F5 C3 41 F5 47 AE 41 E5 EB 85 41 DC 7A E1 A6 06 01 03 20 44 00 02 8F DE 01 03 04 45 BB 78 00 BD 1A 
[RX] 01 03 15 0A 00 1A E0 0F 01 03 34 43 58 19 9A 43 58 19 9A 43 58 99 9A 42 FA 33 33 42 F9 00 00 42 FA 33 33 43 7A 66 66 43 6F 66 66 43 60 66 66 42 AF 47 AE 41 F6 14 7B 41 E0 28 F6 41 E6 8F 5C BC 13 
