[RX] 01 03 00 2B 00 01 F4 02 
[RX] 01 03 00 2B 00 01 F4 02 
[RX] 01 03 00 2B 00 01 F4 02 
[RX] 01 03 00 2B 00 01 F4 02 
[RX] 01 03 00 2B 00 01 F4 02 
[RX] 01 03 00 2B 00 01 F4 02 
[RX] 01 03 00 2B 00 01 F4 02 
[RX] 01 03 00 2B 00 01 F4 02 
[RX] 01 03 00 2B 00 01 F4 02 
[RX] 01 03 00 2B 00 01 F4 02 
[RX] 01 03 00 2B 00 01 F4 02 
[RX] 01 03 00 2B 00 01 F4 02 
[RX] 01 03 00 2B 00 01 F4 02 
[RX] 01 03 00 2B 00 01 F4 02 
[RX] 01 03 00 2B 00 01 F4 02 
[RX] 01 03 00 2B 00 01 F4 02 
[RX] 01 03 00 2B 00 01 F4 02 
[RX] 01 03 00 2B 00 01 F4 02 
[RX] 01 03 00 2B 00 01 F4 02 
[RX] 01 03 00 2B 00 01 F4 02 
[RX] 01 03 00 2B 00 01 F4 02 
[RX] 01 03 00 2B 00 01 F4 02 
[RX] 01 03 00 2B 00 01 F4 02 
[RX] 01 03 00 2B 00 01 F4 02 
[RX] 01 03 00 2B 00 01 F4 02 
[RX] 01 03 00 2B 00 01 F4 02 
[RX] 01 03 00 2B 00 01 F4 02 
[RX] 01 03 00 2B 00 01 F4 02 
[RX] 01 03 00 2B 00 01 F4 02 
[RX] 01 03 00 2B 00 01 F4 02 
[RX] 01 03 00 2B 00 01 F4 02 
[RX] 01 03 00 2B 00 01 F4 02 
[RX] 01 03 00 2B 00 01 F4 02 
[RX] 01 03 00 2B 00 01 F4 02 
[RX] 01 03 00 2B 00 01 F4 02 
[RX] 01 03 00 2B 00 01 F4 02 
[RX] 01 03 00 2B 00 01 F4 02 
[RX] 01 03 00 2B 00 01 F4 02 
[RX] 01 03 00 2B 00 01 F4 02 
[RX] 01 03 00 2B 00 01 F4 02 
[RX] 01 03 00 2B 00 01 F4 02 
[RX] 01 03 00 2B 00 01 F4 02 
[RX] 01 03 00 2B 00 01 F4 02 
[RX] 01 03 00 2B 00 01 F4 02 
[RX] 01 03 00 2B 00 01 F4 02 
[RX] 01 03 00 2B 00 01 F4 02 
[RX] 01 03 00 2B 00 01 F4 02 

[RX] 01 03 00 2B 00 01 F4 02																				X
[RX] 01 03 02 53 48 84 82 																				X
[RX] 01 03 00 06 00 01 64 0B																				X
[RX] 01 03 02 00 C8 B9 D2 																				X
[RX] 01 03 00 06 00 01 64 0B																				X
[RX] 01 03 02 00 C8 B9 D2 																				X

[RX] 01 03 15 0A 00 1A E0 0F																				X
[RX] 01 03 34 43 56 00 00 43 56 33 33 43 56 99 9A 42 F7 99 9A 42 F6 CC CD 42 F8 00 00 43 98 E6 66 43 89 4C CD 43 86 33 33 42 CD 99 9A 42 13 C2 8F 42 06 66 66 42 00 F5 C3 D3 35 	X
[RX] 01 03 18 1E 00 10 22 A0																				X
[RX] 01 03 20 47 C2 58 28 47 06 AE 68 46 F2 11 CF 47 04 F9 00 47 C2 39 6C 45 28 1C 80 44 53 BC 00 44 63 8E 00 28 A9 									X
[RX] 01 03 15 0A 00 1A E0 0F																				X
[RX] 01 03 34 43 56 00 00 43 56 33 33 43 56 99 9A 42 F7 99 9A 42 F6 CC CD 42 F8 00 00 43 98 66 66 43 89 99 9A 43 86 33 33 42 CC AE 14 42 13 33 33 42 05 AE 14 42 00 51 EC 11 E3 	X
[RX] 01 03 20 44 00 02 8F DE																				X
[RX] 01 03 04 45 BB 88 00 F9 1A 																			X

[RX] 01 03 15 0A 00 1A E0 0F																				X
[RX] 01 03 34 43 56 00 00 43 56 33 33 43 56 99 9A 42 F7 99 9A 42 F6 CC CD 42 F8 00 00 43 97 80 00 43 88 66 66 43 85 4C CD 42 CD AE 14 42 13 D7 0A 42 06 A3 D7 42 00 E1 48 80 74		X
[RX] 01 03 18 1E 00 10 22 A0																				X
[RX] 01 03 20 47 C2 58 31 47 06 AE 70 46 F2 11 CF 47 04 F9 08 47 C2 39 71 45 28 1C 80 44 53 BC 00 44 63 8E 00 BC 7A									X
[RX] 01 03 15 0A 00 1A E0 0F																				X
[RX] 01 03 34 43 56 00 00 43 56 33 33 43 56 99 9A 42 F7 99 9A 42 F6 CC CD 42 F8 00 00 43 98 00 00 43 89 4C CD 43 85 E6 66 42 CD EB 85 42 13 D7 0A 42 06 E1 48 42 01 0A 3D 21 6F		X
[RX] 01 03 20 44 00 02 8F DE																				X
[RX] 01 03 04 45 BB 88 00 F9 1A 																			X

[RX] 01 03 00 2B 00 01 F4 02
[RX] 01 03 02 53 48 84 82 

[RX] 01 03 15 0A 00 1A E0 0F 
[RX] 01 03 34 43 56 00 00 43 56 33 33 43 56 99 9A 42 F7 99 9A 42 F6 CC CD 42 F8 00 00 43 98 80 00 43 89 E6 66 43 86 33 33 42 CD 0A 3D 42 13 33 33 42 06 66 66 42 00 51 EC 2D 68 
[RX] 01 03 18 1E 00 10 22 A0 
[RX] 01 03 20 47 C2 58 34 47 06 AE 70 46 F2 11 E0 47 04 F9 08 47 C2 39 74 45 28 1C 80 44 53 BC 00 44 63 8E 00 A8 E4 
[RX] 01 03 15 0A 00 1A E0 0F 
[RX] 01 03 34 43 56 00 00 43 56 33 33 43 56 99 9A 42 F7 99 9A 42 F6 CC CD 42 F8 00 00 43 97 B3 33 43 89 00 00 43 85 66 66 42 CB F5 C3 42 12 B8 52 42 05 47 AE 41 FF 85 1F F7 02
[RX] 01 03 20 44 00 02 8F DE
[RX] 01 03 04 45 BB 88 00 F9 1A 

[RX] 01 03 15 0A 00 1A E0 0F
[RX] 01 03 34 43 56 66 66 43 56 99 9A 43 56 E6 66 42 F8 00 00 42 F7 33 33 42 F8 66 66 43 90 00 00 43 81 80 00 43 7B 99 9A 42 C0 00 00 42 0A 66 66 41 F6 E1 48 41 F4 28 F6 15 6E 
[RX] 01 03 18 1E 00 10 22 A0
[RX] 01 03 20 47 C2 58 34 47 06 AE 70 46 F2 11 E0 47 04 F9 08 47 C2 39 78 45 28 1C 80 44 53 BC 00 44 63 8E 00 B9 28 
[RX] 01 03 15 0A 00 1A E0 0F
[RX] 01 03 34 43 56 80 00 43 56 B3 33 43 57 00 00 42 F8 00 00 42 F7 66 66 42 F8 99 9A 43 8D 66 66 43 7D 33 33 43 7C 00 00 42 BF EB 85 42 0A 14 7B 41 F5 70 A4 41 F6 14 7B 37 77 
[RX] 01 03 20 44 00 02 8F DE
[RX] 01 03 04 45 BB 80 00 FE DA 

[RX] 01 03 15 0A 00 1A E0 0F
[RX] 01 03 34 43 56 80 00 43 56 B3 33 43 57 00 00 42 F8 00 00 42 F7 66 66 42 F8 99 9A 43 8D 66 66 43 7D 33 33 43 7C 00 00 42 BE 0A 3D 42 08 CC CD 41 F3 AE 14 41 F2 B8 52 EE 08 
[RX] 01 03 18 1E 00 10 22 A0
[RX] 01 03 20 47 C2 58 3C 47 06 AE 78 46 F2 11 E0 47 04 F9 10 47 C2 39 7C 45 28 1C 80 44 53 BC 00 44 63 8E 00 97 EF 

[RX] 01 03 00 2B 00 01 F4 02 
[RX] 01 03 02 53 48 84 82 

[RX] 01 03 15 0A 00 1A E0 0F
[RX] 01 03 34 43 56 99 9A 43 56 B3 33 43 57 19 9A 42 F8 33 33 42 F7 66 66 42 F8 99 9A 43 8C 33 33 43 7A CC CD 43 78 99 9A 42 BD D7 0A 42 08 E1 48 41 F3 33 33 41 F2 3D 71 81 5A 
[RX] 01 03 20 44 00 02 8F DE
[RX] 01 03 04 45 BB 88 00 F9 1A 

[RX] 01 03 15 0A 00 1A E0 0F
[RX] 01 03 34 43 56 66 66 43 56 99 9A 43 56 E6 66 42 F8 00 00 42 F7 33 33 42 F8 66 66 43 8D 4C CD 43 7D 00 00 43 7A 66 66 42 BE EB 85 42 09 EB 85 41 F4 51 EC 41 F3 33 33 C7 FB
[RX] 01 03 18 1E 00 10 22 A0
[RX] 01 03 20 47 C2 58 40 47 06 AE 78 46 F2 11 F1 47 04 F9 10 47 C2 39 80 45 28 1C 80 44 53 BC 00 44 63 8E 00 C4 CF 
[RX] 01 03 15 0A 00 1A E0 0F
[RX] 01 03 34 43 56 66 66 43 56 99 9A 43 57 00 00 42 F8 00 00 42 F7 33 33 42 F8 99 9A 43 8C 66 66 43 7B 99 9A 43 78 99 9A 42 BD AE 14 42 08 E1 48 41 F3 33 33 41 F1 99 9A AA FC
[RX] 01 03 20 44 00 02 8F DE
[RX] 01 03 04 45 BB 80 00 FE DA 

[RX] 01 03 15 0A 00 1A E0 0F
[RX] 01 03 34 43 56 66 66 43 56 99 9A 43 57 00 00 42 F8 00 00 42 F7 33 33 42 F8 99 9A 43 8C 66 66 43 7B 99 9A 43 78 99 9A 42 BF 66 66 42 0B 85 1F 41 F3 33 33 41 F3 5C 29 7D BE 
[RX] 01 03 18 1E 00 10 22 A0
[RX] 01 03 20 47 C2 58 44 47 06 AE 80 46 F2 11 F1 47 04 F9 10 47 C2 39 84 45 28 1C 80 44 53 BC 00 44 63 8E 00 66 C6 
[RX] 01 03 15 0A 00 1A E0 0F
[RX] 01 03 34 43 56 80 00 43 56 99 9A 43 57 19 9A 42 F8 33 33 42 F7 33 33 42 F8 99 9A 43 8E E6 66 43 7B 00 00 43 79 99 9A 42 BF 66 66 42 0C 7A E1 41 F4 A3 D7 41 F0 00 00 B9 B8 

[RX] 01 03 00 2B 00 01 F4 02
[RX] 01 03 02 53 48 84 82 

[RX] 01 03 20 44 00 02 8F DE
[RX] 01 03 04 45 BB 80 00 FE DA 

[RX] 01 03 15 0A 00 1A E0 0F
[RX] 01 03 34 43 56 80 00 43 56 99 9A 43 57 19 9A 42 F8 33 33 42 F7 33 33 42 F8 99 9A 43 8E E6 66 43 7C CC CD 43 75 00 00 42 BE 85 1F 42 0B 5C 29 41 F4 CC CD 41 EE 8F 5C 6C 57 
[RX] 01 03 18 1E 00 10 22 A0
[RX] 01 03 20 47 C2 58 48 47 06 AE 80 46 F2 11 F1 47 04 F9 18 47 C2 39 88 45 28 1C 80 44 53 BC 00 44 63 8E 00 F0 C1 
[RX] 01 03 15 0A 00 1A E0 0F
[RX] 01 03 34 43 56 80 00 43 56 99 9A 43 57 19 9A 42 F8 33 33 42 F7 33 33 42 F8 99 9A 43 8E E6 66 43 7C CC CD 43 75 00 00 42 BD CC CD 42 0A A3 D7 41 F4 00 00 41 ED C2 8F 9E B6 
[RX] 01 03 20 44 00 02 8F DE
[RX] 01 03 04 45 BB 80 00 FE DA 

[RX] 01 03 15 0A 00 1A E0 0F
[RX] 01 03 34 43 56 66 66 43 56 99 9A 43 57 00 00 42 F8 00 00 42 F7 33 33 42 F8 99 9A 43 8D E6 66 43 7C 00 00 43 74 33 33 42 BE 85 1F 42 0B 47 AE 41 F4 7A E1 41 EE E1 48 E9 3D
[RX] 01 03 18 1E 00 10 22 A0
[RX] 01 03 20 47 C2 58 4C 47 06 AE 80 46 F2 12 00 47 04 F9 18 47 C2 39 8C 45 28 1C 80 44 53 BC 00 44 63 8E 00 79 79 
[RX] 01 03 15 0A 00 1A E0 0F
[RX] 01 03 34 43 56 4C CD 43 56 80 00 43 56 B3 33 42 F7 CC CD 42 F7 33 33 42 F8 33 33 43 8E E6 66 43 7D 33 33 43 75 CC CD 42 BF 28 F6 42 0B AE 14 41 F5 1E B8 41 F0 00 00 A5 6C
[RX] 01 03 20 44 00 02 8F DE
[RX] 01 03 04 45 BB 78 00 BD 1A 

[RX] 01 03 00 2B 00 01 F4 02
[RX] 01 03 02 53 48 84 82 

[RX] 01 03 15 0A 00 1A E0 0F
[RX] 01 03 34 43 56 66 66 43 56 80 00 43 56 CC CD 42 F8 00 00 42 F7 33 33 42 F8 33 33 43 8E CC CD 43 7C CC CD 43 75 CC CD 42 BD 99 9A 42 0A 8F 5C 41 F3 5C 29 41 ED C2 8F 23 1A 
[RX] 01 03 18 1E 00 10 22 A0
[RX] 01 03 20 47 C2 58 4F 47 06 AE 88 46 F2 12 00 47 04 F9 18 47 C2 39 8F 45 28 1C 80 44 53 BC 00 44 63 8E 00 96 F2 
[RX] 01 03 15 0A 00 1A E0 0F
[RX] 01 03 34 43 56 4C CD 43 56 99 9A 43 56 CC CD 42 F7 CC CD 42 F7 33 33 42 F8 66 66 43 8D E6 66 43 7B 33 33 43 74 00 00 42 BF 7A E1 42 0C 28 F6 41 F5 99 9A 41 F0 00 00 09 90 
[RX] 01 03 20 44 00 02 8F DE
[RX] 01 03 04 45 BB 78 00 BD 1A 

[RX] 01 03 15 0A 00 1A E0 0F
[RX] 01 03 34 43 56 4C CD 43 56 99 9A 43 56 CC CD 42 F7 CC CD 42 F7 33 33 42 F8 66 66 43 8F 99 9A 43 7D 99 9A 43 76 99 9A 42 BA 33 33 42 06 00 00 41 F3 AE 14 41 E8 F5 C3 B0 CF
[RX] 01 03 18 1E 00 10 22 A0
[RX] 01 03 20 47 C2 58 54 47 06 AE 88 46 F2 12 00 47 04 F9 20 47 C2 39 94 45 28 1C 80 44 53 BC 00 44 63 8E 00 61 34 
[RX] 01 03 15 0A 00 1A E0 0F
[RX] 01 03 34 43 56 33 33 43 56 80 00 43 56 CC CD 42 F7 CC CD 42 F7 00 00 42 F8 66 66 43 89 66 66 43 7B CC CD 43 6E 66 66 42 B8 99 9A 42 04 7A E1 41 F3 0A 3D 41 E6 14 7B 89 B1
[RX] 01 03 20 44 00 02 8F DE
[RX] 01 03 04 45 BB 78 00 BD 1A 
[RX] 01 03 15 0A 00 1A E0 0F 01 03 34 43 56 33 33 43 56 66 66 43 56 B3 33 42 F7 CC CD 42 F7 00 00 42 F8 33 33 43 88 99 9A 43 7C 66 66 43 6D 33 33 42 B9 B8 52 42 05 33 33 41 F4 7A E1 41 E7 D7 0A 74 0B 

01 03 00 2B 00 01 F4 02 01 03 02 53 48 84 82 
[RX] 01 03 18 1E 00 10 22 A0 01 03 20 47 C2 58 58 47 06 AE 88 46 F2 12 0F 47 04 F9 20 47 C2 39 98 45 28 1C 80 44 53 BC 00 44 63 8E 00 8F 0E 
[RX] 01 03 15 0A 00 1A E0 0F 01 03 34 43 56 66 66 43 56 99 9A 43 56 E6 66 42 F8 00 00 42 F7 33 33 42 F8 66 66 43 89 00 00 43 7C 99 9A 43 6E 66 66 42 BA 14 7B 42 05 99 9A 41 F4 28 F6 41 E8 A3 D7 FD 11 
[RX] 01 03 20 44 00 02 8F DE 01 03 04 45 BB 78 00 BD 1A 
[RX] 01 03 15 0A 00 1A E0 0F 01 03 34 43 56 80 00 43 56 B3 33 43 57 00 00 42 F8 00 00 42 F7 66 66 42 F8 99 9A 43 89 33 33 43 7C 33 33 43 6E 33 33 42 B9 14 7B 42 05 47 AE 41 F2 66 66 41 E7 33 33 75 5B 
[RX] 01 03 18 1E 00 10 22 A0 01 03 20 47 C2 58 5C 47 06 AE 90 46 F2 12 0F 47 04 F9 20 47 C2 39 9C 45 28 1C 80 44 53 BC 00 44 63 8E 00 7F 52 
[RX] 01 03 15 0A 00 1A E0 0F 01 03 34 43 56 80 00 43 56 99 9A 43 57 19 9A 42 F8 33 33 42 F7 33 33 42 F8 99 9A 43 88 B3 33 43 7B 00 00 43 6D 00 00 42 B9 28 F6 42 05 0A 3D 41 F2 E1 48 41 E7 85 1F 65 29 
[RX] 01 03 20 44 00 02 8F DE 01 03 04 45 BB 70 00 BA DA 
[RX] 01 03 15 0A 00 1A E0 0F 01 03 34 43 56 66 66 43 56 99 9A 43 57 00 00 42 F8 00 00 42 F7 33 33 42 F8 99 9A 43 89 33 33 43 7B CC CD 43 6E 00 00 42 BA 70 A4 42 06 14 7B 41 F4 A3 D7 41 E8 CC CD 95 33 
[RX] 01 03 18 1E 00 10 22 A0 01 03 20 47 C2 58 5C 47 06 AE 90 46 F2 12 0F 47 04 F9 20 47 C2 39 9C 45 28 1C 80 44 53 BC 00 44 63 8E 00 7F 52 

[RX] 01 03 00 2B 00 01 F4 02 01 03 02 53 48 84 82 
[RX] 01 03 15 0A 00 1A E0 0F 01 03 34 43 56 4C CD 43 56 99 9A 43 56 E6 66 42 F7 CC CD 42 F7 33 33 42 F8 99 9A 43 89 66 66 43 7D CC CD 43 6E 66 66 42 B9 A3 D7 42 05 5C 29 41 F4 A3 D7 41 E7 0A 3D 8F 92 
[RX] 01 03 20 44 00 02 8F DE 01 03 04 45 BB 70 00 BA DA 
[RX] 01 03 15 0A 00 1A E0 0F 01 03 34 43 56 66 66 43 56 99 9A 43 57 00 00 42 F8 00 00 42 F7 33 33 42 F8 99 9A 43 88 4C CD 43 7B 33 33 43 6C 66 66 42 B8 E1 48 42 04 B8 52 41 F3 5C 29 41 E6 8F 5C 69 B5 
[RX] 01 03 18 1E 00 10 22 A0 01 03 20 47 C2 58 64 47 06 AE 90 46 F2 12 20 47 04 F9 28 47 C2 39 A4 45 28 1C 80 44 53 BC 00 44 63 8E 00 7E 9F 
[RX] 01 03 15 0A 00 1A E0 0F 01 03 34 43 56 66 66 43 56 99 9A 43 57 00 00 42 F8 00 00 42 F7 33 33 42 F8 99 9A 43 88 E6 66 43 7C 00 00 43 6D 33 33 42 BA 70 A4 42 06 14 7B 41 F4 F5 C3 41 E8 7A E1 61 26 01 03 20 44 00 02 8F DE 01 03 04 45 BB 70 00 BA DA 
[RX] 01 03 15 0A 00 1A E0 0F 01 03 34 43 56 4C CD 43 56 99 9A 43 56 CC CD 42 F7 CC CD 42 F7 33 33 42 F8 66 66 43 89 33 33 43 7C CC CD 43 6E 00 00 42 B9 85 1F 42 05 1E B8 41 F4 51 EC 41 E7 5C 29 ED E8 01 03 18 1E 00 10 22 A0 01 03 20 47 C2 58 68 47 06 AE 98 46 F2 12 20 47 04 F9 28 47 C2 39 A4 45 28 1C 80 44 53 BC 00 44 63 8E 00 D4 DC 
[RX] 01 03 15 0A 00 1A E0 0F 01 03 34 43 55 CC CD 43 56 00 00 43 56 4C CD 42 F7 33 33 42 F6 99 9A 42 F7 CC CD 43 9A 19 9A 43 8E 99 9A 43 88 19 9A 42 D1 51 EC 42 14 B8 52 42 0B C2 8F 42 02 00 00 81 7C 

01 03 00 2B 00 01 F4 02 01 03 02 53 48 84 82 
[RX] 01 03 20 44 00 02 8F DE 01 03 04 45 BB 68 00 B0 DA 
[RX] 01 03 15 0A 00 1A E0 0F 01 03 34 43 54 E6 66 43 55 33 33 43 55 66 66 42 F6 33 33 42 F5 99 9A 42 F6 CC CD 43 B2 4C CD 43 A6 66 66 43 A0 CC CD 42 EE EB 85 42 28 28 F6 42 1F D7 0A 42 15 C2 8F 22 CB 
[RX] 01 03 18 1E 00 10 22 A0 01 03 20 47 C2 58 68 47 06 AE 98 46 F2 12 20 47 04 F9 28 47 C2 39 AC 45 28 1C 80 44 53 BC 00 44 63 8E 00 CB 94 
[RX] 01 03 15 0A 00 1A E0 0F 01 03 34 43 55 80 00 43 55 CC CD 43 56 19 9A 42 F7 00 00 42 F6 33 33 42 F7 99 9A 43 9B 66 66 43 8F 66 66 43 89 4C CD 42 D0 70 A4 42 14 28 F6 42 0A CC CD 42 01 D7 0A AC 1F 
[RX] 01 03 20 44 00 02 8F DE 01 03 04 45 BB 70 00 BA DA 
[RX] 01 03 15 0A 00 1A E0 0F 01 03 34 43 55 80 00 43 55 CC CD 43 56 19 9A 42 F7 00 00 42 F6 33 33 42 F7 99 9A 43 9A 4C CD 43 8E 33 33 43 87 80 00 42 D0 F5 C3 42 14 E1 48 42 0B 0A 3D 42 01 EB 85 F7 D1 01 03 18 1E 00 10 22 A0 01 03 20 47 C2 58 71 47 06 AE 98 46 F2 12 31 47 04 F9 30 47 C2 39 B1 45 28 1C 80 44 53 BC 00 44 63 8E 00 AE 1D 
[RX] 01 03 15 0A 00 1A E0 0F 01 03 34 43 55 99 9A 43 55 CC CD 43 56 33 33 42 F7 33 33 42 F6 33 33 42 F7 99 9A 43 9D 33 33 43 91 4C CD 43 8A 4C CD 42 D4 EB 85 42 17 85 1F 42 0D D7 0A 42 04 66 66 B5 E8 01 03 20 44 00 02 8F DE 01 03 04 45 BB 70 00 BA DA 
[RX] 01 03 00 2B 00 01 F4 02 01 03 02 53 48 84 82 
[RX] 01 03 15 0A 00 1A E0 0F 01 03 34 43 55 99 9A 43 55 CC CD 43 56 33 33 42 F7 33 33 42 F6 33 33 42 F7 99 9A 43 9D CC CD 43 94 E6 66 43 8B 33 33 42 D6 C2 8F 42 17 C2 8F 42 10 A3 D7 42 05 0A 3D 71 53 
[RX] 01 03 18 1E 00 10 22 A0 01 03 20 47 C2 58 74 47 06 AE A0 46 F2 12 31 47 04 F9 30 47 C2 39 B4 45 28 1C 80 44 53 BC 00 44 63 8E 00 37 AB 
[RX] 01 03 15 0A 00 1A E0 0F 01 03 34 43 55 99 9A 43 55 CC CD 43 56 33 33 42 F7 33 33 42 F6 33 33 42 F7 99 9A 43 9D 19 9A 43 93 B3 33 43 8A 80 00 42 D6 A3 D7 42 17 D7 0A 42 10 51 EC 42 05 0A 3D 0F CD 01 03 20 44 00 02 8F DE 01 03 04 45 BB 70 00 BA DA 
[RX] 01 03 15 0A 00 1A E0 0F 01 03 34 43 55 99 9A 43 55 CC CD 43 56 33 33 42 F7 33 33 42 F6 33 33 42 F7 99 9A 43 9D CC CD 43 94 80 00 43 8B 33 33 42 D7 3D 71 42 18 14 7B 42 11 0A 3D 42 05 5C 29 5A F0 
[RX] 01 03 18 1E 00 10 22 A0 01 03 20 47 C2 58 74 47 06 AE A0 46 F2 12 31 47 04 F9 30 47 C2 39 B8 45 28 1C 80 44 53 BC 00 44 63 8E 00 26 67 
[RX] 01 03 15 0A 00 1A E0 0F 01 03 34 43 55 99 9A 43 55 CC CD 43 56 33 33 42 F7 33 33 42 F6 33 33 42 F7 99 9A 43 9D CC CD 43 94 80 00 43 8B 33 33 42 D7 F5 C3 42 18 E1 48 42 11 1E B8 42 05 C2 8F 59 79 
[RX] 01 03 20 44 00 02 8F DE 01 03 04 45 BB 70 00 BA DA 
[RX] 01 03 15 0A 00 1A E0 0F 01 03 34 43 55 99 9A 43 55 CC CD 43 56 33 33 42 F7 33 33 42 F6 33 33 42 F7 99 9A 43 9E 33 33 43 94 4C CD 43 8B 80 00 42 D6 85 1F 42 17 C2 8F 42 10 3D 71 42 04 F5 C3 F5 CA 
[RX] 01 03 00 2B 00 01 F4 02 01 03 02 53 48 84 82 
[RX] 01 03 18 1E 00 10 22 A0 01 03 20 47 C2 58 80 47 06 AE A8 46 F2 12 40 47 04 F9 38 47 C2 39 BC 45 28 1C 80 44 53 BC 00 44 63 8E 00 6E 3E 
[RX] 01 03 15 0A 00 1A E0 0F 01 03 34 43 55 99 9A 43 55 CC CD 43 56 33 33 42 F7 33 33 42 F6 33 33 42 F7 99 9A 43 9D 66 66 43 93 E6 66 43 8A E6 66 42 D7 28 F6 42 18 7A E1 42 10 7A E1 42 05 5C 29 FA B5 
[RX] 01 03 20 44 00 02 8F DE 01 03 04 45 BB 78 00 BD 1A 
[RX] 01 03 15 0A 00 1A E0 0F 01 03 34 43 55 99 9A 43 55 CC CD 43 56 33 33 42 F7 33 33 42 F6 33 33 42 F7 99 9A 43 9E 19 9A 43 93 CC CD 43 8B 33 33 42 D7 70 A4 42 18 B8 52 42 10 28 F6 42 05 EB 85 E9 E8 
[RX] 01 03 18 1E 00 10 22 A0 01 03 20 47 C2 58 80 47 06 AE A8 46 F2 12 40 47 04 F9 38 47 C2 39 C0 45 28 1C 80 44 53 BC 00 44 63 8E 00 C0 C2 
[RX] 01 03 15 0A 00 1A E0 0F 01 03 34 43 55 B3 33 43 55 E6 66 43 56 33 33 42 F7 33 33 42 F6 66 66 42 F7 99 9A 43 9D CC CD 43 92 66 66 43 8B 80 00 42 D5 28 F6 42 17 70 A4 42 0D D7 0A 42 05 0A 3D 15 BE 01 03 20 44 00 02 8F DE 01 03 04 45 BB 78 00 BD 1A 
[RX] 01 03 15 0A 00 1A E0 0F 01 03 34 43 55 CC CD 43 55 E6 66 43 56 33 33 42 F7 33 33 42 F6 99 9A 42 F7 99 9A 43 9D 00 00 43 91 19 9A 43 8A 66 66 42 D4 F5 C3 42 17 0A 3D 42 0E 3D 71 42 04 8F 5C F5 25 01 03 18 1E 00 10 22 A0 01 03 20 47 C2 58 80 47 06 AE A8 46 F2 12 40 47 04 F9 38 47 C2 39 C4 45 28 1C 80 44 53 BC 00 44 63 8E 00 CE 46 
[RX] 01 03 15 0A 00 1A E0 0F 01 03 34 43 55 99 9A 43 55 CC CD 43 56 33 33 42 F7 33 33 42 F6 33 33 42 F7 99 9A 43 9D 4C CD 43 92 80 00 43 8A E6 66 42 D7 70 A4 42 18 00 00 42 11 5C 29 42 05 70 A4 A9 75 01 03 00 2B 00 01 F4 02 01 03 02 53 48 84 82 
[RX] 01 03 20 44 00 02 8F DE 01 03 04 45 BB 78 00 BD 1A 
[RX] 01 03 15 0A 00 1A E0 0F 01 03 34 43 55 B3 33 43 55 E6 66 43 56 33 33 42 F7 33 33 42 F6 66 66 42 F7 99 9A 43 9D 80 00 43 94 B3 33 43 8B 33 33 42 D6 8F 5C 42 17 70 A4 42 10 A3 D7 42 04 F5 C3 22 0A 
[RX] 01 03 18 1E 00 10 22 A0 01 03 20 47 C2 58 8C 47 06 AE B0 46 F2 12 4F 47 04 F9 40 47 C2 39 C8 45 28 1C 80 44 53 BC 00 44 63 8E 00 7C BA 
[RX] 01 03 15 0A 00 1A E0 0F 01 03 34 43 55 B3 33 43 55 E6 66 43 56 33 33 42 F7 33 33 42 F6 66 66 42 F7 99 9A 43 9C CC CD 43 93 B3 33 43 8A 4C CD 42 D6 B8 52 42 17 D7 0A 42 10 B8 52 42 04 CC CD D8 CE 01 03 20 44 00 02 8F DE 01 03 04 45 BB 78 00 BD 1A 
[RX] 01 03 15 0A 00 1A E0 0F 01 03 34 43 55 B3 33 43 55 E6 66 43 56 33 33 42 F7 33 33 42 F6 66 66 42 F7 99 9A 43 9D 80 00 43 94 19 9A 43 8A CC CD 42 D7 AE 14 42 18 8F 5C 42 11 0A 3D 42 05 AE 14 C2 B6 01 03 18 1E 00 10 22 A0 01 03 20 47 C2 58 8C 47 06 AE B0 46 F2 12 4F 47 04 F9 40 47 C2 39 CC 45 28 1C 80 44 53 BC 00 44 63 8E 00 72 3E 
[RX] 01 03 15 0A 00 1A E0 0F 01 03 34 43 55 80 00 43 55 B3 33 43 56 00 00 42 F7 00 00 42 F6 33 33 42 F7 66 66 43 9E 66 66 43 94 99 9A 43 8B 80 00 42 D6 EB 85 42 18 3D 71 42 10 7A E1 42 05 1E B8 BF CD 01 03 20 44 00 02 8F DE 01 03 04 45 BB 80 00 FE DA 
[RX] 01 03 00 2B 00 01 F4 02 01 03 02 53 48 84 82 
[RX] 01 03 15 0A 00 1A E0 0F 01 03 34 43 55 4C CD 43 55 80 00 43 55 E6 66 42 F6 CC CD 42 F6 00 00 42 F7 33 33 43 9D 66 66 43 93 B3 33 43 8A B3 33 42 D6 70 A4 42 17 AE 14 42 10 14 7B 42 04 F5 C3 8F 49 
[RX] 01 03 18 1E 00 10 22 A0 01 03 20 47 C2 58 8F 47 06 AE B8 46 F2 12 4F 47 04 F9 40 47 C2 39 CF 45 28 1C 80 44 53 BC 00 44 63 8E 00 9D B5 
[RX] 01 03 15 0A 00 1A E0 0F 01 03 34 43 55 4C CD 43 55 66 66 43 55 E6 66 42 F6 CC CD 42 F5 CC CD 42 F7 33 33 43 9D 80 00 43 94 19 9A 43 8A E6 66 42 D7 66 66 42 18 28 F6 42 10 F5 C3 42 05 99 9A AE 59 01 03 20 44 00 02 8F DE 01 03 04 45 BB 80 00 FE DA 
[RX] 01 03 15 0A 00 1A E0 0F 01 03 34 43 55 4C CD 43 55 80 00 43 55 E6 66 42 F6 CC CD 42 F6 00 00 42 F7 33 33 43 9D E6 66 43 95 19 9A 43 8B 80 00 42 D6 D7 0A 42 17 AE 14 42 10 CC CD 42 05 0A 3D 73 33 
[RX] 01 03 18 1E 00 10 22 A0 01 03 20 47 C2 58 98 47 06 AE B8 46 F2 12 60 47 04 F9 48 47 C2 39 D8 45 28 1C 80 44 53 BC 00 44 63 8E 00 B7 24 
[RX] 01 03 15 0A 00 1A E0 0F 01 03 34 43 55 66 66 43 55 99 9A 43 56 00 00 42 F7 00 00 42 F6 00 00 42 F7 66 66 43 9D 19 9A 43 94 00 00 43 8A 80 00 42 D6 3D 71 42 17 85 1F 42 10 51 EC 42 04 8F 5C 0E 23 
[RX] 01 03 20 44 00 02 8F DE 01 03 04 45 BB 80 00 FE DA 
[RX] 01 03 15 0A 00 1A E0 0F 01 03 34 43 55 99 9A 43 55 E6 66 43 56 19 9A 42 F7 00 00 42 F6 66 66 42 F7 99 9A 43 9C CC CD 43 91 E6 66 43 8A 66 66 42 D5 33 33 42 17 47 AE 42 0E 51 EC 42 04 A3 D7 FC DE 01 03 00 2B 00 01 F4 02 01 03 02 53 48 84 82 
[RX] 01 03 18 1E 00 10 22 A0 01 03 20 47 C2 58 98 47 06 AE B8 46 F2 12 60 47 04 F9 48 47 C2 39 DC 45 28 1C 80 44 53 BC 00 44 63 8E 00 B9 A0 
[RX] 01 03 15 0A 00 1A E0 0F 01 03 34 43 56 99 9A 43 56 CC CD 43 57 33 33 42 F8 33 33 42 F7 66 66 42 F8 CC CD 43 90 99 9A 43 85 CC CD 43 7D 99 9A 42 C3 AE 14 42 0B C2 8F 42 01 33 33 41 F4 7A E1 A3 7F 
[RX] 01 03 20 44 00 02 8F DE 01 03 04 45 BB 88 00 F9 1A 
[RX] 01 03 15 0A 00 1A E0 0F 
[RX] 01 03 34 43 56 99 9A 43 56 E6 66 43 57 33 33 42 F8 33 33 42 F7 99 9A 42 F8 CC CD 43 8F 00 00 43 83 B3 33 43 79 66 66 42 C2 0A 3D 42 0B 1E B8 41 FF 85 1F 41 F2 3D 71 E3 D1 
[RX] 01 03 18 1E 00 10 22 A0 01 03 20 47 C2 58 A0 47 06 AE C0 46 F2 12 71 47 04 F9 48 47 C2 39 E0 45 28 1C 80 44 53 BC 00 44 63 8E 00 E8 96 
[RX] 01 03 15 0A 00 1A E0 0F 01 03 34 43 56 00 00 43 56 19 9A 43 56 80 00 42 F7 99 9A 42 F6 CC CD 42 F7 CC CD 43 8F 4C CD 43 84 19 9A 43 7A 33 33 42 C2 AE 14 42 0B 5C 29 42 00 14 7B 41 F3 33 33 C9 08 
[RX] 01 03 20 44 00 02 8F DE 01 03 04 45 BB 88 00 F9 1A 
[RX] 01 03 15 0A 00 1A E0 0F 01 03 34 43 56 00 00 43 56 33 33 43 56 99 9A 42 F7 99 9A 42 F6 CC CD 42 F8 00 00 43 8F B3 33 43 84 CC CD 43 7B 00 00 42 C4 5C 29 42 0B D7 0A 42 00 F5 C3 41 F7 85 1F 7F F1 
[RX] 01 03 18 1E 00 10 22 A0 01 03 20 47 C2 58 A4 47 06 AE C0 46 F2 12 71 47 04 F9 50 47 C2 39 E4 45 28 1C 80 44 53 BC 00 44 63 8E 00 6C 12 01 03 00 2B 00 01 F4 02 01 03 02 53 48 84 82 
[RX] 01 03 15 0A 00 1A E0 0F 01 03 34 43 56 33 33 43 56 66 66 43 56 B3 33 42 F7 CC CD 42 F7 00 00 42 F8 33 33 43 90 33 33 43 85 00 00 43 80 B3 33 42 C4 F5 C3 42 0B EB 85 42 01 1E B8 41 F9 C2 8F 6B 98 
[RX] 01 03 20 44 00 02 8F DE 01 03 04 45 BB 88 00 F9 1A 
[RX] 01 03 15 0A 00 1A E0 0F 01 03 34 43 56 4C CD 43 56 99 9A 43 56 CC CD 42 F7 CC CD 42 F7 33 33 42 F8 66 66 43 8F 33 33 43 83 B3 33 43 7F 00 00 42 C3 7A E1 42 0B 47 AE 41 FF D7 0A 41 F7 5C 29 23 6B 
[RX] 01 03 18 1E 00 10 22 A0 01 03 20 47 C2 58 A4 47 06 AE C0 46 F2 12 71 47 04 F9 50 47 C2 39 E8 45 28 1C 80 44 53 BC 00 44 63 8E 00 7D DE 
[RX] 01 03 15 0A 00 1A E0 0F 01 03 34 43 56 80 00 43 56 99 9A 43 57 19 9A 42 F8 33 33 42 F7 33 33 42 F8 99 9A 43 8F 00 00 43 83 80 00 43 7D 33 33 42 C3 EB 85 42 0B EB 85 42 00 51 EC 41 F7 0A 3D 12 E4 01 03 20 44 00 02 8F DE 01 03 04 45 BB 88 00 F9 1A 
[RX] 01 03 15 0A 00 1A E0 0F 01 03 34 43 56 99 9A 43 56 99 9A 43 57 00 00 42 F8 33 33 42 F7 66 66 42 F8 66 66 43 90 00 00 43 84 4C CD 43 7E 66 66 42 C4 47 AE 42 0C 14 7B 42 00 7A E1 41 F7 D7 0A 4F 04 01 03 18 1E 00 10 22 A0 01 03 20 47 C2 58 AC 47 06 AE C8 46 F2 12 80 47 04 F9 50 47 C2 39 EC 45 28 1C 80 44 53 BC 00 44 63 8E 00 2D 30 
[RX] 01 03 15 0A 00 1A E0 0F 01 03 34 43 56 99 9A 43 56 99 9A 43 57 00 00 42 F8 33 33 42 F7 66 66 42 F8 66 66 43 90 00 00 43 84 4C CD 43 7E 66 66 42 C4 70 A4 42 0C 3D 71 42 00 66 66 41 F8 51 EC AB B7 01 03 00 2B 00 01 F4 02 01 03 02 53 48 84 82 
[RX] 01 03 20 44 00 02 8F DE 01 03 04 45 BB 88 00 F9 1A 
[RX] 01 03 15 0A 00 1A E0 0F 01 03 34 43 56 80 00 43 56 99 9A 43 57 19 9A 42 F8 33 33 42 F7 33 33 42 F8 99 9A 43 8F 19 9A 43 83 4C CD 43 7E 66 66 42 C3 85 1F 42 0B 70 A4 41 FF 5C 29 41 F7 AE 14 45 E8 
[RX] 01 03 18 1E 00 10 22 A0 01 03 20 47 C2 58 B1 47 06 AE C8 46 F2 12 80 47 04 F9 58 47 C2 39 F1 45 28 1C 80 44 53 BC 00 44 63 8E 00 47 3B 
[RX] 01 03 15 0A 00 1A E0 0F 01 03 34 43 56 99 9A 43 56 99 9A 43 57 00 00 42 F8 33 33 42 F7 66 66 42 F8 66 66 43 8F B3 33 43 83 B3 33 43 7F 00 00 42 C4 14 7B 42 0B EB 85 42 00 00 00 41 F8 28 F6 4B 7A 
[RX] 01 03 20 44 00 02 8F DE 01 03 04 45 BB 88 00 F9 1A 
[RX] 01 03 15 0A 00 1A E0 0F 01 03 34 43 56 99 9A 43 56 99 9A 43 57 00 00 42 F8 33 33 42 F7 66 66 42 F8 66 66 43 8F B3 33 43 83 B3 33 43 7F 00 00 42 C4 00 00 42 0B D7 0A 42 00 28 F6 41 F7 D7 0A A5 AC 
[RX] 01 03 18 1E 00 10 22 A0 01 03 20 47 C2 58 B4 47 06 AE D0 46 F2 12 80 47 04 F9 58 47 C2 39 F4 45 28 1C 80 44 53 BC 00 44 63 8E 00 75 E7 
[RX] 01 03 15 0A 00 1A E0 0F 01 03 34 43 56 99 9A 43 56 B3 33 43 57 19 9A 42 F8 33 33 42 F7 66 66 42 F8 99 9A 43 8F 80 00 43 83 B3 33 43 7E 66 66 42 C7 33 33 42 0C 28 F6 42 03 1E B8 41 FE 14 7B 43 97 01 03 20 44 00 02 8F DE 01 03 04 45 BB 88 00 F9 1A 
[RX] 01 03 00 2B 00 01 F4 02 01 03 02 53 48 84 82 
[RX] 01 03 15 0A 00 1A E0 0F 01 03 34 43 56 80 00 43 56 99 9A 43 57 19 9A 42 F8 33 33 42 F7 33 33 42 F8 99 9A 43 8F E6 66 43 86 CC CD 43 82 99 9A 42 C4 0A 3D 42 0B AE 14 42 01 1E B8 41 F6 66 66 84 E6 
[RX] 01 03 18 1E 00 10 22 A0 01 03 20 47 C2 58 B8 47 06 AE D0 46 F2 12 8F 47 04 F9 58 47 C2 39 F8 45 28 1C 80 44 53 BC 00 44 63 8E 00 9B DD 
[RX] 01 03 15 0A 00 1A E0 0F 01 03 34 43 56 80 00 43 56 99 9A 43 57 19 9A 42 F8 33 33 42 F7 33 33 42 F8 99 9A 43 8F 19 9A 43 84 E6 66 43 7C 99 9A 42 C4 28 F6 42 0B 70 A4 42 01 70 A4 41 F6 B8 52 7B 72 01 03 20 44 00 02 8F DE 01 03 04 45 BB 88 00 F9 1A 
[RX] 01 03 15 0A 00 1A E0 0F 01 03 34 43 56 80 00 43 56 99 9A 43 57 19 9A 42 F8 33 33 42 F7 33 33 42 F8 99 9A 43 8F 19 9A 43 84 E6 66 43 7C 99 9A 42 C4 D7 0A 42 0C 14 7B 42 01 AE 14 41 F7 AE 14 DC AC 
[RX] 01 03 18 1E 00 10 22 A0 01 03 20 47 C2 58 BC 47 06 AE D0 46 F2 12 8F 47 04 F9 60 47 C2 39 FC 45 28 1C 80 44 53 BC 00 44 63 8E 00 06 93 
[RX] 01 03 15 0A 00 1A E0 0F 01 03 34 43 56 80 00 43 56 99 9A 43 57 19 9A 42 F8 33 33 42 F7 33 33 42 F8 99 9A 43 8F 80 00 43 85 19 9A 43 7E 00 00 42 C4 85 1F 42 0B AE 14 42 01 70 A4 41 F7 AE 14 A4 DA 
[RX] 01 03 20 44 00 02 8F DE 01 03 04 45 BB 80 00 FE DA 
[RX] 01 03 15 0A 00 1A E0 0F 01 03 34 43 56 80 00 43 56 99 9A 43 57 19 9A 42 F8 33 33 42 F7 33 33 42 F8 99 9A 43 8F 19 9A 43 84 B3 33 43 7D 66 66 42 C4 33 33 42 0B 33 33 42 01 99 9A 41 F7 33 33 A9 8A 01 03 00 2B 00 01 F4 02 01 03 02 53 48 84 82 
[RX] 01 03 18 1E 00 10 22 A0 01 03 20 47 C2 58 C0 47 06 AE D8 46 F2 12 8F 47 04 F9 60 47 C2 3A 00 45 28 1C 80 44 53 BC 00 44 63 8E 00 FE BA 
[RX] 01 03 15 0A 00 1A E0 0F 01 03 34 43 56 4C CD 43 56 99 9A 43 57 00 00 42 F8 00 00 42 F7 00 00 42 F8 99 9A 43 8F 19 9A 43 85 B3 33 43 7D CC CD 42 C5 0A 3D 42 0B C2 8F 42 02 28 F6 41 F8 28 F6 22 8C 
[RX] 01 03 20 44 00 02 8F DE 01 03 04 45 BB 80 00 FE DA 
[RX] 01 03 15 0A 00 1A E0 0F 01 03 34 43 56 80 00 43 56 99 9A 43 57 19 9A 42 F8 33 33 42 F7 33 33 42 F8 99 9A 43 8F 66 66 43 85 B3 33 43 7E 66 66 42 C5 0A 3D 42 0C 00 00 42 01 C2 8F 41 F8 7A E1 D4 67 
[RX] 01 03 18 1E 00 10 22 A0 01 03 20 47 C2 58 C4 47 06 AE D8 46 F2 12 A0 47 04 F9 60 47 C2 3A 04 45 28 1C 80 44 53 BC 00 44 63 8E 00 28 A4 
[RX] 01 03 15 0A 00 1A E0 0F 01 03 34 43 56 80 00 43 56 99 9A 43 57 19 9A 42 F8 33 33 42 F7 33 33 42 F8 99 9A 43 8F 99 9A 43 85 4C CD 43 7E CC CD 42 C4 8F 5C 42 0B 85 1F 42 01 C2 8F 41 F7 85 1F BB 53 
[RX] 01 03 20 44 00 02 8F DE 01 03 04 45 BB 80 00 FE DA 
[RX] 01 03 15 0A 00 1A E0 0F 01 03 34 43 56 66 66 43 56 99 9A 43 57 19 9A 42 F8 33 33 42 F7 00 00 42 F8 99 9A 43 8E E6 66 43 85 19 9A 43 7D 33 33 42 C4 5C 29 42 0B 33 33 42 01 EB 85 41 F7 0A 3D 3D 9A 
[RX] 01 03 18 1E 00 10 22 A0 01 03 20 47 C2 58 C8 47 06 AE D8 46 F2 12 A0 47 04 F9 68 47 C2 3A 08 45 28 1C 80 44 53 BC 00 44 63 8E 00 BE A3 01 03 00 2B 00 01 F4 02 01 03 02 53 48 84 82 
[RX] 01 03 15 0A 00 1A E0 0F 01 03 34 43 56 80 00 43 56 99 9A 43 57 19 9A 42 F8 33 33 42 F7 33 33 42 F8 99 9A 43 8F 99 9A 43 85 99 9A 43 7E CC CD 42 C5 7A E1 42 0C 00 00 42 02 7A E1 41 F8 CC CD 87 95 
[RX] 01 03 20 44 00 02 8F DE 01 03 04 45 BB 80 00 FE DA 
[RX] 01 03 15 0A 00 1A E0 0F 01 03 34 43 56 80 00 43 56 99 9A 43 57 19 9A 42 F8 33 33 42 F7 33 33 42 F8 99 9A 43 8F 33 33 43 85 19 9A 43 7D 99 9A 42 C4 28 F6 42 0B 1E B8 42 01 85 1F 41 F7 33 33 F7 8B 
[RX] 01 03 18 1E 00 10 22 A0 01 03 20 47 C2 58 CC 47 06 AE E0 46 F2 12 A0 47 04 F9 68 47 C2 3A 0C 45 28 1C 80 44 53 BC 00 44 63 8E 00 E5 95 
[RX] 01 03 15 0A 00 1A E0 0F 01 03 34 43 56 4C CD 43 56 80 00 43 56 E6 66 42 F8 00 00 42 F7 00 00 42 F8 66 66 43 8F 33 33 43 85 99 9A 43 7D 66 66 42 C4 AE 14 42 0B AE 14 42 02 00 00 41 F7 5C 29 5A B4 01 03 20 44 00 02 8F DE 01 03 04 45 BB 80 00 FE DA 
[RX] 01 03 15 0A 00 1A E0 0F 01 03 34 43 56 19 9A 43 56 4C CD 43 56 B3 33 42 F7 CC CD 42 F6 CC CD 42 F8 33 33 43 8F 4C CD 43 85 E6 66 43 7D 99 9A 42 C5 47 AE 42 0B AE 14 42 02 8F 5C 41 F8 7A E1 DC E0 01 03 18 1E 00 10 22 A0 01 03 20 47 C2 58 CF 47 06 AE E0 46 F2 12 B1 47 04 F9 68 47 C2 3A 0F 45 28 1C 80 44 53 BC 00 44 63 8E 00 A2 14 
[RX] 01 03 15 0A 00 1A E0 0F 01 03 34 43 56 00 00 43 56 33 33 43 56 99 9A 42 F7 99 9A 42 F6 CC CD 42 F8 00 00 43 8F 99 9A 43 86 33 33 43 7E CC CD 42 C5 47 AE 42 0C 14 7B 42 02 7A E1 41 F7 D7 0A 23 CD 01 03 00 2B 00 01 F4 02 01 03 02 53 48 84 82 
[RX] 01 03 20 44 00 02 8F DE 01 03 04 45 BB 80 00 FE DA 
[RX] 01 03 15 0A 00 1A E0 0F 01 03 34 43 56 19 9A 43 56 4C CD 43 56 B3 33 42 F7 CC CD 42 F6 CC CD 42 F8 33 33 43 8F 4C CD 43 86 00 00 43 7D 99 9A 42 C4 1E B8 42 0A F5 C3 42 01 EB 85 41 F6 8F 5C 2D 1E 
[RX] 01 03 18 1E 00 10 22 A0 01 03 20 47 C2 58 D4 47 06 AE E0 46 F2 12 B1 47 04 F9 70 47 C2 3A 14 45 28 1C 80 44 53 BC 00 44 63 8E 00 4C 18 
[RX] 01 03 15 0A 00 1A E0 0F 01 03 34 43 56 4C CD 43 56 80 00 43 56 B3 33 42 F7 CC CD 42 F7 33 33 42 F8 33 33 43 8E E6 66 43 85 99 9A 43 7D 99 9A 42 C4 7A E1 42 0B 47 AE 42 02 14 7B 41 F6 E1 48 ED 57 
[RX] 01 03 20 44 00 02 8F DE 01 03 04 45 BB 80 00 FE DA 
[RX] 01 03 15 0A 00 1A E0 0F 01 03 34 43 56 4C CD 43 56 66 66 43 56 CC CD 42 F8 00 00 42 F7 00 00 42 F8 33 33 43 8F 99 9A 43 86 4C CD 43 7E 99 9A 42 C5 99 9A 42 0C 14 7B 42 02 F5 C3 41 F8 28 F6 B3 E0 
[RX] 01 03 18 1E 00 10 22 A0 01 03 20 47 C2 58 D8 47 06 AE E8 46 F2 12 B1 47 04 F9 70 47 C2 3A 18 45 28 1C 80 44 53 BC 00 44 63 8E 00 F7 97 
[RX] 01 03 15 0A 00 1A E0 0F 01 03 34 43 56 80 00 43 56 99 9A 43 57 19 9A 42 F8 33 33 42 F7 33 33 42 F8 99 9A 43 8F 66 66 43 85 CC CD 43 7E 00 00 42 C5 1E B8 42 0B D7 0A 42 02 51 EC 41 F8 00 00 1D C9 
[RX] 01 03 20 44 00 02 8F DE 01 03 04 45 BB 78 00 BD 1A 
[RX] 01 03 00 2B 00 01 F4 02 01 03 02 53 48 84 82 
[RX] 01 03 15 0A 00 1A E0 0F 01 03 34 43 56 CC CD 43 56 E6 66 43 57 4C CD 42 F8 99 9A 42 F7 99 9A 42 F8 CC CD 43 8E 33 33 43 84 CC CD 43 7D 33 33 42 C4 00 00 42 0A B8 52 42 01 85 1F 41 F7 5C 29 FD 03 
[RX] 01 03 18 1E 00 10 22 A0 01 03 20 47 C2 58 DC 47 06 AE E8 46 F2 12 C0 47 04 F9 70 47 C2 3A 1C 45 28 1C 80 44 53 BC 00 44 63 8E 00 92 F2 
[RX] 01 03 15 0A 00 1A E0 0F 01 03 34 43 56 B3 33 43 56 E6 66 43 57 33 33 42 F8 66 66 42 F7 99 9A 42 F8 CC CD 43 8E 80 00 43 85 00 00 43 7D 66 66 42 C4 00 00 42 0B 1E B8 42 01 5C 29 41 F6 E1 48 FA 94 01 03 20 44 00 02 8F DE 01 03 04 45 BB 78 00 BD 1A 
[RX] 01 03 15 0A 00 1A E0 0F 01 03 34 43 56 99 9A 43 56 CC CD 43 57 33 33 42 F8 66 66 42 F7 66 66 42 F8 CC CD 43 8E E6 66 43 84 99 9A 43 7D 33 33 42 C4 66 66 42 0B C2 8F 42 01 5C 29 41 F7 33 33 2D 44 01 03 18 1E 00 10 22 A0 01 03 20 47 C2 58 E0 47 06 AE E8 46 F2 12 C0 47 04 F9 78 47 C2 3A 20 45 28 1C 80 44 53 BC 00 44 63 8E 00 45 21 
[RX] 01 03 15 0A 00 1A E0 0F 01 03 34 43 56 B3 33 43 56 E6 66 43 57 33 33 42 F8 66 66 42 F7 99 9A 42 F8 CC CD 43 8F 19 9A 43 85 33 33 43 7E 00 00 42 C5 0A 3D 42 0B AE 14 42 02 14 7B 41 F8 7A E1 B9 52 
[RX] 01 03 20 44 00 02 8F DE 01 03 04 45 BB 78 00 BD 1A 
[RX] 01 03 15 0A 00 1A E0 0F 01 03 34 43 56 B3 33 43 56 E6 66 43 57 33 33 42 F8 66 66 42 F7 99 9A 42 F8 CC CD 43 8F 19 9A 43 85 33 33 43 7E 00 00 42 C5 AE 14 42 0B EB 85 42 02 E1 48 41 F9 1E B8 66 56 01 03 00 2B 00 01 F4 02 01 03 02 53 48 84 82 
[RX] 01 03 18 1E 00 10 22 A0 01 03 20 47 C2 58 E4 47 06 AE F0 46 F2 12 C0 47 04 F9 78 47 C2 3A 24 45 28 1C 80 44 53 BC 00 44 63 8E 00 B5 7D 
[RX] 01 03 15 0A 00 1A E0 0F 01 03 34 43 56 CC CD 43 56 E6 66 43 57 4C CD 42 F8 99 9A 42 F7 99 9A 42 F8 CC CD 43 8F 19 9A 43 85 99 9A 43 7E 00 00 42 C4 3D 71 42 0B 1E B8 42 01 D7 0A 41 F6 E1 48 A6 05 
[RX] 01 03 20 44 00 02 8F DE 01 03 04 45 BB 78 00 BD 1A 
[RX] 01 03 15 0A 00 1A E0 0F 01 03 34 43 56 CC CD 43 57 00 00 43 57 66 66 42 F8 99 9A 42 F7 99 9A 42 F9 00 00 43 8E 4C CD 43 84 CC CD 43 7C 99 9A 42 C4 0A 3D 42 0A E1 48 42 01 C2 8F 41 F6 E1 48 7E 0A 
[RX] 01 03 18 1E 00 10 22 A0 01 03 20 47 C2 58 E8 47 06 AE F0 46 F2 12 CF 47 04 F9 78 47 C2 3A 28 45 28 1C 80 44 53 BC 00 44 63 8E 00 5B 47 
[RX] 01 03 15 0A 00 1A E0 0F 01 03 34 43 56 CC CD 43 57 00 00 43 57 66 66 42 F8 99 9A 42 F7 99 9A 42 F9 00 00 43 8E 99 9A 43 84 CC CD 43 7D 00 00 42 C4 33 33 42 0B 33 33 42 01 85 1F 41 F7 33 33 33 6A 01 03 20 44 00 02 8F DE 01 03 04 45 BB 78 00 BD 1A 
[RX] 01 03 15 0A 00 1A E0 0F 01 03 34 43 56 CC CD 43 57 00 00 43 57 66 66 42 F8 99 9A 42 F7 99 9A 42 F9 00 00 43 8E 99 9A 43 84 CC CD 43 7D 00 00 42 C3 8F 5C 42 0A B8 52 42 01 33 33 41 F6 3D 71 D5 D9 01 03 00 2B 00 01 F4 02 01 03 02 53 48 84 82 
[RX] 01 03 18 1E 00 10 22 A0 01 03 20 47 C2 58 EC 47 06 AE F8 46 F2 12 CF 47 04 F9 78 47 C2 3A 2C 45 28 1C 80 44 53 BC 00 44 63 8E 00 FF 8E 
[RX] 01 03 15 0A 00 1A E0 0F 01 03 34 43 56 99 9A 43 56 CC CD 43 57 33 33 42 F8 33 33 42 F7 66 66 42 F8 CC CD 43 8E 80 00 43 84 CC CD 43 7D 00 00 42 C4 51 EC 42 0B 5C 29 42 01 99 9A 41 F7 33 33 D6 A5 
[RX] 01 03 20 44 00 02 8F DE 01 03 04 45 BB 78 00 BD 1A 
[RX] 01 03 15 0A 00 1A E0 0F 01 03 34 43 56 CC CD 43 56 E6 66 43 57 4C CD 42 F8 99 9A 42 F7 99 9A 42 F8 CC CD 43 8E CC CD 43 84 E6 66 43 7D 33 33 42 C5 3D 71 42 0B EB 85 42 02 51 EC 41 F8 51 EC 1C 62 01 03 18 1E 00 10 22 A0 01 03 20 47 C2 58 F1 47 06 AE F8 46 F2 12 CF 47 04 F9 80 47 C2 3A 31 45 28 1C 80 44 53 BC 00 44 63 8E 00 D1 B6 
[RX] 01 03 15 0A 00 1A E0 0F 01 03 34 43 56 CC CD 43 56 E6 66 43 57 4C CD 42 F8 99 9A 42 F7 99 9A 42 F8 CC CD 43 8F 4C CD 43 85 4C CD 43 7E 00 00 42 C5 0A 3D 42 0C 7A E1 42 01 1E B8 41 F8 CC CD F2 A2 
[RX] 01 03 20 44 00 02 8F DE 01 03 04 45 BB 78 00 BD 1A 
[RX] 01 03 15 0A 00 1A E0 0F 01 03 34 43 56 CC CD 43 56 E6 66 43 57 4C CD 42 F8 99 9A 42 F7 99 9A 42 F8 CC CD 43 8F 00 00 43 84 B3 33 43 7E 00 00 42 C5 E1 48 42 0E 28 F6 42 01 85 1F 41 F8 00 00 FB 49 
[RX] 01 03 18 1E 00 10 22 A0 01 03 20 47 C2 58 F4 47 06 AE F8 46 F2 12 E0 47 04 F9 80 47 C2 3A 34 45 28 1C 80 44 53 BC 00 44 63 8E 00 C5 28 
[RX] 01 03 00 2B 00 01 F4 02 01 03 02 53 48 84 82 
[RX] 01 03 15 0A 00 1A E0 0F 01 03 34 43 56 CC CD 43 56 E6 66 43 57 4C CD 42 F8 99 9A 42 F7 99 9A 42 F8 CC CD 43 92 00 00 43 84 E6 66 43 7E CC CD 42 C6 00 00 42 0E 66 66 42 01 47 AE 41 F8 7A E1 0B E1 01 03 20 44 00 02 8F DE 01 03 04 45 BB 78 00 BD 1A 
[RX] 01 03 15 0A 00 1A E0 0F 01 03 34 43 56 CC CD 43 56 E6 66 43 57 4C CD 42 F8 99 9A 42 F7 99 9A 42 F8 CC CD 43 91 B3 33 43 84 CC CD 43 7F 00 00 42 C6 D7 0A 42 0E E1 48 42 01 EB 85 41 F9 C2 8F 2A 6E 
[RX] 01 03 18 1E 00 10 22 A0 01 03 20 47 C2 58 F8 47 06 AF 00 46 F2 12 E0 47 04 F9 80 47 C2 3A 38 45 28 1C 80 44 53 BC 00 44 63 8E 00 80 98 
[RX] 01 03 15 0A 00 1A E0 0F 01 03 34 43 56 CC CD 43 56 E6 66 43 57 4C CD 42 F8 99 9A 42 F7 99 9A 42 F8 CC CD 43 92 66 66 43 85 00 00 43 7F CC CD 42 C7 85 1F 42 0F 85 1F 42 02 3D 71 41 FA 66 66 43 C2 01 03 20 44 00 02 8F DE 01 03 04 45 BB 78 00 BD 1A 
[RX] 01 03 15 0A 00 1A E0 0F 01 03 34 43 56 CC CD 43 56 E6 66 43 57 4C CD 42 F8 99 9A 42 F7 99 9A 42 F8 CC CD 43 92 E6 66 43 85 E6 66 43 80 80 00 42 C6 E1 48 42 0F 1E B8 42 01 70 A4 41 FA 3D 71 54 17 01 03 18 1E 00 10 22 A0 01 03 20 47 C2 58 FC 47 06 AF 00 46 F2 12 E0 47 04 F9 88 47 C2 3A 3C 45 28 1C 80 44 53 BC 00 44 63 8E 00 09 D9 
[RX] 01 03 15 0A 00 1A E0 0F 01 03 34 43 56 B3 33 43 56 E6 66 43 57 33 33 42 F8 66 66 42 F7 99 9A 42 F8 CC CD 43 91 CC CD 43 84 66 66 43 7F 00 00 42 C6 47 AE 42 0E 8F 5C 42 01 70 A4 41 F9 1E B8 96 22 
[RX] 01 03 00 2B 00 01 F4 02 01 03 02 53 48 84 82 
[RX] 01 03 20 44 00 02 8F DE 01 03 04 45 BB 78 00 BD 1A 
[RX] 01 03 15 0A 00 1A E0 0F 01 03 34 43 56 CC CD 43 56 E6 66 43 57 4C CD 42 F8 99 9A 42 F7 99 9A 42 F8 CC CD 43 92 80 00 43 85 66 66 43 7F CC CD 42 C7 14 7B 42 0F 33 33 42 01 EB 85 41 F9 C2 8F E3 82 
[RX] 01 03 18 1E 00 10 22 A0 01 03 20 47 C2 59 00 47 06 AF 00 46 F2 12 F1 47 04 F9 88 47 C2 3A 40 45 28 1C 80 44 53 BC 00 44 63 8E 00 A4 88 
[RX] 01 03 15 0A 00 1A E0 0F 01 03 34 43 56 CC CD 43 57 00 00 43 57 66 66 42 F8 99 9A 42 F7 99 9A 42 F9 00 00 43 92 66 66 43 85 99 9A 43 80 4C CD 42 C9 85 1F 42 0F 1E B8 42 02 B8 52 42 01 0A 3D D2 D4 
[RX] 01 03 20 44 00 02 8F DE 01 03 04 45 BB 78 00 BD 1A 
[RX] 01 03 15 0A 00 1A E0 0F 01 03 34 43 56 CC CD 43 56 E6 66 43 57 4C CD 42 F8 99 9A 42 F7 99 9A 42 F8 CC CD 43 92 99 9A 43 86 19 9A 43 83 4C CD 42 C9 70 A4 42 0F 70 A4 42 03 5C 29 42 00 00 00 92 5E 
[RX] 01 03 18 1E 00 10 22 A0 01 03 20 47 C2 59 04 47 06 AF 08 46 F2 12 F1 47 04 F9 88 47 C2 3A 44 45 28 1C 80 44 53 BC 00 44 63 8E 00 00 41 
[RX] 01 03 15 0A 00 1A E0 0F 01 03 34 43 56 CC CD 43 57 00 00 43 57 66 66 42 F8 99 9A 42 F7 99 9A 42 F9 00 00 43 90 33 33 43 85 66 66 43 82 66 66 42 C6 14 7B 42 0C 00 00 42 01 0A 3D 41 FE 14 7B ED 23 01 03 20 44 00 02 8F DE 01 03 04 45 BB 78 00 BD 1A 
[RX] 01 03 00 2B 00 01 F4 02 01 03 02 53 48 84 82 
[RX] 01 03 15 0A 00 1A E0 0F 01 03 34 43 57 00 00 43 57 19 9A 43 57 80 00 42 F8 CC CD 42 F7 CC CD 42 F9 00 00 43 8F 00 00 43 84 00 00 43 81 99 9A 42 C5 AE 14 42 0B 99 9A 42 00 E1 48 41 FD 99 9A F5 29 
[RX] 01 03 18 1E 00 10 22 A0 01 03 20 47 C2 59 08 47 06 AF 08 46 F2 12 F1 47 04 F9 90 47 C2 3A 48 45 28 1C 80 44 53 BC 00 44 63 8E 00 9B 83 
[RX] 01 03 15 0A 00 1A E0 0F 01 03 34 43 56 E6 66 43 57 00 00 43 57 4C CD 42 F8 99 9A 42 F7 CC CD 42 F8 CC CD 43 8F 19 9A 43 84 4C CD 43 83 E6 66 42 C7 5C 29 42 0C 00 00 42 01 47 AE 42 01 5C 29 64 BC 
[RX] 01 03 20 44 00 02 8F DE 01 03 04 45 BB 78 00 BD 1A 
[RX] 01 03 15 0A 00 1A E0 0F 01 03 34 43 56 CC CD 43 56 E6 66 43 57 4C CD 42 F8 99 9A 42 F7 99 9A 42 F8 CC CD 43 8F 66 66 43 84 4C CD 43 84 33 33 42 C7 CC CD 42 0C A3 D7 42 01 47 AE 42 01 85 1F 02 1B 
[RX] 01 03 18 1E 00 10 22 A0 01 03 20 47 C2 59 0F 47 06 AF 10 46 F2 13 00 47 04 F9 90 47 C2 3A 4C 45 28 1C 80 44 53 BC 00 44 63 8E 00 0F 3F 
[RX] 01 03 15 0A 00 1A E0 0F 01 03 34 43 56 CC CD 43 56 E6 66 43 57 4C CD 42 F8 99 9A 42 F7 99 9A 42 F8 CC CD 43 8F 4C CD 43 83 E6 66 43 84 19 9A 42 C6 0A 3D 42 0B 5C 29 42 00 28 F6 42 00 7A E1 AA 79 01 03 20 44 00 02 8F DE 01 03 04 45 BB 78 00 BD 1A 
[RX] 01 03 00 2B 00 01 F4 02 01 03 02 53 48 84 82 
[RX] 01 03 15 0A 00 1A E0 0F 01 03 34 43 56 CC CD 43 57 00 00 43 57 66 66 42 F8 99 9A 42 F7 99 9A 42 F9 00 00 43 8F 80 00 43 84 00 00 43 84 00 00 42 C9 8F 5C 42 0C 3D 71 42 00 A3 D7 42 06 28 F6 EB 76 01 03 18 1E 00 10 22 A0 01 03 20 47 C2 59 0F 47 06 AF 10 46 F2 13 00 47 04 F9 90 47 C2 3A 4F 45 28 1C 80 44 53 BC 00 44 63 8E 00 0A FC 
[RX] 01 03 15 0A 00 1A E0 0F 
[RX] 01 03 34 43 56 E6 66 43 57 00 00 43 57 4C CD 42 F8 99 9A 42 F7 CC CD 42 F8 CC CD 43 90 00 00 43 84 4C CD 43 8B 99 9A 42 CA 85 1F 42 0C 3D 71 42 00 A3 D7 42 08 14 7B D5 01 01 03 20 44 00 02 8F DE 01 03 04 45 BB 70 00 BA DA 
[RX] 01 03 15 0A 00 1A E0 0F 01 03 34 43 56 E6 66 43 57 00 00 43 57 4C CD 42 F8 99 9A 42 F7 CC CD 42 F8 CC CD 43 90 19 9A 43 84 4C CD 43 8B 4C CD 42 CB 14 7B 42 0C B8 52 42 01 1E B8 42 08 28 F6 65 D0 
[RX] 01 03 18 1E 00 10 22 A0 01 03 20 47 C2 59 14 47 06 AF 10 46 F2 13 00 47 04 F9 98 47 C2 3A 54 45 28 1C 80 44 53 BC 00 44 63 8E 00 E9 35 
[RX] 01 03 15 0A 00 1A E0 0F 01 03 34 43 56 E6 66 43 57 00 00 43 57 4C CD 42 F8 99 9A 42 F7 CC CD 42 F8 CC CD 43 8F 19 9A 43 83 4C CD 43 89 CC CD 42 C9 99 9A 42 0B D7 0A 42 00 7A E1 42 06 E1 48 DF 7D 
[RX] 01 03 20 44 00 02 8F DE 01 03 04 45 BB 70 00 BA DA 
[RX] 01 03 15 0A 00 1A E0 0F 01 03 34 43 56 E6 66 43 57 00 00 43 57 4C CD 42 F8 99 9A 42 F7 CC CD 42 F8 CC CD 43 8F 19 9A 43 83 4C CD 43 89 CC CD 42 CA 14 7B 42 0C 28 F6 42 00 B8 52 42 07 33 33 4B E9 
[RX] 01 03 00 2B 00 01 F4 02 01 03 02 53 48 84 82 
[RX] 01 03 18 1E 00 10 22 A0 01 03 20 47 C2 59 1C 47 06 AF 18 46 F2 13 0F 47 04 F9 98 47 C2 3A 58 45 28 1C 80 44 53 BC 00 44 63 8E 00 AD 42 
[RX] 01 03 15 0A 00 1A E0 0F 01 03 34 43 56 E6 66 43 57 00 00 43 57 4C CD 42 F8 99 9A 42 F7 CC CD 42 F8 CC CD 43 8F 66 66 43 83 CC CD 43 8A 19 9A 42 C9 F5 C3 42 0C 28 F6 42 00 B8 52 42 07 0A 3D 86 0D 
[RX] 01 03 20 44 00 02 8F DE 01 03 04 45 BB 70 00 BA DA 
[RX] 01 03 15 0A 00 1A E0 0F 01 03 34 43 56 E6 66 43 57 00 00 43 57 4C CD 42 F8 99 9A 42 F7 CC CD 42 F8 CC CD 43 8F 33 33 43 83 99 9A 43 89 E6 66 42 CA 70 A4 42 0C A3 D7 42 00 F5 C3 42 07 33 33 B8 4F 
[RX] 01 03 18 1E 00 10 22 A0 01 03 20 47 C2 59 1C 47 06 AF 18 46 F2 13 0F 47 04 F9 98 47 C2 3A 5C 45 28 1C 80 44 53 BC 00 44 63 8E 00 A3 C6 
[RX] 01 03 15 0A 00 1A E0 0F 01 03 34 43 56 E6 66 43 57 00 00 43 57 4C CD 42 F8 99 9A 42 F7 CC CD 42 F8 CC CD 43 90 19 9A 43 84 4C CD 43 8A 4C CD 42 CA 66 66 42 0C 51 EC 42 03 70 A4 42 04 E1 48 87 F2 
[RX] 01 03 20 44 00 02 8F DE 01 03 04 45 BB 70 00 BA DA 
[RX] 01 03 15 0A 00 1A E0 0F 01 03 34 43 56 CC CD 43 56 CC CD 43 57 33 33 42 F8 99 9A 42 F7 99 9A 42 F8 99 9A 43 8F 99 9A 43 87 00 00 43 88 19 9A 42 C9 F5 C3 42 0B C2 8F 42 03 33 33 42 04 CC CD F9 70 01 03 18 1E 00 10 22 A0 01 03 20 47 C2 59 20 47 06 AF 18 46 F2 13 0F 47 04 F9 A0 47 C2 3A 60 45 28 1C 80 44 53 BC 00 44 63 8E 00 60 1A 
[RX] 01 03 00 2B 00 01 F4 02 01 03 02 53 48 84 82 
[RX] 01 03 15 0A 00 1A E0 0F 01 03 34 43 56 E6 66 43 56 E6 66 43 57 66 66 42 F8 CC CD 42 F7 99 9A 42 F8 CC CD 43 8F 19 9A 43 86 4C CD 43 87 E6 66 42 C9 CC CD 42 0C 8F 5C 42 03 5C 29 42 03 AE 14 ED 87 
[RX] 01 03 20 44 00 02 8F DE 01 03 04 45 BB 70 00 BA DA 
[RX] 01 03 15 0A 00 1A E0 0F 01 03 34 43 57 00 00 43 57 00 00 43 57 66 66 42 F8 CC CD 42 F7 CC CD 42 F8 CC CD 43 8F B3 33 43 86 99 9A 43 86 B3 33 42 C9 A3 D7 42 0C CC CD 42 03 1E B8 42 03 47 AE AE F7 
[RX] 01 03 18 1E 00 10 22 A0 01 03 20 47 C2 59 28 47 06 AF 20 46 F2 13 20 47 04 F9 A0 47 C2 3A 64 45 28 1C 80 44 53 BC 00 44 63 8E 00 E3 B8 
[RX] 01 03 15 0A 00 1A E0 0F 01 03 34 43 56 E6 66 43 57 00 00 43 57 80 00 42 F8 CC CD 42 F7 99 9A 42 F9 00 00 43 8F B3 33 43 85 CC CD 43 86 00 00 42 C8 1E B8 42 0C 66 66 42 02 CC CD 42 00 F5 C3 6A DA 
[RX] 01 03 20 44 00 02 8F DE 01 03 04 45 BB 70 00 BA DA 
[RX] 01 03 15 0A 00 1A E0 0F 01 03 34 43 56 E6 66 43 57 00 00 43 57 80 00 42 F8 CC CD 42 F7 99 9A 42 F9 00 00 43 8F B3 33 43 86 00 00 43 82 CC CD 42 C6 0A 3D 42 0B D7 0A 42 02 3D 71 41 FB D7 0A CC 1E 
[RX] 01 03 18 1E 00 10 22 A0 01 03 20 47 C2 59 28 47 06 AF 20 46 F2 13 20 47 04 F9 A0 47 C2 3A 68 45 28 1C 80 44 53 BC 00 44 63 8E 00 F2 74 
[RX] 01 03 00 2B 00 01 F4 02 01 03 02 53 48 84 82 
[RX] 01 03 15 0A 00 1A E0 0F 01 03 34 43 56 E6 66 43 57 00 00 43 57 80 00 42 F8 CC CD 42 F7 99 9A 42 F9 00 00 43 8F 33 33 43 85 66 66 43 80 E6 66 42 C5 AE 14 42 0C 8F 5C 42 00 CC CD 41 FB AE 14 EC E9 01 03 20 44 00 02 8F DE 01 03 04 45 BB 70 00 BA DA 
[RX] 01 03 15 0A 00 1A E0 0F 01 03 34 43 57 00 00 43 57 33 33 43 57 99 9A 42 F8 CC CD 42 F7 CC CD 42 F9 33 33 43 8F CC CD 43 84 00 00 43 80 CC CD 42 C3 A3 D7 42 0C 14 7B 41 FD EB 85 41 F8 7A E1 8C 03 01 03 18 1E 00 10 22 A0 01 03 20 47 C2 59 2C 47 06 AF 20 46 F2 13 20 47 04 F9 A8 47 C2 3A 6C 45 28 1C 80 44 53 BC 00 44 63 8E 00 7B 35 
[RX] 01 03 15 0A 00 1A E0 0F 01 03 34 43 56 E6 66 43 57 00 00 43 57 80 00 42 F8 CC CD 42 F7 99 9A 42 F9 00 00 43 8F 80 00 43 82 99 9A 43 7F 33 33 42 C5 14 7B 42 0C 66 66 41 FE B8 52 41 FC A3 D7 3B 04 
[RX] 01 03 20 44 00 02 8F DE 01 03 04 45 BB 70 00 BA DA 
[RX] 01 03 15 0A 00 1A E0 0F 01 03 34 43 57 00 00 43 57 19 9A 43 57 80 00 42 F8 CC CD 42 F7 CC CD 42 F9 00 00 43 8F 33 33 43 82 00 00 43 80 E6 66 42 C4 D7 0A 42 0C 28 F6 41 FE 8F 5C 41 FB 5C 29 CA A7 01 03 18 1E 00 10 22 A0 01 03 20 47 C2 59 34 47 06 AF 28 46 F2 13 31 47 04 F9 A8 47 C2 3A 71 45 28 1C 80 44 53 BC 00 44 63 8E 00 FE F0 
[RX] 01 03 15 0A 00 1A E0 0F 01 03 34 43 56 E6 66 43 57 19 9A 43 57 66 66 42 F8 99 9A 42 F7 CC CD 42 F9 00 00 43 8F CC CD 43 82 CC CD 43 81 33 33 42 C5 66 66 42 0C 51 EC 41 FF 33 33 41 FD 99 9A 9B AA 01 03 00 2B 00 01 F4 02 01 03 02 53 48 84 82 
[RX] 01 03 20 44 00 02 8F DE 01 03 04 45 BB 70 00 BA DA 
[RX] 01 03 15 0A 00 1A E0 0F 01 03 34 43 57 00 00 43 57 19 9A 43 57 80 00 42 F8 CC CD 42 F7 CC CD 42 F9 00 00 43 8F 80 00 43 83 33 33 43 82 CC CD 42 C5 70 A4 42 0B AE 14 41 FE B8 52 41 FF 85 1F 2A 27 01 03 18 1E 00 10 22 A0 01 03 20 47 C2 59 34 47 06 AF 28 46 F2 13 31 47 04 F9 A8 47 C2 3A 74 45 28 1C 80 44 53 BC 00 44 63 8E 00 F2 F5 
[RX] 01 03 15 0A 00 1A E0 0F 01 03 34 43 56 E6 66 43 57 19 9A 43 57 66 66 42 F8 99 9A 42 F7 CC CD 42 F9 00 00 43 8E E6 66 43 82 80 00 43 82 4C CD 42 C3 85 1F 42 0B C2 8F 41 FE 8F 5C 41 F7 AE 14 10 31 01 03 20 44 00 02 8F DE 01 03 04 45 BB 70 00 BA DA 
[RX] 01 03 15 0A 00 1A E0 0F 01 03 34 43 57 00 00 43 57 19 9A 43 57 80 00 42 F8 CC CD 42 F7 CC CD 42 F9 00 00 43 8E 66 66 43 82 80 00 43 7D 33 33 42 C3 28 F6 42 0B 47 AE 41 FE 66 66 41 F7 85 1F B7 9C 
[RX] 01 03 18 1E 00 10 22 A0 01 03 20 47 C2 59 38 47 06 AF 28 46 F2 13 31 47 04 F9 B0 47 C2 3A 78 45 28 1C 80 44 53 BC 00 44 63 8E 00 69 37 
[RX] 01 03 15 0A 00 1A E0 0F 01 03 34 43 56 E6 66 43 57 19 9A 43 57 66 66 42 F8 99 9A 42 F7 CC CD 42 F9 00 00 43 8F 33 33 43 83 00 00 43 7E 99 9A 42 C4 3D 71 42 0C 00 00 42 00 14 7B 41 F8 7A E1 36 64 
[RX] 01 03 20 44 00 02 8F DE 01 03 04 45 BB 68 00 B0 DA 
[RX] 01 03 00 2B 00 01 F4 02 01 03 02 53 48 84 82 
[RX] 01 03 15 0A 00 1A E0 0F 01 03 34 43 56 E6 66 43 57 00 00 43 57 4C CD 42 F8 99 9A 42 F7 CC CD 42 F8 CC CD 43 8F 19 9A 43 82 B3 33 43 7E 33 33 42 C3 0A 3D 42 0B 5C 29 41 FD C2 8F 41 F7 85 1F 72 82 
[RX] 01 03 18 1E 00 10 22 A0 
[RX] 01 03 20 47 C2 59 40 47 06 AF 30 46 F2 13 40 47 04 F9 B0 47 C2 3A 80 45 28 1C 80 44 53 BC 00 44 63 8E 00 A3 ED 01 03 15 0A 00 1A E0 0F 01 03 34 43 57 00 00 43 57 19 9A 43 57 80 00 42 F8 CC CD 42 F7 CC CD 42 F9 00 00 43 8E 99 9A 43 82 19 9A 43 7D 99 9A 42 C3 E1 48 42 0C A3 D7 41 FE 8F 5C 41 F7 85 1F 9D AA 
[RX] 01 03 20 44 00 02 8F DE 01 03 04 45 BB 70 00 BA DA 
[RX] 01 03 15 0A 00 1A E0 0F 01 03 34 43 56 E6 66 43 57 19 9A 43 57 66 66 42 F8 99 9A 42 F7 CC CD 42 F9 00 00 43 92 66 66 43 86 80 00 43 7E CC CD 42 C7 5C 29 42 0F 33 33 42 03 33 33 41 F8 A3 D7 5D 51 
[RX] 01 03 18 1E 00 10 22 A0 01 03 20 47 C2 59 40 47 06 AF 30 46 F2 13 40 47 04 F9 B0 47 C2 3A 80 45 28 1C 80 44 53 BC 00 44 63 8E 00 A3 ED 
[RX] 01 03 15 0A 00 1A E0 0F 01 03 34 43 56 CC CD 43 57 00 00 43 57 66 66 42 F8 99 9A 42 F7 99 9A 42 F9 00 00 43 92 00 00 43 85 B3 33 43 7F 33 33 42 C6 D7 0A 42 0E E1 48 42 02 66 66 41 F8 A3 D7 2A EF 
[RX] 01 03 20 44 00 02 8F DE 01 03 04 45 BB 68 00 B0 DA 
[RX] 01 03 15 0A 00 1A E0 0F 01 03 34 43 56 CC CD 43 57 19 9A 43 57 80 00 42 F8 99 9A 42 F7 99 9A 42 F9 33 33 43 91 66 66 43 85 33 33 43 7E 66 66 42 C6 33 33 42 0E 3D 71 42 02 14 7B 41 F8 00 00 69 A1 01 03 00 2B 00 01 F4 02 01 03 02 53 48 84 82 
[RX] 01 03 18 1E 00 10 22 A0 01 03 20 47 C2 59 44 47 06 AF 30 46 F2 13 40 47 04 F9 B8 47 C2 3A 84 45 28 1C 80 44 53 BC 00 44 63 8E 00 2A AC 
[RX] 01 03 15 0A 00 1A E0 0F 01 03 34 43 56 CC CD 43 57 00 00 43 57 66 66 42 F8 99 9A 42 F7 99 9A 42 F9 00 00 43 90 CC CD 43 84 4C CD 43 7E 00 00 42 C5 B8 52 42 0D C2 8F 42 01 5C 29 41 F8 7A E1 34 7F 01 03 20 44 00 02 8F DE 01 03 04 45 BB 68 00 B0 DA 
[RX] 01 03 15 0A 00 1A E0 0F 01 03 34 43 56 CC CD 43 57 00 00 43 57 66 66 42 F8 99 9A 42 F7 99 9A 42 F9 00 00 43 91 80 00 43 85 80 00 43 80 00 00 42 C6 A3 D7 42 0E 3D 71 42 02 28 F6 41 F9 99 9A 16 EB 01 03 18 1E 00 10 22 A0 01 03 20 47 C2 59 48 47 06 AF 38 46 F2 13 40 47 04 F9 B8 47 C2 3A 88 45 28 1C 80 44 53 BC 00 44 63 8E 00 91 23 
[RX] 01 03 15 0A 00 1A E0 0F 01 03 34 43 56 CC CD 43 57 00 00 43 57 66 66 42 F8 99 9A 42 F7 99 9A 42 F9 00 00 43 91 80 00 43 85 80 00 43 80 00 00 42 C6 8F 5C 42 0E 14 7B 42 02 3D 71 41 F9 70 A4 09 33 
[RX] 01 03 20 44 00 02 8F DE 01 03 04 45 BB 68 00 B0 DA 
[RX] 01 03 15 0A 00 1A E0 0F 01 03 34 43 56 CC CD 43 56 E6 66 43 57 4C CD 42 F8 99 9A 42 F7 99 9A 42 F8 CC CD 43 91 00 00 43 85 19 9A 43 7F 33 33 42 C5 99 9A 42 0D 85 1F 42 01 99 9A 41 F8 00 00 05 14 01 03 18 1E 00 10 22 A0 01 03 20 47 C2 59 4C 47 06 AF 38 46 F2 13 4F 47 04 F9 B8 47 C2 3A 8C 45 28 1C 80 44 53 BC 00 44 63 8E 00 60 5F 
[RX] 01 03 00 2B 00 01 F4 02 01 03 02 53 48 84 82 
[RX] 01 03 15 0A 00 1A E0 0F 01 03 34 43 56 E6 66 43 57 19 9A 43 57 66 66 42 F8 99 9A 42 F7 CC CD 42 F9 00 00 43 8F 4C CD 43 82 99 9A 43 7E 33 33 42 C3 8F 5C 42 0B C2 8F 41 FE B8 52 41 F7 D7 0A 3E 6A 01 03 20 44 00 02 8F DE 01 03 04 45 BB 68 00 B0 DA 
[RX] 01 03 15 0A 00 1A E0 0F 01 03 34 43 56 CC CD 43 57 00 00 43 57 66 66 42 F8 99 9A 42 F7 99 9A 42 F9 00 00 43 8F 33 33 43 83 19 9A 43 7E 99 9A 42 C4 28 F6 42 0C 28 F6 41 FF AE 14 41 F8 7A E1 13 BA 01 03 18 1E 00 10 22 A0 01 03 20 47 C2 59 54 47 06 AF 40 46 F2 13 4F 47 04 F9 C0 47 C2 3A 8F 45 28 1C 80 44 53 BC 00 44 63 8E 00 C4 F7 
[RX] 01 03 15 0A 00 1A E0 0F 01 03 34 43 56 CC CD 43 57 00 00 43 57 66 66 42 F8 99 9A 42 F7 99 9A 42 F9 00 00 43 8F 33 33 43 83 19 9A 43 7E 99 9A 42 C3 C2 8F 42 0C 00 00 41 FF 0A 3D 41 F8 00 00 15 85 
[RX] 01 03 20 44 00 02 8F DE 01 03 04 45 BB 68 00 B0 DA 
[RX] 01 03 15 0A 00 1A E0 0F 01 03 34 43 56 E6 66 43 56 E6 66 43 57 66 66 42 F8 CC CD 42 F7 99 9A 42 F8 CC CD 43 8F 33 33 43 82 CC CD 43 7E 66 66 42 C3 B8 52 42 0B D7 0A 41 FE 14 7B 41 F8 CC CD 1D B0 
[RX] 01 03 18 1E 00 10 22 A0 01 03 20 47 C2 59 54 47 06 AF 40 46 F2 13 4F 47 04 F9 C0 47 C2 3A 94 45 28 1C 80 44 53 BC 00 44 63 8E 00 E0 EC 
[RX] 01 03 00 2B 00 01 F4 02 01 03 02 53 48 84 82 
[RX] 01 03 15 0A 00 1A E0 0F 01 03 34 43 57 00 00 43 57 19 9A 43 57 80 00 42 F8 CC CD 42 F7 CC CD 42 F9 00 00 43 8F 4C CD 43 82 33 33 43 80 00 00 42 C4 66 66 42 0C 3D 71 41 FE B8 52 41 FA 14 7B F0 D3 
[RX] 01 03 20 44 00 02 8F DE 01 03 04 45 BB 68 00 B0 DA 
[RX] 01 03 15 0A 00 1A E0 0F 01 03 34 43 57 00 00 43 57 19 9A 43 57 80 00 42 F8 CC CD 42 F7 CC CD 42 F9 00 00 43 8F 4C CD 43 82 33 33 43 80 00 00 42 C4 3D 71 42 0B EB 85 41 FE B8 52 41 FA 14 7B 57 99 
[RX] 01 03 18 1E 00 10 22 A0 01 03 20 47 C2 59 58 47 06 AF 40 46 F2 13 60 47 04 F9 C0 47 C2 3A 9C 45 28 1C 80 44 53 BC 00 44 63 8E 00 27 30 
[RX] 01 03 15 0A 00 1A E0 0F 01 03 34 43 56 CC CD 43 57 00 00 43 57 66 66 42 F8 99 9A 42 F7 99 9A 42 F9 00 00 43 8F 00 00 43 82 33 33 43 80 19 9A 42 C3 66 66 42 0B 85 1F 41 FD C2 8F 41 F8 A3 D7 01 A3 
[RX] 01 03 20 44 00 02 8F DE 01 03 04 45 BB 68 00 B0 DA 
[RX] 01 03 15 0A 00 1A E0 0F 01 03 34 43 56 E6 66 43 57 00 00 43 57 80 00 42 F8 CC CD 42 F7 99 9A 42 F9 00 00 43 8E B3 33 43 82 19 9A 43 7F 00 00 42 C3 5C 29 42 0B 5C 29 41 FD EB 85 41 F8 A3 D7 AB 9E 
[RX] 01 03 18 1E 00 10 22 A0 01 03 20 47 C2 59 60 47 06 AF 48 46 F2 13 60 47 04 F9 C8 47 C2 3A 9C 45 28 1C 80 44 53 BC 00 44 63 8E 00 0A 92 
[RX] 01 03 15 0A 00 1A E0 0F 01 03 34 43 57 00 00 43 57 19 9A 43 57 80 00 42 F8 CC CD 42 F7 CC CD 42 F9 00 00 43 8E CC CD 43 82 33 33 43 7F 33 33 42 C3 C2 8F 42 0B AE 14 41 FE 3D 71 41 F9 47 AE B6 3E 01 03 00 2B 00 01 F4 02 01 03 02 53 48 84 82 
[RX] 01 03 20 44 00 02 8F DE 01 03 04 45 BB 68 00 B0 DA 
[RX] 01 03 15 0A 00 1A E0 0F 01 03 34 43 56 CC CD 43 56 E6 66 43 57 4C CD 42 F8 99 9A 42 F7 99 9A 42 F8 CC CD 43 8F 19 9A 43 82 B3 33 43 80 00 00 42 C3 AE 14 42 0B AE 14 41 FE 14 7B 41 F8 F5 C3 0F 1B 
[RX] 01 03 18 1E 00 10 22 A0 
[RX] 01 03 20 47 C2 59 64 47 06 AF 48 46 F2 13 71 47 04 F9 C8 47 C2 3A A4 45 28 1C 80 44 53 BC 00 44 63 8E 00 56 6D 01 03 15 0A 00 1A E0 0F 01 03 34 43 56 E6 66 43 57 19 9A 43 57 66 66 42 F8 99 9A 42 F7 CC CD 42 F9 00 00 43 8E E6 66 43 82 19 9A 43 7F 66 66 42 C3 28 F6 42 0B AE 14 41 FC F5 C3 41 F8 28 F6 30 6B 
[RX] 01 03 20 44 00 02 8F DE 01 03 04 45 BB 68 00 B0 DA 
[RX] 01 03 15 0A 00 1A E0 0F 01 03 34 43 56 CC CD 43 56 E6 66 43 57 4C CD 42 F8 99 9A 42 F7 99 9A 42 F8 CC CD 43 8F 4C CD 43 82 33 33 43 7F 66 66 42 C3 99 9A 42 0B C2 8F 41 FD 99 9A 41 F9 1E B8 EF A3 
[RX] 01 03 18 1E 00 10 22 A0 01 03 20 47 C2 59 64 47 06 AF 48 46 F2 13 71 47 04 F9 C8 47 C2 3A A4 45 28 1C 80 44 53 BC 00 44 63 8E 00 56 6D 
[RX] 01 03 15 0A 00 1A E0 0F 01 03 34 43 56 CC CD 43 56 E6 66 43 57 4C CD 42 F8 99 9A 42 F7 99 9A 42 F8 CC CD 43 8E B3 33 43 81 E6 66 43 7E CC CD 42 C3 E1 48 42 0C 00 00 41 FE 14 7B 41 F9 47 AE F5 EB 
[RX] 01 03 00 2B 00 01 F4 02 01 03 02 53 48 84 82 
[RX] 01 03 20 44 00 02 8F DE 01 03 04 45 BB 68 00 B0 DA 
[RX] 01 03 15 0A 00 1A E0 0F 
[RX] 01 03 34 43 56 CC CD 43 56 E6 66 43 57 4C CD 42 F8 99 9A 42 F7 99 9A 42 F8 CC CD 43 90 33 33 43 82 CC CD 43 80 66 66 42 C3 A3 D7 42 0B 99 9A 41 FE 14 7B 41 F9 1E B8 24 E6 01 03 18 1E 00 10 22 A0 01 03 20 47 C2 59 6C 47 06 AF 50 46 F2 13 71 47 04 F9 D0 47 C2 3A AC 45 28 1C 80 44 53 BC 00 44 63 8E 00 3D F3 
[RX] 01 03 15 0A 00 1A E0 0F 01 03 34 43 56 CC CD 43 56 E6 66 43 57 4C CD 42 F8 99 9A 42 F7 99 9A 42 F8 CC CD 43 8E E6 66 43 82 4C CD 43 7F 99 9A 42 C3 51 EC 42 0B 85 1F 41 FD 70 A4 41 F8 A3 D7 85 73 01 03 20 44 00 02 8F DE 01 03 04 45 BB 68 00 B0 DA 
[RX] 01 03 15 0A 00 1A E0 0F 01 03 34 43 56 CC CD 43 56 E6 66 43 57 4C CD 42 F8 99 9A 42 F7 99 9A 42 F8 CC CD 43 8E 80 00 43 81 CC CD 43 7F 00 00 42 C3 5C 29 42 0B 70 A4 41 FD EB 85 41 F8 7A E1 AF AC 01 03 18 1E 00 10 22 A0 01 03 20 47 C2 59 6C 47 06 AF 50 46 F2 13 71 47 04 F9 D0 47 C2 3A AC 45 28 1C 80 44 53 BC 00 44 63 8E 00 3D F3 
[RX] 01 03 15 0A 00 1A E0 0F 01 03 34 43 56 CC CD 43 56 E6 66 43 57 4C CD 42 F8 99 9A 42 F7 99 9A 42 F8 CC CD 43 8F B3 33 43 83 19 9A 43 80 19 9A 42 C6 8F 5C 42 0C CC CD 41 FF D7 0A 42 00 51 EC 31 33 
[RX] 01 03 20 44 00 02 8F DE 01 03 04 45 BB 68 00 B0 DA 
[RX] 01 03 00 2B 00 01 F4 02 01 03 02 53 48 84 82 
[RX] 01 03 15 0A 00 1A E0 0F 01 03 34 43 56 CC CD 43 56 E6 66 43 57 4C CD 42 F8 99 9A 42 F7 99 9A 42 F8 CC CD 43 8F 80 00 43 82 E6 66 43 82 4C CD 42 C4 51 EC 42 0B 99 9A 41 FD C2 8F 41 FC 51 EC CB 30 
[RX] 01 03 18 1E 00 10 22 A0 01 03 20 47 C2 59 74 47 06 AF 58 46 F2 13 80 47 04 F9 D0 47 C2 3A B4 45 28 1C 80 44 53 BC 00 44 63 8E 00 42 5D 
[RX] 01 03 15 0A 00 1A E0 0F 01 03 34 43 56 CC CD 43 56 E6 66 43 57 4C CD 42 F8 99 9A 42 F7 99 9A 42 F8 CC CD 43 8E E6 66 43 82 33 33 43 81 80 00 42 C5 CC CD 42 0C 14 7B 41 FE 14 7B 42 00 66 66 CE 3F 01 03 20 44 00 02 8F DE 01 03 04 45 BB 68 00 B0 DA 
[RX] 01 03 15 0A 00 1A E0 0F 01 03 34 43 56 CC CD 43 56 E6 66 43 57 4C CD 42 F8 99 9A 42 F7 99 9A 42 F8 CC CD 43 8F B3 33 43 83 33 33 43 86 33 33 42 C7 B8 52 42 0C 3D 71 41 FF 85 1F 42 03 5C 29 F7 87 01 03 18 1E 00 10 22 A0 01 03 20 47 C2 59 78 47 06 AF 58 46 F2 13 80 47 04 F9 D8 47 C2 3A B8 45 28 1C 80 44 53 BC 00 44 63 8E 00 D4 5A 
[RX] 01 03 15 0A 00 1A E0 0F 01 03 34 43 56 E6 66 43 56 E6 66 43 57 33 33 42 F8 99 9A 42 F7 CC CD 42 F8 99 9A 43 8F 4C CD 43 82 66 66 43 86 00 00 42 C6 66 66 42 0B AE 14 41 FD 70 A4 42 02 51 EC 1A 1D 
[RX] 01 03 20 44 00 02 8F DE 01 03 04 45 BB 68 00 B0 DA 
[RX] 01 03 15 0A 00 1A E0 0F 01 03 34 43 56 E6 66 43 57 00 00 43 57 4C CD 42 F8 99 9A 42 F7 CC CD 42 F8 CC CD 43 8F 00 00 43 82 19 9A 43 85 4C CD 42 C6 5C 29 42 0B AE 14 41 FD EB 85 42 02 14 7B BB C4 01 03 00 2B 00 01 F4 02 01 03 02 53 48 84 82 
[RX] 01 03 18 1E 00 10 22 A0 01 03 20 47 C2 59 7C 47 06 AF 58 46 F2 13 8F 47 04 F9 D8 47 C2 3A BC 45 28 1C 80 44 53 BC 00 44 63 8E 00 25 26 
[RX] 01 03 15 0A 00 1A E0 0F 01 03 34 43 57 00 00 43 57 00 00 43 57 66 66 42 F8 CC CD 42 F7 CC CD 42 F8 CC CD 43 8E E6 66 43 81 CC CD 43 85 33 33 42 C6 E1 48 42 0C 3D 71 41 FE 14 7B 42 02 66 66 E2 08 
[RX] 01 03 20 44 00 02 8F DE 01 03 04 45 BB 68 00 B0 DA 
[RX] 01 03 15 0A 00 1A E0 0F 01 03 34 43 56 E6 66 43 57 00 00 43 57 4C CD 42 F8 99 9A 42 F7 CC CD 42 F8 CC CD 43 8F CC CD 43 82 99 9A 43 85 B3 33 42 C6 E1 48 42 0C 14 7B 41 FE 66 66 42 02 66 66 77 FC 
[RX] 01 03 18 1E 00 10 22 A0 01 03 20 47 C2 59 80 47 06 AF 60 46 F2 13 8F 47 04 F9 D8 47 C2 3A C0 45 28 1C 80 44 53 BC 00 44 63 8E 00 DE D2 
[RX] 01 03 15 0A 00 1A E0 0F 01 03 34 43 56 E6 66 43 57 00 00 43 57 4C CD 42 F8 99 9A 42 F7 CC CD 42 F8 CC CD 43 8F 19 9A 43 81 CC CD 43 84 E6 66 42 C5 E1 48 42 0B AE 14 41 FC CC CD 42 01 99 9A 3C DD 
[RX] 01 03 20 44 00 02 8F DE 01 03 04 45 BB 68 00 B0 DA 
[RX] 01 03 15 0A 00 1A E0 0F 01 03 34 43 56 E6 66 43 57 00 00 43 57 4C CD 42 F8 99 9A 42 F7 CC CD 42 F8 CC CD 43 8F 19 9A 43 81 CC CD 43 85 00 00 42 C6 5C 29 42 0C 00 00 41 FD 47 AE 42 02 00 00 32 37 
[RX] 01 03 18 1E 00 10 22 A0 
[RX] 01 03 20 47 C2 59 84 47 06 AF 60 46 F2 13 8F 47 04 F9 E0 47 C2 3A C4 45 28 1C 80 44 53 BC 00 44 63 8E 00 43 9C 01 03 00 2B 00 01 F4 02 01 03 02 53 48 84 82 
[RX] 01 03 15 0A 00 1A E0 0F 01 03 34 43 56 CC CD 43 56 CC CD 43 57 33 33 42 F8 99 9A 42 F7 99 9A 42 F8 99 9A 43 8F 4C CD 43 82 4C CD 43 85 00 00 42 C7 3D 71 42 0C A3 D7 41 FF 33 33 42 02 3D 71 1B CC 
[RX] 01 03 20 44 00 02 8F DE 01 03 04 45 BB 68 00 B0 DA 
[RX] 01 03 15 0A 00 1A E0 0F 01 03 34 43 56 CC CD 43 56 E6 66 43 57 4C CD 42 F8 99 9A 42 F7 99 9A 42 F8 CC CD 43 8F 66 66 43 82 80 00 43 83 66 66 42 C5 B8 52 42 0C 00 00 41 FE 8F 5C 42 00 14 7B 0A 0E 01 03 18 1E 00 10 22 A0 01 03 20 47 C2 59 84 47 06 AF 60 46 F2 13 8F 47 04 F9 E0 47 C2 3A C8 45 28 1C 80 44 53 BC 00 44 63 8E 00 52 50 
[RX] 01 03 15 0A 00 1A E0 0F 01 03 34 43 56 CC CD 43 56 E6 66 43 57 4C CD 42 F8 99 9A 42 F7 99 9A 42 F8 CC CD 43 89 CC CD 43 7A 99 9A 43 7C 99 9A 42 BE 0A 3D 42 06 B8 52 41 F3 AE 14 41 F6 E1 48 C7 10 01 03 20 44 00 02 8F DE 01 03 04 45 BB 68 00 B0 DA 
[RX] 01 03 15 0A 00 1A E0 0F 01 03 34 43 56 CC CD 43 56 E6 66 43 57 4C CD 42 F8 99 9A 42 F7 99 9A 42 F8 CC CD 43 89 CC CD 43 7A 99 9A 43 7C 99 9A 42 BD 3D 71 42 05 EB 85 41 F2 B8 52 41 F6 3D 71 19 3E 01 03 18 1E 00 10 22 A0 01 03 20 47 C2 59 8C 47 06 AF 68 46 F2 13 A0 47 04 F9 E0 47 C2 3A CC 45 28 1C 80 44 53 BC 00 44 63 8E 00 2E 0D 
[RX] 01 03 15 0A 00 1A E0 0F 01 03 34 43 57 00 00 43 57 00 00 43 57 66 66 42 F8 CC CD 42 F7 CC CD 42 F8 CC CD 43 88 CC CD 43 79 33 33 43 7B 99 9A 42 BD D7 0A 42 06 B8 52 41 F3 33 33 41 F6 8F 5C CA DA 01 03 00 2B 00 01 F4 02 01 03 02 53 48 84 82 
[RX] 01 03 20 44 00 02 8F DE 01 03 04 45 BB 68 00 B0 DA 
[RX] 01 03 15 0A 00 1A E0 0F 01 03 34 43 57 00 00 43 57 00 00 43 57 66 66 42 F8 CC CD 42 F7 CC CD 42 F8 CC CD 43 89 80 00 43 7A 33 33 43 7C CC CD 42 BD 0A 3D 42 05 EB 85 41 F2 14 7B 41 F6 14 7B 7F 44 01 03 18 1E 00 10 22 A0 01 03 20 47 C2 59 8F 47 06 AF 68 46 F2 13 A0 47 04 F9 E8 47 C2 3A CF 45 28 1C 80 44 53 BC 00 44 63 8E 00 EC 0E 
[RX] 01 03 15 0A 00 1A E0 0F 01 03 34 43 56 E6 66 43 57 19 9A 43 57 66 66 42 F8 99 9A 42 F7 CC CD 42 F9 00 00 43 88 E6 66 43 78 99 9A 43 7C 33 33 42 BC F5 C3 42 05 C2 8F 41 F1 99 9A 41 F6 66 66 3C 73 01 03 20 44 00 02 8F DE 01 03 04 45 BB 68 00 B0 DA 
[RX] 01 03 15 0A 00 1A E0 0F 01 03 34 43 56 E6 66 43 57 19 9A 43 57 66 66 42 F8 99 9A 42 F7 CC CD 42 F9 00 00 43 88 E6 66 43 78 99 9A 43 7C 33 33 42 BF CC CD 42 05 EB 85 41 FC 28 F6 41 F7 0A 3D 95 33 01 03 18 1E 00 10 22 A0 01 03 20 47 C2 59 8F 47 06 AF 68 46 F2 13 A0 47 04 F9 E8 47 C2 3A D4 45 28 1C 80 44 53 BC 00 44 63 8E 00 C8 15 
[RX] 01 03 15 0A 00 1A E0 0F 01 03 34 43 57 00 00 43 57 00 00 43 57 66 66 42 F8 CC CD 42 F7 CC CD 42 F8 CC CD 43 89 33 33 43 81 4C CD 43 7D 00 00 42 C0 1E B8 42 06 E1 48 41 FA 8F 5C 41 F8 00 00 6E 0D 
[RX] 01 03 00 2B 00 01 F4 02 01 03 02 53 48 84 82 
[RX] 01 03 20 44 00 02 8F DE 01 03 04 45 BB 68 00 B0 DA 
[RX] 01 03 15 0A 00 1A E0 0F 01 03 34 43 57 19 9A 43 57 33 33 43 57 80 00 42 F8 CC CD 42 F8 00 00 42 F9 00 00 43 89 80 00 43 7F 66 66 43 7B CC CD 42 BF 0A 3D 42 06 7A E1 41 F8 CC CD 41 F6 3D 71 9C F9 01 03 18 1E 00 10 22 A0 01 03 20 47 C2 59 98 47 06 AF 70 46 F2 13 B1 47 04 F9 E8 47 C2 3A D4 45 28 1C 80 44 53 BC 00 44 63 8E 00 74 93 
[RX] 01 03 15 0A 00 1A E0 0F 01 03 34 43 57 19 9A 43 57 33 33 43 57 80 00 42 F8 CC CD 42 F8 00 00 42 F9 00 00 43 89 80 00 43 7F 66 66 43 7B CC CD 42 BF 47 AE 42 06 8F 5C 41 F9 47 AE 41 F6 8F 5C 13 6C 
[RX] 01 03 20 44 00 02 8F DE 01 03 04 45 BB 60 00 B7 1A 
[RX] 01 03 15 0A 00 1A E0 0F 01 03 34 43 57 00 00 43 57 19 9A 43 57 80 00 42 F8 CC CD 42 F7 CC CD 42 F9 00 00 43 89 80 00 43 80 00 00 43 7C 00 00 42 BE 5C 29 42 06 28 F6 41 F9 1E B8 41 F3 AE 14 05 AB 
[RX] 01 03 18 1E 00 10 22 A0 
[RX] 01 03 20 47 C2 59 9C 47 06 AF 70 46 F2 13 B1 47 04 F9 F0 47 C2 3A DC 45 28 1C 80 44 53 BC 00 44 63 8E 00 E1 DB 01 03 15 0A 00 1A E0 0F 01 03 34 43 57 00 00 43 57 19 9A 43 57 80 00 42 F8 CC CD 42 F7 CC CD 42 F9 00 00 43 89 00 00 43 7F 99 9A 43 79 33 33 42 BE A3 D7 42 06 8F 5C 41 F9 1E B8 41 F4 28 F6 5E 34 
[RX] 01 03 20 44 00 02 8F DE 01 03 04 45 BB 60 00 B7 1A 
[RX] 01 03 00 2B 00 01 F4 02 01 03 02 53 48 84 82 
[RX] 01 03 15 0A 00 1A E0 0F 01 03 34 43 56 CC CD 43 56 E6 66 43 57 4C CD 42 F8 99 9A 42 F7 99 9A 42 F8 CC CD 43 89 99 9A 43 80 4C CD 43 7A 00 00 42 BE F5 C3 42 06 00 00 41 FC A3 D7 41 F2 E1 48 29 4B 
[RX] 01 03 18 1E 00 10 22 A0 01 03 20 47 C2 59 9C 47 06 AF 70 46 F2 13 B1 47 04 F9 F0 47 C2 3A E0 45 28 1C 80 44 53 BC 00 44 63 8E 00 B1 E7 
[RX] 01 03 15 0A 00 1A E0 0F 01 03 34 43 57 19 9A 43 57 19 9A 43 57 99 9A 42 F9 00 00 42 F7 CC CD 42 F9 00 00 43 89 33 33 43 81 B3 33 43 78 99 9A 42 C0 33 33 42 06 CC CD 41 FE 3D 71 41 F4 A3 D7 C3 6E 
[RX] 01 03 20 44 00 02 8F DE 01 03 04 45 BB 60 00 B7 1A 
[RX] 01 03 15 0A 00 1A E0 0F 01 03 34 43 57 19 9A 43 57 19 9A 43 57 99 9A 42 F9 00 00 42 F7 CC CD 42 F9 00 00 43 89 99 9A 43 82 B3 33 43 7A 33 33 42 BF EB 85 42 06 CC CD 41 FC 51 EC 41 F5 C2 8F ED 5E 
[RX] 01 03 18 1E 00 10 22 A0 01 03 20 47 C2 59 A4 47 06 AF 78 46 F2 13 C0 47 04 F9 F0 47 C2 3A E0 45 28 1C 80 44 53 BC 00 44 63 8E 00 70 61 
[RX] 01 03 15 0A 00 1A E0 0F 01 03 34 43 57 00 00 43 57 19 9A 43 57 80 00 42 F8 CC CD 42 F7 CC CD 42 F9 00 00 43 89 B3 33 43 81 00 00 43 7A 99 9A 42 C0 99 9A 42 09 70 A4 41 FA E1 48 41 F4 7A E1 DE 60 
[RX] 01 03 20 44 00 02 8F DE 01 03 04 45 BB 60 00 B7 1A 
[RX] 01 03 15 0A 00 1A E0 0F 01 03 34 43 57 19 9A 43 57 33 33 43 57 99 9A 42 F8 CC CD 42 F8 00 00 42 F9 33 33 43 8C B3 33 43 81 00 00 43 7B 99 9A 42 C1 00 00 42 09 1E B8 41 FA B8 52 41 F6 E1 48 2E BC 01 03 00 2B 00 01 F4 02 01 03 02 53 48 84 82 
[RX] 01 03 18 1E 00 10 22 A0 01 03 20 47 C2 59 A4 47 06 AF 78 46 F2 13 C0 47 04 F9 F0 47 C2 3A E8 45 28 1C 80 44 53 BC 00 44 63 8E 00 6F 29 
[RX] 01 03 15 0A 00 1A E0 0F 01 03 34 43 57 33 33 43 57 4C CD 43 57 99 9A 42 F8 CC CD 42 F8 33 33 42 F9 33 33 43 8B 4C CD 43 7D 66 66 43 7B CC CD 42 BF 3D 71 42 08 51 EC 41 F5 99 9A 41 F6 66 66 66 66 
[RX] 01 03 20 44 00 02 8F DE 01 03 04 45 BB 60 00 B7 1A 
[RX] 01 03 15 0A 00 1A E0 0F 01 03 34 43 57 33 33 43 57 4C CD 43 57 B3 33 42 F9 00 00 42 F8 33 33 42 F9 33 33 43 8B 33 33 43 7D 33 33 43 7C 66 66 42 BF EB 85 42 08 CC CD 41 F6 E1 48 41 F6 E1 48 A6 E4 
[RX] 01 03 18 1E 00 10 22 A0 01 03 20 47 C2 59 A8 47 06 AF 78 46 F2 13 C0 47 04 F9 F8 47 C2 3A EC 45 28 1C 80 44 53 BC 00 44 63 8E 00 E6 66 
[RX] 01 03 15 0A 00 1A E0 0F 01 03 34 43 57 33 33 43 57 4C CD 43 57 99 9A 42 F8 CC CD 42 F8 33 33 42 F9 33 33 43 8B CC CD 43 7D 99 9A 43 75 33 33 42 BD 66 66 42 08 3D 71 41 F6 66 66 41 EE 8F 5C 0C 7A 01 03 20 44 00 02 8F DE 01 03 04 45 BB 68 00 B0 DA 
[RX] 01 03 15 0A 00 1A E0 0F 01 03 34 43 57 33 33 43 57 4C CD 43 57 B3 33 42 F9 00 00 42 F8 33 33 42 F9 33 33 43 8B 19 9A 43 7D 00 00 43 7F 00 00 42 BF 99 9A 42 08 00 00 41 F5 C2 8F 41 F8 7A E1 A7 72 01 03 18 1E 00 10 22 A0 01 03 20 47 C2 59 B1 47 06 AF 80 46 F2 13 CF 47 04 F9 F8 47 C2 3A EC 45 28 1C 80 44 53 BC 00 44 63 8E 00 75 00 01 03 00 2B 00 01 F4 02 01 03 02 53 48 84 82 
[RX] 01 03 15 0A 00 1A E0 0F 01 03 34 43 57 19 9A 43 57 33 33 43 57 80 00 42 F8 CC CD 42 F8 00 00 42 F9 00 00 43 8A CC CD 43 7A 99 9A 43 7A CC CD 42 BE 51 EC 42 07 D7 0A 41 F3 85 1F 41 F6 14 7B 03 A5 
[RX] 01 03 20 44 00 02 8F DE 01 03 04 45 BB 68 00 B0 DA 
[RX] 01 03 15 0A 00 1A E0 0F 01 03 34 43 57 19 9A 43 57 33 33 43 57 99 9A 42 F8 CC CD 42 F8 00 00 42 F9 33 33 43 8B 80 00 43 7A 00 00 43 7B CC CD 42 BE 51 EC 42 08 66 66 41 F2 66 66 41 F5 EB 85 99 B0 
[RX] 01 03 18 1E 00 10 22 A0 01 03 20 47 C2 59 B1 47 06 AF 80 46 F2 13 CF 47 04 F9 F8 47 C2 3A F4 45 28 1C 80 44 53 BC 00 44 63 8E 00 54 D8 
[RX] 01 03 15 0A 00 1A E0 0F 01 03 34 43 57 33 33 43 57 4C CD 43 57 99 9A 42 F8 CC CD 42 F8 33 33 42 F9 33 33 43 8B 19 9A 43 78 33 33 43 7A 66 66 42 BD B8 52 42 07 D7 0A 41 F2 14 7B 41 F4 CC CD 14 80 
[RX] 01 03 20 44 00 02 8F DE 01 03 04 45 BB 68 00 B0 DA 
[RX] 01 03 15 0A 00 1A E0 0F 01 03 34 43 57 33 33 43 57 4C CD 43 57 99 9A 42 F8 CC CD 42 F8 33 33 42 F9 33 33 43 8B 19 9A 43 78 33 33 43 79 99 9A 42 BD A3 D7 42 08 3D 71 41 F1 EB 85 41 F4 28 F6 3F 97 
[RX] 01 03 18 1E 00 10 22 A0 01 03 20 47 C2 59 B4 47 06 AF 80 46 F2 13 CF 47 04 FA 00 47 C2 3A F4 45 28 1C 80 44 53 BC 00 44 63 8E 00 A7 6B 
[RX] 01 03 15 0A 00 1A E0 0F 01 03 34 43 57 33 33 43 57 4C CD 43 57 99 9A 42 F8 CC CD 42 F8 33 33 42 F9 33 33 43 8B 19 9A 43 78 33 33 43 79 99 9A 42 BE 1E B8 42 09 0A 3D 41 F2 3D 71 41 F4 00 00 8A FB 01 03 00 2B 00 01 F4 02 01 03 02 53 48 84 82 
[RX] 01 03 20 44 00 02 8F DE 01 03 04 45 BB 68 00 B0 DA 
[RX] 01 03 15 0A 00 1A E0 0F 01 03 34 43 57 33 33 43 57 4C CD 43 57 B3 33 42 F9 00 00 42 F8 33 33 42 F9 33 33 43 89 66 66 43 79 00 00 43 77 66 66 42 BB A3 D7 42 05 D7 0A 41 F1 EB 85 41 F0 CC CD 85 D0 01 03 18 1E 00 10 22 A0 01 03 20 47 C2 59 BC 47 06 AF 88 46 F2 13 E0 47 04 FA 00 47 C2 3A F8 45 28 1C 80 44 53 BC 00 44 63 8E 00 C4 7E 
[RX] 01 03 15 0A 00 1A E0 0F 01 03 34 43 57 33 33 43 57 4C CD 43 57 B3 33 42 F9 00 00 42 F8 33 33 42 F9 33 33 43 88 33 33 43 77 66 66 43 72 99 9A 42 BA 7A E1 42 05 85 1F 41 F1 70 A4 41 ED 47 AE BD 38 
[RX] 01 03 20 44 00 02 8F DE 01 03 04 45 BB 68 00 B0 DA 
[RX] 01 03 15 0A 00 1A E0 0F 01 03 34 43 57 33 33 43 57 66 66 43 57 CC CD 42 F9 00 00 42 F8 33 33 42 F9 66 66 43 88 66 66 43 77 99 9A 43 72 99 9A 42 BA 70 A4 42 05 99 9A 41 F1 1E B8 41 ED 1E B8 BC C6 
[RX] 01 03 18 1E 00 10 22 A0 01 03 20 47 C2 59 BC 47 06 AF 88 46 F2 13 E0 47 04 FA 00 47 C2 3A FC 45 28 1C 80 44 53 BC 00 44 63 8E 00 CA FA 
[RX] 01 03 15 0A 00 1A E0 0F 01 03 34 43 57 33 33 43 57 66 66 43 57 CC CD 42 F9 00 00 42 F8 33 33 42 F9 66 66 43 88 66 66 43 77 99 9A 43 72 99 9A 42 BA B8 52 42 05 D7 0A 41 F1 99 9A 41 ED 70 A4 38 07 
[RX] 01 03 20 44 00 02 8F DE 01 03 04 45 BB 68 00 B0 DA 
[RX] 01 03 00 2B 00 01 F4 02 01 03 02 53 48 84 82 
[RX] 01 03 15 0A 00 1A E0 0F 01 03 34 43 57 00 00 43 57 33 33 43 57 99 9A 42 F8 CC CD 42 F7 CC CD 42 F9 33 33 43 89 66 66 43 79 00 00 43 76 00 00 42 BB AE 14 42 05 99 9A 41 F0 CC CD 41 F2 66 66 69 D5 
[RX] 01 03 18 1E 00 10 22 A0 01 03 20 47 C2 59 C4 47 06 AF 90 46 F2 13 E0 47 04 FA 08 47 C2 3B 00 45 28 1C 80 44 53 BC 00 44 63 8E 00 E2 41 
[RX] 01 03 15 0A 00 1A E0 0F 01 03 34 43 57 00 00 43 57 33 33 43 57 99 9A 42 F8 CC CD 42 F7 CC CD 42 F9 33 33 43 88 66 66 43 77 33 33 43 77 33 33 42 BB 7A E1 42 05 70 A4 41 F0 CC CD 41 F1 EB 85 BB 10 
[RX] 01 03 20 44 00 02 8F DE 01 03 04 45 BB 68 00 B0 DA 
[RX] 01 03 15 0A 00 1A E0 0F 01 03 34 43 57 33 33 43 57 4C CD 43 57 99 9A 42 F8 CC CD 42 F8 33 33 42 F9 33 33 43 89 00 00 43 77 CC CD 43 78 33 33 42 BC 14 7B 42 06 00 00 41 F1 47 AE 41 F2 B8 52 DF 81 01 03 18 1E 00 10 22 A0 01 03 20 47 C2 59 C8 47 06 AF 90 46 F2 13 F1 47 04 FA 08 47 C2 3B 04 45 28 1C 80 44 53 BC 00 44 63 8E 00 EE 8C 
[RX] 01 03 15 0A 00 1A E0 0F 01 03 34 43 57 33 33 43 57 4C CD 43 57 99 9A 42 F8 CC CD 42 F8 33 33 42 F9 33 33 43 89 00 00 43 77 CC CD 43 78 33 33 42 BC B8 52 42 06 B8 52 41 F2 66 66 41 F2 E1 48 1D E0 01 03 20 44 00 02 8F DE 01 03 04 45 BB 68 00 B0 DA 
[RX] 01 03 15 0A 00 1A E0 0F 01 03 34 43 57 19 9A 43 57 33 33 43 57 99 9A 42 F8 CC CD 42 F8 00 00 42 F9 33 33 43 89 E6 66 43 79 99 9A 43 78 CC CD 42 BC CC CD 42 06 28 F6 41 F1 C2 8F 41 F4 F5 C3 CC 92 01 03 00 2B 00 01 F4 02 01 03 02 53 48 84 82 
[RX] 01 03 18 1E 00 10 22 A0 01 03 20 47 C2 59 C8 47 06 AF 90 46 F2 13 F1 47 04 FA 08 47 C2 3B 08 45 28 1C 80 44 53 BC 00 44 63 8E 00 FF 40 
[RX] 01 03 15 0A 00 1A E0 0F 01 03 34 43 57 33 33 43 57 4C CD 43 57 99 9A 42 F8 CC CD 42 F8 33 33 42 F9 33 33 43 89 80 00 43 78 CC CD 43 80 00 00 42 BD C2 8F 42 06 14 7B 41 F1 99 9A 41 F9 1E B8 D8 CB 01 03 20 44 00 02 8F DE 01 03 04 45 BB 68 00 B0 DA 
[RX] 01 03 15 0A 00 1A E0 0F 01 03 34 43 57 19 9A 43 57 33 33 43 57 99 9A 42 F8 CC CD 42 F8 00 00 42 F9 33 33 43 89 00 00 43 77 99 9A 43 7E 66 66 42 BD 28 F6 42 06 3D 71 41 F2 14 7B 41 F5 EB 85 27 D6 
[RX] 01 03 18 1E 00 10 22 A0 01 03 20 47 C2 59 CC 47 06 AF 90 46 F2 13 F1 47 04 FA 10 47 C2 3B 0C 45 28 1C 80 44 53 BC 00 44 63 8E 00 7B C4 
[RX] 01 03 15 0A 00 1A E0 0F 01 03 34 43 57 33 33 43 57 33 33 43 57 B3 33 42 F9 00 00 42 F8 00 00 42 F9 33 33 43 89 66 66 43 78 CC CD 43 7B 00 00 42 BD 0A 3D 42 06 B8 52 41 F2 66 66 41 F4 51 EC 65 E6 
[RX] 01 03 20 44 00 02 8F DE 01 03 04 45 BB 68 00 B0 DA 
[RX] 01 03 15 0A 00 1A E0 0F 01 03 34 43 57 33 33 43 57 33 33 43 57 B3 33 42 F9 00 00 42 F8 00 00 42 F9 33 33 43 89 99 9A 43 78 99 9A 43 78 66 66 42 BB F5 C3 42 06 14 7B 41 F1 47 AE 41 F2 3D 71 A1 A4 
[RX] 01 03 18 1E 00 10 22 A0 01 03 20 47 C2 59 CF 47 06 AF 98 46 F2 13 F1 47 04 FA 10 47 C2 3B 0F 45 28 1C 80 44 53 BC 00 44 63 8E 00 94 4F 
[RX] 01 03 00 2B 00 01 F4 02 01 03 02 53 48 84 82 
[RX] 01 03 15 0A 00 1A E0 0F 01 03 34 43 57 33 33 43 57 33 33 43 57 B3 33 42 F9 00 00 42 F8 00 00 42 F9 33 33 43 88 E6 66 43 77 CC CD 43 77 66 66 42 BA B8 52 42 05 C2 8F 41 F1 47 AE 41 ED EB 85 28 3C 
[RX] 01 03 20 44 00 02 8F DE 01 03 04 45 BB 68 00 B0 DA 
[RX] 01 03 15 0A 00 1A E0 0F 01 03 34 43 57 00 00 43 57 33 33 43 57 99 9A 42 F8 CC CD 42 F7 CC CD 42 F9 33 33 43 89 4C CD 43 78 33 33 43 73 CC CD 42 BC 7A E1 42 07 0A 3D 41 F4 00 00 41 EF AE 14 94 99 
[RX] 01 03 18 1E 00 10 22 A0 01 03 20 47 C2 59 D4 47 06 AF 98 46 F2 14 00 47 04 FA 10 47 C2 3B 14 45 28 1C 80 44 53 BC 00 44 63 8E 00 32 8C 
[RX] 01 03 15 0A 00 1A E0 0F 01 03 34 43 57 00 00 43 57 33 33 43 57 99 9A 42 F8 CC CD 42 F7 CC CD 42 F9 33 33 43 89 CC CD 43 7A 33 33 43 74 CC CD 42 BC 5C 29 42 06 7A E1 41 F2 3D 71 41 F2 14 7B 58 F9 
[RX] 01 03 20 44 00 02 8F DE 01 03 04 45 BB 68 00 B0 DA 
[RX] 01 03 15 0A 00 1A E0 0F 01 03 34 43 57 00 00 43 57 33 33 43 57 99 9A 42 F8 CC CD 42 F7 CC CD 42 F9 33 33 43 89 19 9A 43 78 CC CD 43 77 00 00 42 BC 28 F6 42 06 28 F6 41 F2 E1 48 41 F1 47 AE BF 2A 
[RX] 01 03 18 1E 00 10 22 A0 01 03 20 47 C2 59 D8 47 06 AF A0 46 F2 14 00 47 04 FA 10 47 C2 3B 18 45 28 1C 80 44 53 BC 00 44 63 8E 00 76 FC 
[RX] 01 03 15 0A 00 1A E0 0F 01 03 34 43 57 00 00 43 57 19 9A 43 57 80 00 42 F8 CC CD 42 F7 CC CD 42 F9 00 00 43 88 E6 66 43 78 99 9A 43 79 99 9A 42 BC 66 66 42 05 C2 8F 41 F1 1E B8 41 F4 A3 D7 69 7E 
[RX] 01 03 00 2B 00 01 F4 02 01 03 02 53 48 84 82 
[RX] 01 03 20 44 00 02 8F DE 01 03 04 45 BB 68 00 B0 DA 
[RX] 01 03 15 0A 00 1A E0 0F 01 03 34 43 57 00 00 43 57 19 9A 43 57 80 00 42 F8 CC CD 42 F7 CC CD 42 F9 00 00 43 88 B3 33 43 78 33 33 43 7A 99 9A 42 BC A3 D7 42 06 28 F6 41 F1 C2 8F 41 F4 28 F6 4E 3C 
[RX] 01 03 18 1E 00 10 22 A0 01 03 20 47 C2 59 DC 47 06 AF A0 46 F2 14 00 47 04 FA 18 47 C2 3B 1C 45 28 1C 80 44 53 BC 00 44 63 8E 00 FF BD 
[RX] 01 03 15 0A 00 1A E0 0F 01 03 34 43 57 00 00 43 57 19 9A 43 57 80 00 42 F8 CC CD 42 F7 CC CD 42 F9 00 00 43 89 00 00 43 78 66 66 43 74 CC CD 42 BB 47 AE 42 06 51 EC 41 F2 14 7B 41 EE 3D 71 1C 08 
[RX] 01 03 20 44 00 02 8F DE 01 03 04 45 BB 60 00 B7 1A 
[RX] 01 03 15 0A 00 1A E0 0F 01 03 34 43 57 00 00 43 57 19 9A 43 57 80 00 42 F8 CC CD 42 F7 CC CD 42 F9 00 00 43 88 B3 33 43 78 33 33 43 76 99 9A 42 BB A3 D7 42 05 D7 0A 41 F1 C2 8F 41 F0 F5 C3 A9 5A 01 03 18 1E 00 10 22 A0 01 03 20 47 C2 59 E0 47 06 AF A0 46 F2 14 0F 47 04 FA 18 47 C2 3B 20 45 28 1C 80 44 53 BC 00 44 63 8E 00 50 53 
[RX] 01 03 15 0A 00 1A E0 0F 01 03 34 43 57 00 00 43 57 33 33 43 57 99 9A 42 F8 CC CD 42 F7 CC CD 42 F9 33 33 43 89 00 00 43 78 99 9A 43 78 99 9A 42 BB A3 D7 42 05 85 1F 41 F1 47 AE 41 F1 EB 85 7F D0 01 03 20 44 00 02 8F DE 01 03 04 45 BB 60 00 B7 1A 
[RX] 01 03 00 2B 00 01 F4 02 01 03 02 53 48 84 82 
[RX] 01 03 15 0A 00 1A E0 0F 01 03 34 43 57 19 9A 43 57 33 33 43 57 B3 33 42 F9 00 00 42 F7 CC CD 42 F9 33 33 43 88 B3 33 43 78 CC CD 43 77 CC CD 42 BD 00 00 42 06 28 F6 41 F2 B8 52 41 F4 CC CD 2B 47 
[RX] 01 03 18 1E 00 10 22 A0 01 03 20 47 C2 59 E4 47 06 AF A8 46 F2 14 0F 47 04 FA 18 47 C2 3B 24 45 28 1C 80 44 53 BC 00 44 63 8E 00 F4 9A 
[RX] 01 03 15 0A 00 1A E0 0F 01 03 34 43 57 00 00 43 57 33 33 43 57 99 9A 42 F8 CC CD 42 F7 CC CD 42 F9 33 33 43 89 19 9A 43 78 99 9A 43 7C 66 66 42 BC CC CD 42 05 99 9A 41 F1 99 9A 41 F6 66 66 F4 A5 
[RX] 01 03 20 44 00 02 8F DE 01 03 04 45 BB 60 00 B7 1A 
[RX] 01 03 15 0A 00 1A E0 0F 01 03 34 43 57 19 9A 43 57 33 33 43 57 99 9A 42 F8 CC CD 42 F8 00 00 42 F9 33 33 43 88 4C CD 43 77 99 9A 43 78 66 66 42 BB 5C 29 42 05 47 AE 41 F1 1E B8 41 F1 99 9A 02 8B 01 03 18 1E 00 10 22 A0 01 03 20 47 C2 59 E8 47 06 AF A8 46 F2 14 0F 47 04 FA 20 47 C2 3B 28 45 28 1C 80 44 53 BC 00 44 63 8E 00 76 92 
[RX] 01 03 15 0A 00 1A E0 0F 01 03 34 43 57 00 00 43 57 33 33 43 57 99 9A 42 F8 CC CD 42 F7 CC CD 42 F9 33 33 43 88 19 9A 43 77 CC CD 43 76 CC CD 42 BB D7 0A 42 05 99 9A 41 F1 EB 85 41 F2 14 7B 18 65 01 03 20 44 00 02 8F DE 01 03 04 45 BB 60 00 B7 1A 
[RX] 01 03 15 0A 00 1A E0 0F 01 03 34 43 57 19 9A 43 57 33 33 43 57 99 9A 42 F8 CC CD 42 F8 00 00 42 F9 33 33 43 88 CC CD 43 78 00 00 43 74 66 66 42 BA E1 48 42 05 D7 0A 41 F1 70 A4 41 EE 3D 71 BC C9 01 03 00 2B 00 01 F4 02 01 03 02 53 48 84 82 
[RX] 01 03 18 1E 00 10 22 A0 01 03 20 47 C2 59 EC 47 06 AF A8 46 F2 14 20 47 04 FA 20 47 C2 3B 2C 45 28 1C 80 44 53 BC 00 44 63 8E 00 A0 8C 
[RX] 01 03 15 0A 00 1A E0 0F 01 03 34 43 57 00 00 43 57 19 9A 43 57 80 00 42 F8 CC CD 42 F7 CC CD 42 F9 00 00 43 8B 19 9A 43 78 99 9A 43 73 66 66 42 BC AE 14 42 08 7A E1 41 F1 C2 8F 41 EF D7 0A B6 56 
[RX] 01 03 20 44 00 02 8F DE 01 03 04 45 BB 60 00 B7 1A 
[RX] 01 03 15 0A 00 1A E0 0F 01 03 34 43 57 19 9A 43 57 33 33 43 57 99 9A 42 F8 CC CD 42 F8 00 00 42 F9 33 33 43 8A B3 33 43 77 CC CD 43 76 33 33 42 BC 70 A4 42 07 AE 14 41 F1 70 A4 41 F0 F5 C3 12 32 01 03 18 1E 00 10 22 A0 01 03 20 47 C2 59 F1 47 06 AF B0 46 F2 14 20 47 04 FA 20 47 C2 3B 31 45 28 1C 80 44 53 BC 00 44 63 8E 00 B3 9A 
[RX] 01 03 15 0A 00 1A E0 0F 01 03 34 43 57 19 9A 43 57 33 33 43 57 99 9A 42 F8 CC CD 42 F8 00 00 42 F9 33 33 43 8A B3 33 43 77 CC CD 43 76 33 33 42 B7 C2 8F 42 04 E1 48 41 EA B8 52 41 EA 8F 5C 2B 5C 
[RX] 01 03 20 44 00 02 8F DE 01 03 04 45 BB 68 00 B0 DA 
[RX] 01 03 15 0A 00 1A E0 0F 01 03 34 43 57 4C CD 43 57 66 66 43 57 E6 66 42 F9 33 33 42 F8 33 33 42 F9 66 66 43 87 99 9A 43 71 99 9A 43 6F 99 9A 42 B5 C2 8F 42 03 70 A4 41 E5 EB 85 41 EA 14 7B CA C1 
[RX] 01 03 18 1E 00 10 22 A0 01 03 20 47 C2 59 F4 47 06 AF B0 46 F2 14 20 47 04 FA 28 47 C2 3B 34 45 28 1C 80 44 53 BC 00 44 63 8E 00 F8 5B 
[RX] 01 03 15 0A 00 1A E0 0F 01 03 34 43 57 4C CD 43 57 80 00 43 57 E6 66 42 F9 33 33 42 F8 33 33 42 F9 99 9A 43 86 33 33 43 6C 33 33 43 6F 99 9A 42 B5 B8 52 42 03 5C 29 41 E5 47 AE 41 EA B8 52 22 14 01 03 00 2B 00 01 F4 02 01 03 02 53 48 84 82 
[RX] 01 03 20 44 00 02 8F DE 01 03 04 45 BB 68 00 B0 DA 
[RX] 01 03 15 0A 00 1A E0 0F 01 03 34 43 57 4C CD 43 57 66 66 43 57 E6 66 42 F9 33 33 42 F8 33 33 42 F9 66 66 43 86 19 9A 43 6C CC CD 43 6E CC CD 42 B4 85 1F 42 02 7A E1 41 E3 D7 0A 41 E9 1E B8 7E 55 
[RX] 01 03 18 1E 00 10 22 A0 01 03 20 47 C2 59 F4 47 06 AF B0 46 F2 14 20 47 04 FA 28 47 C2 3B 38 45 28 1C 80 44 53 BC 00 44 63 8E 00 E9 97 
[RX] 01 03 15 0A 00 1A E0 0F 01 03 34 43 57 4C CD 43 57 80 00 43 57 E6 66 42 F9 33 33 42 F8 33 33 42 F9 99 9A 43 85 4C CD 43 6A 99 9A 43 6B CC CD 42 B3 00 00 42 02 CC CD 41 E4 7A E1 41 E1 EB 85 87 6A 01 03 20 44 00 02 8F DE 01 03 04 45 BB 68 00 B0 DA 
[RX] 01 03 15 0A 00 1A E0 0F 
[RX] 01 03 34 43 57 33 33 43 57 66 66 43 57 CC CD 42 F9 00 00 42 F8 33 33 42 F9 66 66 43 85 99 9A 43 6C 00 00 43 66 33 33 42 B3 3D 71 42 02 E1 48 41 E5 1E B8 41 E1 C2 8F 7A 26 01 03 18 1E 00 10 22 A0 01 03 20 47 C2 59 FC 47 06 AF B8 46 F2 14 31 47 04 FA 28 47 C2 3B 3C 45 28 1C 80 44 53 BC 00 44 63 8E 00 4F 17 
[RX] 01 03 15 0A 00 1A E0 0F 01 03 34 43 57 33 33 43 57 66 66 43 57 CC CD 42 F9 00 00 42 F8 33 33 42 F9 66 66 43 86 4C CD 43 6C CC CD 43 68 00 00 42 B2 85 1F 42 01 EB 85 41 E3 D7 0A 41 E2 3D 71 6F 63 01 03 20 44 00 02 8F DE 01 03 04 45 BB 68 00 B0 DA 
[RX] 01 03 00 2B 00 01 F4 02 01 03 02 53 48 84 82 
[RX] 01 03 15 0A 00 1A E0 0F 01 03 34 43 57 4C CD 43 57 80 00 43 57 E6 66 42 F9 33 33 42 F8 33 33 42 F9 99 9A 43 83 66 66 43 69 99 9A 43 66 33 33 42 B1 47 AE 42 00 51 EC 41 E3 0A 3D 41 E1 47 AE 55 5D 
[RX] 01 03 18 1E 00 10 22 A0 01 03 20 47 C2 5A 00 47 06 AF B8 46 F2 14 31 47 04 FA 30 47 C2 3B 40 45 28 1C 80 44 53 BC 00 44 63 8E 00 68 A1 
[RX] 01 03 15 0A 00 1A E0 0F 01 03 34 43 57 66 66 43 57 99 9A 43 57 E6 66 42 F9 33 33 42 F8 66 66 42 F9 99 9A 43 83 33 33 43 6A 66 66 43 66 66 66 42 B1 CC CD 42 00 B8 52 41 E4 00 00 41 E1 99 9A 24 1B 
[RX] 01 03 20 44 00 02 8F DE 01 03 04 45 BB 68 00 B0 DA 
[RX] 01 03 15 0A 00 1A E0 0F 01 03 34 43 57 33 33 43 57 66 66 43 57 CC CD 42 F9 00 00 42 F8 33 33 42 F9 66 66 43 83 99 9A 43 6B 66 66 43 66 CC CD 42 B2 8F 5C 42 01 0A 3D 41 E5 70 A4 41 E2 8F 5C D0 35 01 03 18 1E 00 10 22 A0 01 03 20 47 C2 5A 00 47 06 AF B8 46 F2 14 31 47 04 FA 30 47 C2 3B 40 45 28 1C 80 44 53 BC 00 44 63 8E 00 68 A1 
[RX] 01 03 15 0A 00 1A E0 0F 01 03 34 43 57 66 66 43 57 99 9A 43 57 E6 66 42 F9 33 33 42 F8 66 66 42 F9 99 9A 43 84 4C CD 43 6D 66 66 43 67 CC CD 42 B2 8F 5C 42 01 47 AE 41 E5 47 AE 41 E2 3D 71 8C 8F 01 03 20 44 00 02 8F DE 01 03 04 45 BB 68 00 B0 DA 
[RX] 01 03 15 0A 00 1A E0 0F 01 03 34 43 57 66 66 43 57 99 9A 43 57 E6 66 42 F9 33 33 42 F8 66 66 42 F9 99 9A 43 83 4C CD 43 6B 99 9A 43 66 33 33 42 B1 B8 52 42 00 7A E1 41 E4 A3 D7 41 E1 1E B8 98 C3 01 03 00 2B 00 01 F4 02 01 03 02 53 48 84 82 
[RX] 01 03 18 1E 00 10 22 A0 01 03 20 47 C2 5A 08 47 06 AF C0 46 F2 14 40 47 04 FA 30 47 C2 3B 48 45 28 1C 80 44 53 BC 00 44 63 8E 00 1F 61 
[RX] 01 03 15 0A 00 1A E0 0F 01 03 34 43 57 80 00 43 57 B3 33 43 57 E6 66 42 F9 33 33 42 F8 99 9A 42 F9 99 9A 43 82 CC CD 43 6B 00 00 43 69 99 9A 42 B3 28 F6 42 00 E1 48 41 E5 47 AE 41 E5 70 A4 97 C3 01 03 20 44 00 02 8F DE 01 03 04 45 BB 68 00 B0 DA 
[RX] 01 03 15 0A 00 1A E0 0F 01 03 34 43 57 80 00 43 57 B3 33 43 57 E6 66 42 F9 33 33 42 F8 99 9A 42 F9 99 9A 43 83 CC CD 43 6C 33 33 43 6A 33 33 42 B3 D7 0A 42 01 70 A4 41 E6 14 7B 41 E6 3D 71 F5 65 
[RX] 01 03 18 1E 00 10 22 A0 01 03 20 47 C2 5A 08 47 06 AF C0 46 F2 14 40 47 04 FA 30 47 C2 3B 48 45 28 1C 80 44 53 BC 00 44 63 8E 00 1F 61 
[RX] 01 03 15 0A 00 1A E0 0F 01 03 34 43 57 80 00 43 57 B3 33 43 57 E6 66 42 F9 33 33 42 F8 99 9A 42 F9 99 9A 43 83 CC CD 43 6C 66 66 43 6B 00 00 42 B4 3D 71 42 00 F5 C3 41 E5 47 AE 41 E9 99 9A B6 B3 
[RX] 01 03 20 44 00 02 8F DE 01 03 04 45 BB 70 00 BA DA 
[RX] 01 03 15 0A 00 1A E0 0F 01 03 34 43 57 80 00 43 57 B3 33 43 57 E6 66 42 F9 33 33 42 F8 99 9A 42 F9 99 9A 43 83 80 00 43 6C 00 00 43 79 00 00 42 B5 7A E1 42 00 66 66 41 E4 A3 D7 41 F0 7A E1 98 D2 
[RX] 01 03 18 1E 00 10 22 A0 01 03 20 47 C2 5A 0C 47 06 AF C0 46 F2 14 40 47 04 FA 38 47 C2 3B 4C 45 28 1C 80 44 53 BC 00 44 63 8E 00 96 20 01 03 00 2B 00 01 F4 02 01 03 02 53 48 84 82 
[RX] 01 03 15 0A 00 1A E0 0F 01 03 34 43 57 80 00 43 57 B3 33 43 57 E6 66 42 F9 33 33 42 F8 99 9A 42 F9 99 9A 43 87 80 00 43 6B 99 9A 43 70 CC CD 42 B7 5C 29 42 05 99 9A 41 E5 C2 8F 41 EC 28 F6 48 AF 
[RX] 01 03 20 44 00 02 8F DE 01 03 04 45 BB 70 00 BA DA 
[RX] 01 03 15 0A 00 1A E0 0F 01 03 34 43 57 80 00 43 57 B3 33 43 57 E6 66 42 F9 33 33 42 F8 99 9A 42 F9 99 9A 43 85 4C CD 43 6C CC CD 43 71 CC CD 42 B5 C2 8F 42 01 C2 8F 41 E6 14 7B 41 ED 47 AE 69 9A 
[RX] 01 03 18 1E 00 10 22 A0 01 03 20 47 C2 5A 14 47 06 AF C8 46 F2 14 4F 47 04 FA 38 47 C2 3B 4F 45 28 1C 80 44 53 BC 00 44 63 8E 00 C6 44 
[RX] 01 03 15 0A 00 1A E0 0F 01 03 34 43 57 80 00 43 57 B3 33 43 57 E6 66 42 F9 33 33 42 F8 99 9A 42 F9 99 9A 43 84 80 00 43 6C 66 66 43 71 CC CD 42 B5 28 F6 42 01 70 A4 41 E5 1E B8 41 EC 7A E1 E5 8F 01 03 20 44 00 02 8F DE 01 03 04 45 BB 78 00 BD 1A 
[RX] 01 03 15 0A 00 1A E0 0F 01 03 34 43 57 80 00 43 57 B3 33 43 57 E6 66 42 F9 33 33 42 F8 99 9A 42 F9 99 9A 43 83 66 66 43 6C CC CD 43 6D 00 00 42 B5 00 00 42 00 F5 C3 41 E9 47 AE 41 E8 A3 D7 5A 7C 01 03 18 1E 00 10 22 A0 01 03 20 47 C2 5A 14 47 06 AF C8 46 F2 14 4F 47 04 FA 38 47 C2 3B 54 45 28 1C 80 44 53 BC 00 44 63 8E 00 E2 5F 
[RX] 01 03 15 0A 00 1A E0 0F 01 03 34 43 57 80 00 43 57 B3 33 43 57 E6 66 42 F9 33 33 42 F8 99 9A 42 F9 99 9A 43 83 66 66 43 6C CC CD 43 6D 00 00 42 B5 3D 71 42 01 33 33 41 EA B8 52 41 E7 D7 0A 9E AA 01 03 00 2B 00 01 F4 02 01 03 02 53 48 84 82 
[RX] 01 03 20 44 00 02 8F DE 01 03 04 45 BB 78 00 BD 1A 
[RX] 01 03 15 0A 00 1A E0 0F 01 03 34 43 57 99 9A 43 57 B3 33 43 58 00 00 42 F9 66 66 42 F8 99 9A 42 F9 99 9A 43 84 33 33 43 71 CC CD 43 6D CC CD 42 B5 CC CD 42 01 85 1F 41 EB 0A 3D 41 E9 1E B8 85 ED 
[RX] 01 03 18 1E 00 10 22 A0 01 03 20 47 C2 5A 18 47 06 AF C8 46 F2 14 4F 47 04 FA 40 47 C2 3B 58 45 28 1C 80 44 53 BC 00 44 63 8E 00 51 83 
[RX] 01 03 15 0A 00 1A E0 0F 01 03 34 43 57 80 00 43 57 CC CD 43 58 00 00 42 F9 33 33 42 F8 99 9A 42 F9 CC CD 43 83 B3 33 43 71 33 33 43 6D 66 66 42 B5 70 A4 42 01 33 33 41 EA 3D 71 41 E8 F5 C3 EE 03 01 03 20 44 00 02 8F DE 01 03 04 45 BB 80 00 FE DA 
[RX] 01 03 15 0A 00 1A E0 0F 01 03 34 43 57 80 00 43 57 CC CD 43 58 00 00 42 F9 33 33 42 F8 99 9A 42 F9 CC CD 43 83 CC CD 43 70 99 9A 43 6D 33 33 42 B5 14 7B 42 01 33 33 41 E9 C2 8F 41 E8 28 F6 E9 F8 01 03 18 1E 00 10 22 A0 01 03 20 47 C2 5A 1C 47 06 AF D0 46 F2 14 4F 47 04 FA 40 47 C2 3B 5C 45 28 1C 80 44 53 BC 00 44 63 8E 00 A1 DF 
[RX] 01 03 15 0A 00 1A E0 0F 01 03 34 43 57 80 00 43 57 CC CD 43 58 00 00 42 F9 33 33 42 F8 99 9A 42 F9 CC CD 43 83 CC CD 43 70 99 9A 43 6D 33 33 42 B4 EB 85 42 00 F5 C3 41 E9 99 9A 41 E8 00 00 FA 0D 01 03 20 44 00 02 8F DE 01 03 04 45 BB 80 00 FE DA 
[RX] 01 03 00 2B 00 01 F4 02 01 03 02 53 48 84 82 
[RX] 01 03 15 0A 00 1A E0 0F 01 03 34 43 57 99 9A 43 57 B3 33 43 58 00 00 42 F9 66 66 42 F8 99 9A 42 F9 99 9A 43 83 99 9A 43 70 66 66 43 6C 66 66 42 B4 66 66 42 01 85 1F 41 EB 0A 3D 41 E3 85 1F BF CD 
[RX] 01 03 18 1E 00 10 22 A0 01 03 20 47 C2 5A 20 47 06 AF D0 46 F2 14 60 47 04 FA 40 47 C2 3B 60 45 28 1C 80 44 53 BC 00 44 63 8E 00 29 53 
[RX] 01 03 15 0A 00 1A E0 0F 01 03 34 43 57 4C CD 43 57 80 00 43 57 E6 66 42 F9 33 33 42 F8 33 33 42 F9 99 9A 43 84 19 9A 43 71 00 00 43 65 CC CD 42 B3 28 F6 42 01 1E B8 41 E9 47 AE 41 E0 F5 C3 BB 46 01 03 20 44 00 02 8F DE 01 03 04 45 BB 80 00 FE DA 
[RX] 01 03 15 0A 00 1A E0 0F 01 03 34 43 57 4C CD 43 57 80 00 43 57 E6 66 42 F9 33 33 42 F8 33 33 42 F9 99 9A 43 84 19 9A 43 71 00 00 43 65 CC CD 42 B4 0A 3D 42 01 AE 14 41 E5 99 9A 41 E7 0A 3D 71 37 
[RX] 01 03 18 1E 00 10 22 A0 01 03 20 47 C2 5A 24 47 06 AF D0 46 F2 14 60 47 04 FA 48 47 C2 3B 64 45 28 1C 80 44 53 BC 00 44 63 8E 00 A0 12 
[RX] 01 03 15 0A 00 1A E0 0F 01 03 34 43 57 66 66 43 57 99 9A 43 57 E6 66 42 F9 33 33 42 F8 66 66 42 F9 99 9A 43 84 80 00 43 6C 66 66 43 6B 99 9A 42 B3 E1 48 42 01 C2 8F 41 E5 99 9A 41 E6 3D 71 A0 BD 
[RX] 01 03 20 44 00 02 8F DE 01 03 04 45 BB 80 00 FE DA 

[RX] 01 03 15 0A 00 1A E0 0F
[RX] 01 03 34 43 57 66 66 43 57 99 9A 43 57 E6 66 42 F9 33 33 42 F8 66 66 42 F9 99 9A 43 84 33 33 43 6C 00 00 43 6A 33 33 42 B4 28 F6 42 01 EB 85 41 E5 EB 85 41 E6 B8 52 96 0D 

[RX] 01 03 00 2B 00 01 F4 02 
[RX] 01 03 02 53 48 84 82 

[RX] 01 03 18 1E 00 10 22 A0
[RX] 01 03 20 47 C2 5A 28 47 06 AF D8 46 F2 14 60 47 04 FA 48 47 C2 3B 68 45 28 1C 80 44 53 BC 00 44 63 8E 00 1B 9D 
[RX] 01 03 15 0A 00 1A E0 0F
[RX] 01 03 34 43 57 33 33 43 57 80 00 43 57 E6 66 42 F9 00 00 42 F8 33 33 42 F9 99 9A 43 84 80 00 43 6D 66 66 43 6A CC CD 42 B3 00 00 42 01 33 33 41 E5 1E B8 41 E4 7A E1 F7 59 
[RX] 01 03 20 44 00 02 8F DE
[RX] 01 03 04 45 BB 80 00 FE DA 

[RX] 01 03 15 0A 00 1A E0 0F 01 03 34 43 57 99 9A 43 57 B3 33 43 58 00 00 42 F9 66 66 42 F8 99 9A 42 F9 99 9A 43 83 CC CD 43 6C 00 00 43 69 00 00 42 B5 1E B8 42 03 AE 14 41 E6 3D 71 41 E6 B8 52 B4 16 
[RX] 01 03 18 1E 00 10 22 A0 01 03 20 47 C2 5A 2C 47 06 AF D8 46 F2 14 71 47 04 FA 48 47 C2 3B 6C 45 28 1C 80 44 53 BC 00 44 63 8E 00 17 5E 
[RX] 01 03 15 0A 00 1A E0 0F 01 03 34 43 57 80 00 43 57 CC CD 43 58 00 00 42 F9 33 33 42 F8 99 9A 42 F9 CC CD 43 86 80 00 43 6D 33 33 43 6B 33 33 42 B5 B8 52 42 05 33 33 41 E7 85 1F 41 E4 F5 C3 1F 8E 
[RX] 01 03 20 44 00 02 8F DE 01 03 04 45 BB 78 00 BD 1A 
[RX] 01 03 15 0A 00 1A E0 0F 01 03 34 43 57 80 00 43 57 CC CD 43 58 00 00 42 F9 33 33 42 F8 99 9A 42 F9 CC CD 43 87 66 66 43 6D 66 66 43 67 CC CD 42 B3 A3 D7 42 03 C2 8F 41 E5 1E B8 41 E1 C2 8F 93 18 
[RX] 01 03 18 1E 00 10 22 A0 01 03 20 47 C2 5A 2C 47 06 AF D8 46 F2 14 71 47 04 FA 48 47 C2 3B 6C 45 28 1C 80 44 53 BC 00 44 63 8E 00 17 5E 01 03 00 2B 00 01 F4 02 01 03 02 53 48 84 82 
[RX] 01 03 15 0A 00 1A E0 0F 01 03 34 43 57 80 00 43 57 CC CD 43 58 00 00 42 F9 33 33 42 F8 99 9A 42 F9 CC CD 43 86 B3 33 43 6C 66 66 43 65 CC CD 42 B4 14 7B 42 04 A3 D7 41 E5 C2 8F 41 E1 1E B8 E1 C5 
[RX] 01 03 20 44 00 02 8F DE 01 03 04 45 BB 80 00 FE DA 
[RX] 01 03 15 0A 00 1A E0 0F 01 03 34 43 57 80 00 43 57 CC CD 43 58 00 00 42 F9 33 33 42 F8 99 9A 42 F9 CC CD 43 88 4C CD 43 6C 99 9A 43 65 99 9A 42 B4 14 7B 42 04 51 EC 41 E5 99 9A 41 E1 EB 85 CB D6 
[RX] 01 03 18 1E 00 10 22 A0 01 03 20 47 C2 5A 34 47 06 AF E0 46 F2 14 71 47 04 FA 50 47 C2 3B 74 45 28 1C 80 44 53 BC 00 44 63 8E 00 E9 26 
[RX] 01 03 15 0A 00 1A E0 0F 01 03 34 43 57 80 00 43 57 CC CD 43 58 00 00 42 F9 33 33 42 F8 99 9A 42 F9 CC CD 43 87 66 66 43 6E 00 00 43 68 00 00 42 B4 D7 0A 42 04 7A E1 41 E6 66 66 41 E3 D7 0A BC 35 
[RX] 01 03 20 44 00 02 8F DE 01 03 04 45 BB 78 00 BD 1A 
[RX] 01 03 15 0A 00 1A E0 0F 01 03 34 43 57 80 00 43 57 B3 33 43 57 E6 66 42 F9 33 33 42 F8 99 9A 42 F9 99 9A 43 86 B3 33 43 6C 33 33 43 67 00 00 42 B3 F5 C3 42 04 14 7B 41 E5 1E B8 41 E2 66 66 A0 2A 01 03 18 1E 00 10 22 A0 01 03 20 47 C2 5A 34 47 06 AF E0 46 F2 14 71 47 04 FA 50 47 C2 3B 74 45 28 1C 80 44 53 BC 00 44 63 8E 00 E9 26 
[RX] 01 03 15 0A 00 1A E0 0F 
[RX] 01 03 34 43 57 80 00 43 57 CC CD 43 58 00 00 42 F9 33 33 42 F8 99 9A 42 F9 CC CD 43 87 00 00 43 6B CC CD 43 66 99 9A 42 B3 85 1F 42 04 00 00 41 E4 51 EC 41 E1 70 A4 DF F0 01 03 00 2B 00 01 F4 02 01 03 02 53 48 84 82 01 03 20 44 00 02 8F DE 01 03 04 45 BB 80 00 FE DA 
[RX] 01 03 15 0A 00 1A E0 0F 01 03 34 43 57 66 66 43 57 99 9A 43 57 E6 66 42 F9 33 33 42 F8 66 66 42 F9 99 9A 43 87 4C CD 43 6B CC CD 43 67 00 00 42 B4 CC CD 42 05 0A 3D 41 E5 EB 85 41 E3 0A 3D DC 08 
[RX] 01 03 18 1E 00 10 22 A0 01 03 20 47 C2 5A 38 47 06 AF E0 46 F2 14 80 47 04 FA 50 47 C2 3B 78 45 28 1C 80 44 53 BC 00 44 63 8E 00 0C CD 
[RX] 01 03 15 0A 00 1A E0 0F 01 03 34 43 57 80 00 43 57 CC CD 43 58 00 00 42 F9 33 33 42 F8 99 9A 42 F9 CC CD 43 86 00 00 43 6B CC CD 43 67 CC CD 42 B2 AE 14 42 02 66 66 41 E3 D7 0A 41 E1 EB 85 D6 C1 
[RX] 01 03 20 44 00 02 8F DE 01 03 04 45 BB 80 00 FE DA 
[RX] 01 03 15 0A 00 1A E0 0F 01 03 34 43 57 99 9A 43 57 CC CD 43 58 19 9A 42 F9 66 66 42 F8 99 9A 42 F9 CC CD 43 85 19 9A 43 6B 00 00 43 66 66 66 42 B2 C2 8F 42 02 8F 5C 41 E3 D7 0A 41 E1 EB 85 2B 78 
[RX] 01 03 18 1E 00 10 22 A0 01 03 20 47 C2 5A 40 47 06 AF E8 46 F2 14 80 47 04 FA 58 47 C2 3B 7C 45 28 1C 80 44 53 BC 00 44 63 8E 00 2F 9B 
[RX] 01 03 15 0A 00 1A E0 0F 01 03 34 43 57 80 00 43 57 CC CD 43 58 00 00 42 F9 33 33 42 F8 99 9A 42 F9 CC CD 43 85 99 9A 43 6B 00 00 43 6D 66 66 42 B4 47 AE 42 02 B8 52 41 E4 00 00 41 E7 85 1F C2 CA 
[RX] 01 03 20 44 00 02 8F DE 01 03 04 45 BB 80 00 FE DA 
[RX] 01 03 00 2B 00 01 F4 02 01 03 02 53 48 84 82 
[RX] 01 03 15 0A 00 1A E0 0F 01 03 34 43 57 80 00 43 57 CC CD 43 58 00 00 42 F9 33 33 42 F8 99 9A 42 F9 CC CD 43 86 19 9A 43 6C 33 33 43 6C CC CD 42 B4 C2 8F 42 03 33 33 41 E4 F5 C3 41 E7 85 1F 04 C2 
[RX] 01 03 18 1E 00 10 22 A0 01 03 20 47 C2 5A 40 47 06 AF E8 46 F2 14 80 47 04 FA 58 47 C2 3B 80 45 28 1C 80 44 53 BC 00 44 63 8E 00 7E A6 
[RX] 01 03 15 0A 00 1A E0 0F 01 03 34 43 57 80 00 43 57 CC CD 43 58 00 00 42 F9 33 33 42 F8 99 9A 42 F9 CC CD 43 85 66 66 43 67 99 9A 43 68 33 33 42 B2 8F 5C 42 03 1E B8 41 E0 CC CD 41 E2 E1 48 50 C1 01 03 20 44 00 02 8F DE 01 03 04 45 BB 88 00 F9 1A 
[RX] 01 03 15 0A 00 1A E0 0F 01 03 34 43 57 80 00 43 57 CC CD 43 58 00 00 42 F9 33 33 42 F8 99 9A 42 F9 CC CD 43 85 E6 66 43 68 00 00 43 68 00 00 42 B2 F5 C3 42 03 47 AE 41 E1 EB 85 41 E3 33 33 27 F5 
[RX] 01 03 18 1E 00 10 22 A0 01 03 20 47 C2 5A 44 47 06 AF E8 46 F2 14 8F 47 04 FA 58 47 C2 3B 84 45 28 1C 80 44 53 BC 00 44 63 8E 00 8F DA 
[RX] 01 03 15 0A 00 1A E0 0F 01 03 34 43 57 80 00 43 57 B3 33 43 57 E6 66 42 F9 33 33 42 F8 99 9A 42 F9 99 9A 43 86 B3 33 43 68 CC CD 43 68 CC CD 42 B3 51 EC 42 03 EB 85 41 E1 99 9A 41 E3 D7 0A 9A 33 
[RX] 01 03 20 44 00 02 8F DE 01 03 04 45 BB 88 00 F9 1A 
[RX] 01 03 15 0A 00 1A E0 0F 01 03 34 43 57 80 00 43 57 B3 33 43 57 E6 66 42 F9 33 33 42 F8 99 9A 42 F9 99 9A 43 86 B3 33 43 68 CC CD 43 68 CC CD 42 B2 33 33 42 03 AE 14 41 E0 7A E1 41 E1 EB 85 B3 A0 01 03 00 2B 00 01 F4 02 01 03 02 53 48 84 82 
[RX] 01 03 18 1E 00 10 22 A0 01 03 20 47 C2 5A 48 47 06 AF F0 46 F2 14 8F 47 04 FA 58 47 C2 3B 88 45 28 1C 80 44 53 BC 00 44 63 8E 00 60 C0 
[RX] 01 03 15 0A 00 1A E0 0F 01 03 34 43 57 99 9A 43 57 E6 66 43 58 00 00 42 F9 33 33 42 F8 CC CD 42 F9 CC CD 43 86 66 66 43 66 66 66 43 67 66 66 42 B2 7A E1 42 03 D7 0A 41 DF AE 14 41 E2 66 66 98 E6 
[RX] 01 03 20 44 00 02 8F DE 01 03 04 45 BB 88 00 F9 1A 
[RX] 01 03 15 0A 00 1A E0 0F 01 03 34 43 57 99 9A 43 57 E6 66 43 58 00 00 42 F9 33 33 42 F8 CC CD 42 F9 CC CD 43 87 00 00 43 66 CC CD 43 68 33 33 42 B3 28 F6 42 04 3D 71 41 E0 51 EC 41 E3 D7 0A 26 C8 
[RX] 01 03 18 1E 00 10 22 A0 01 03 20 47 C2 5A 4C 47 06 AF F0 46 F2 14 8F 47 04 FA 60 47 C2 3B 8C 45 28 1C 80 44 53 BC 00 44 63 8E 00 FD 8E 
[RX] 01 03 15 0A 00 1A E0 0F 01 03 34 43 57 80 00 43 57 CC CD 43 58 00 00 42 F9 33 33 42 F8 99 9A 42 F9 CC CD 43 86 B3 33 43 66 33 33 43 64 66 66 42 B1 A3 D7 42 04 14 7B 41 DF 33 33 41 DF 33 33 FF 19 01 03 20 44 00 02 8F DE 01 03 04 45 BB 88 00 F9 1A 
[RX] 01 03 15 0A 00 1A E0 0F 01 03 34 43 57 80 00 43 57 CC CD 43 58 00 00 42 F9 33 33 42 F8 99 9A 42 F9 CC CD 43 86 B3 33 43 66 33 33 43 64 66 66 42 B0 CC CD 42 03 85 1F 41 DE 8F 5C 41 DD 70 A4 AF 89 01 03 00 2B 00 01 F4 02 01 03 02 53 48 84 82 
[RX] 01 03 18 1E 00 10 22 A0 01 03 20 47 C2 5A 4F 47 06 AF F0 46 F2 14 A0 47 04 FA 60 47 C2 3B 8F 45 28 1C 80 44 53 BC 00 44 63 8E 00 60 D2 
[RX] 01 03 15 0A 00 1A E0 0F 01 03 34 43 57 99 9A 43 57 CC CD 43 58 19 9A 42 F9 66 66 42 F8 99 9A 42 F9 CC CD 43 85 E6 66 43 65 99 9A 43 61 99 9A 42 B2 5C 29 42 04 8F 5C 41 E1 47 AE 41 DF 0A 3D C7 73 
[RX] 01 03 20 44 00 02 8F DE 01 03 04 45 BB 88 00 F9 1A 
[RX] 01 03 15 0A 00 1A E0 0F 01 03 34 43 57 80 00 43 57 CC CD 43 58 00 00 42 F9 33 33 42 F8 99 9A 42 F9 CC CD 43 87 33 33 43 68 66 66 43 64 00 00 42 B2 7A E1 42 04 B8 52 41 E1 C2 8F 41 DE 8F 5C 87 F2 01 03 18 1E 00 10 22 A0 01 03 20 47 C2 5A 54 47 06 AF F8 46 F2 14 A0 47 04 FA 60 47 C2 3B 94 45 28 1C 80 44 53 BC 00 44 63 8E 00 AE 93 
[RX] 01 03 15 0A 00 1A E0 0F 01 03 34 43 57 80 00 43 57 CC CD 43 58 00 00 42 F9 33 33 42 F8 99 9A 42 F9 CC CD 43 87 19 9A 43 67 66 66 43 62 66 66 42 B1 8F 5C 42 04 3D 71 41 DF AE 14 41 DD EB 85 FA C6 
[RX] 01 03 20 44 00 02 8F DE 01 03 04 45 BB 88 00 F9 1A 
[RX] 01 03 15 0A 00 1A E0 0F 01 03 34 43 57 80 00 43 57 CC CD 43 58 00 00 42 F9 33 33 42 F8 99 9A 42 F9 CC CD 43 87 19 9A 43 67 00 00 43 62 CC CD 42 B1 A3 D7 42 04 7A E1 41 DF D7 0A 41 DD 99 9A 6A 87 
[RX] 01 03 18 1E 00 10 22 A0 01 03 20 47 C2 5A 54 47 06 AF F8 46 F2 14 A0 47 04 FA 60 47 C2 3B 94 45 28 1C 80 44 53 BC 00 44 63 8E 00 AE 93 
[RX] 01 03 00 2B 00 01 F4 02 01 03 02 53 48 84 82 
[RX] 01 03 15 0A 00 1A E0 0F 01 03 34 43 57 80 00 43 57 CC CD 43 58 00 00 42 F9 33 33 42 F8 99 9A 42 F9 CC CD 43 87 4C CD 43 68 00 00 43 63 99 9A 42 B2 47 AE 42 04 CC CD 41 E0 F5 C3 41 DE 66 66 27 ED 01 03 20 44 00 02 8F DE 01 03 04 45 BB 90 00 F3 1A 
[RX] 01 03 15 0A 00 1A E0 0F 01 03 34 43 57 99 9A 43 57 CC CD 43 58 19 9A 42 F9 66 66 42 F8 99 9A 42 F9 CC CD 43 87 80 00 43 68 66 66 43 63 33 33 42 B1 B8 52 42 04 A3 D7 41 E0 51 EC 41 DD 1E B8 A1 79 
[RX] 01 03 18 1E 00 10 22 A0 01 03 20 47 C2 5A 58 47 06 AF F8 46 F2 14 A0 47 04 FA 68 47 C2 3B 9C 45 28 1C 80 44 53 BC 00 44 63 8E 00 36 10 
[RX] 01 03 15 0A 00 1A E0 0F 01 03 34 43 57 99 9A 43 57 CC CD 43 58 19 9A 42 F9 66 66 42 F8 99 9A 42 F9 CC CD 43 87 00 00 43 67 33 33 43 62 00 00 42 B2 99 9A 42 05 5C 29 41 E1 47 AE 41 DE 66 66 D8 98 
[RX] 01 03 20 44 00 02 8F DE 01 03 04 45 BB 90 00 F3 1A 
[RX] 01 03 15 0A 00 1A E0 0F 01 03 34 43 57 99 9A 43 57 CC CD 43 58 19 9A 42 F9 66 66 42 F8 99 9A 42 F9 CC CD 43 88 00 00 43 68 CC CD 43 63 33 33 42 B3 0A 3D 42 05 C2 8F 41 E1 99 9A 41 DE E1 48 99 6D 
[RX] 01 03 18 1E 00 10 22 A0 01 03 20 47 C2 5A 60 47 06 B0 00 46 F2 14 B1 47 04 FA 68 47 C2 3B 9C 45 28 1C 80 44 53 BC 00 44 63 8E 00 28 0F 
[RX] 01 03 15 0A 00 1A E0 0F 01 03 34 43 57 99 9A 43 57 CC CD 43 58 19 9A 42 F9 66 66 42 F8 99 9A 42 F9 CC CD 43 88 80 00 43 69 00 00 43 64 00 00 42 B2 7A E1 42 05 47 AE 41 E0 CC CD 41 DE 66 66 CA F4 
[RX] 01 03 00 2B 00 01 F4 02 01 03 02 53 48 84 82 
[RX] 01 03 20 44 00 02 8F DE 01 03 04 45 BB 90 00 F3 1A 
[RX] 01 03 15 0A 00 1A E0 0F 01 03 34 43 57 99 9A 43 57 CC CD 43 58 19 9A 42 F9 66 66 42 F8 99 9A 42 F9 CC CD 43 87 99 9A 43 67 66 66 43 63 00 00 42 B2 00 00 42 05 47 AE 41 DF 85 1F 41 DD EB 85 CA 40 
[RX] 01 03 18 1E 00 10 22 A0 01 03 20 47 C2 5A 60 47 06 B0 00 46 F2 14 B1 47 04 FA 68 47 C2 3B A0 45 28 1C 80 44 53 BC 00 44 63 8E 00 78 33 
[RX] 01 03 15 0A 00 1A E0 0F 
[RX] 01 03 34 43 57 99 9A 43 57 CC CD 43 58 19 9A 42 F9 66 66 42 F8 99 9A 42 F9 CC CD 43 88 66 66 43 67 CC CD 43 63 66 66 42 B3 66 66 42 06 28 F6 41 E1 EB 85 41 DF 33 33 9D 2C 
[RX] 01 03 20 44 00 02 8F DE 01 03 04 45 BB 90 00 F3 1A 
[RX] 01 03 15 0A 00 1A E0 0F 01 03 34 43 57 99 9A 43 57 CC CD 43 58 19 9A 42 F9 66 66 42 F8 99 9A 42 F9 CC CD 43 88 99 9A 43 68 99 9A 43 63 CC CD 42 B3 14 7B 42 05 D7 0A 41 E1 1E B8 41 DF 33 33 A8 41 
[RX] 01 03 18 1E 00 10 22 A0 01 03 20 47 C2 5A 64 47 06 B0 00 46 F2 14 B1 47 04 FA 70 47 C2 3B A4 45 28 1C 80 44 53 BC 00 44 63 8E 00 FC B7 
[RX] 01 03 15 0A 00 1A E0 0F 01 03 34 43 57 99 9A 43 57 CC CD 43 58 19 9A 42 F9 66 66 42 F8 99 9A 42 F9 CC CD 43 87 99 9A 43 66 99 9A 43 62 66 66 42 B2 33 33 42 05 0A 3D 41 E0 28 F6 41 DE 3D 71 1F 66 01 03 20 44 00 02 8F DE 01 03 04 45 BB 90 00 F3 1A 
[RX] 01 03 00 2B 00 01 F4 02 01 03 02 53 48 84 82 
[RX] 01 03 15 0A 00 1A E0 0F 01 03 34 43 57 99 9A 43 57 CC CD 43 58 19 9A 42 F9 66 66 42 F8 99 9A 42 F9 CC CD 43 87 99 9A 43 68 66 66 43 63 33 33 42 B3 00 00 42 05 85 1F 41 E1 1E B8 41 DF 85 1F 76 1F 
[RX] 01 03 18 1E 00 10 22 A0 01 03 20 47 C2 5A 6C 47 06 B0 08 46 F2 14 C0 47 04 FA 70 47 C2 3B A8 45 28 1C 80 44 53 BC 00 44 63 8E 00 2C D9 
[RX] 01 03 15 0A 00 1A E0 0F 01 03 34 43 57 80 00 43 57 CC CD 43 58 00 00 42 F9 33 33 42 F8 99 9A 42 F9 CC CD 43 88 B3 33 43 69 66 66 43 68 CC CD 42 B4 C2 8F 42 05 D7 0A 41 E2 3D 71 41 E4 F5 C3 80 63 
[RX] 01 03 20 44 00 02 8F DE 01 03 04 45 BB 90 00 F3 1A 
[RX] 01 03 15 0A 00 1A E0 0F 01 03 34 43 57 80 00 43 57 CC CD 43 58 00 00 42 F9 33 33 42 F8 99 9A 42 F9 CC CD 43 88 33 33 43 68 99 9A 43 68 33 33 42 B3 70 A4 42 05 5C 29 41 E0 51 EC 41 E2 8F 5C 80 D1 
[RX] 01 03 18 1E 00 10 22 A0 01 03 20 47 C2 5A 6C 47 06 B0 08 46 F2 14 C0 47 04 FA 70 47 C2 3B AC 45 28 1C 80 44 53 BC 00 44 63 8E 00 22 5D 
[RX] 01 03 15 0A 00 1A E0 0F 01 03 34 43 57 80 00 43 57 CC CD 43 58 00 00 42 F9 33 33 42 F8 99 9A 42 F9 CC CD 43 87 CC CD 43 66 CC CD 43 66 66 66 42 B3 CC CD 42 05 EB 85 41 E0 F5 C3 41 E2 3D 71 96 E8 01 03 20 44 00 02 8F DE 01 03 04 45 BB 98 00 F4 DA 
[RX] 01 03 00 2B 00 01 F4 02 01 03 02 53 48 84 82 
[RX] 01 03 15 0A 00 1A E0 0F 01 03 34 43 57 80 00 43 57 CC CD 43 58 00 00 42 F9 33 33 42 F8 99 9A 42 F9 CC CD 43 88 E6 66 43 68 33 33 43 67 33 33 42 B4 28 F6 42 06 7A E1 41 E0 F5 C3 41 E2 8F 5C CF 85 01 03 18 1E 00 10 22 A0 01 03 20 47 C2 5A 71 47 06 B0 08 46 F2 14 C0 47 04 FA 78 47 C2 3B B1 45 28 1C 80 44 53 BC 00 44 63 8E 00 48 56 
[RX] 01 03 15 0A 00 1A E0 0F 01 03 34 43 57 80 00 43 57 CC CD 43 58 00 00 42 F9 33 33 42 F8 99 9A 42 F9 CC CD 43 88 99 9A 43 67 CC CD 43 67 66 66 42 B4 CC CD 42 06 00 00 41 E0 A3 D7 41 E6 8F 5C B8 96 01 03 20 44 00 02 8F DE 01 03 04 45 BB 98 00 F4 DA 
[RX] 01 03 15 0A 00 1A E0 0F 01 03 34 43 57 80 00 43 57 B3 33 43 57 E6 66 42 F9 33 33 42 F8 99 9A 42 F9 99 9A 43 88 4C CD 43 67 99 9A 43 70 00 00 42 B5 AE 14 42 05 70 A4 41 E0 A3 D7 41 EB 33 33 4C C2 
[RX] 01 03 18 1E 00 10 22 A0 01 03 20 47 C2 5A 74 47 06 B0 10 46 F2 14 C0 47 04 FA 78 47 C2 3B B4 45 28 1C 80 44 53 BC 00 44 63 8E 00 7A 8A 
[RX] 01 03 15 0A 00 1A E0 0F 01 03 34 43 57 80 00 43 57 CC CD 43 58 00 00 42 F9 33 33 42 F8 99 9A 42 F9 CC CD 43 87 E6 66 43 67 99 9A 43 6E 99 9A 42 B5 33 33 42 05 33 33 41 E0 7A E1 41 E9 EB 85 EC A0 01 03 20 44 00 02 8F DE 01 03 04 45 BB 90 00 F3 1A 
[RX] 01 03 15 0A 00 1A E0 0F 01 03 34 43 57 80 00 43 57 CC CD 43 58 00 00 42 F9 33 33 42 F8 99 9A 42 F9 CC CD 43 87 E6 66 43 67 99 9A 43 6E 99 9A 42 B6 66 66 42 06 66 66 41 E1 1E B8 41 EB 85 1F E0 C5 
[RX] 01 03 00 2B 00 01 F4 02 01 03 02 53 48 84 82 
[RX] 01 03 18 1E 00 10 22 A0 01 03 20 47 C2 5A 78 47 06 B0 10 46 F2 14 CF 47 04 FA 78 47 C2 3B B8 45 28 1C 80 44 53 BC 00 44 63 8E 00 94 B0 
[RX] 01 03 15 0A 00 1A E0 0F 01 03 34 43 57 80 00 43 57 B3 33 43 57 E6 66 42 F9 33 33 42 F8 99 9A 42 F9 99 9A 43 89 80 00 43 68 99 9A 43 70 99 9A 42 B4 0A 3D 42 05 99 9A 41 DF 5C 29 41 E5 70 A4 AC 37 
[RX] 01 03 20 44 00 02 8F DE 01 03 04 45 BB 90 00 F3 1A 
[RX] 01 03 15 0A 00 1A E0 0F 01 03 34 43 57 80 00 43 57 B3 33 43 57 E6 66 42 F9 33 33 42 F8 99 9A 42 F9 99 9A 43 88 4C CD 43 66 66 66 43 6A 66 66 42 B3 00 00 42 05 85 1F 41 DF 33 33 41 E1 70 A4 3B D1 
[RX] 01 03 18 1E 00 10 22 A0 01 03 20 47 C2 5A 78 47 06 B0 10 46 F2 14 CF 47 04 FA 78 47 C2 3B BC 45 28 1C 80 44 53 BC 00 44 63 8E 00 9A 34 
[RX] 01 03 15 0A 00 1A E0 0F 01 03 34 43 57 80 00 43 57 CC CD 43 58 00 00 42 F9 33 33 42 F8 99 9A 42 F9 CC CD 43 88 66 66 43 66 99 9A 43 64 CC CD 42 B3 3D 71 42 06 51 EC 41 E0 7A E1 41 DF 85 1F D2 30 
[RX] 01 03 20 44 00 02 8F DE 01 03 04 45 BB 90 00 F3 1A 
[RX] 01 03 15 0A 00 1A E0 0F 01 03 34 43 57 80 00 43 57 CC CD 43 58 00 00 42 F9 33 33 42 F8 99 9A 42 F9 CC CD 43 89 19 9A 43 68 00 00 43 65 00 00 42 B2 C2 8F 42 05 EB 85 41 E0 28 F6 41 DE E1 48 F7 61 01 03 18 1E 00 10 22 A0 01 03 20 47 C2 5A 80 47 06 B0 18 46 F2 14 CF 47 04 FA 80 47 C2 3B C0 45 28 1C 80 44 53 BC 00 44 63 8E 00 5D C9 
[RX] 01 03 00 2B 00 01 F4 02 01 03 02 53 48 84 82 
[RX] 01 03 15 0A 00 1A E0 0F 01 03 34 43 57 80 00 43 57 CC CD 43 58 00 00 42 F9 33 33 42 F8 99 9A 42 F9 CC CD 43 88 99 9A 43 67 99 9A 43 64 00 00 42 B2 1E B8 42 05 AE 14 41 DF 33 33 41 DD C2 8F F4 8D 
[RX] 01 03 20 44 00 02 8F DE 01 03 04 45 BB 90 00 F3 1A 
[RX] 01 03 15 0A 00 1A E0 0F 01 03 34 43 57 80 00 43 57 CC CD 43 58 00 00 42 F9 33 33 42 F8 99 9A 42 F9 CC CD 43 88 66 66 43 66 33 33 43 62 99 9A 42 B2 C2 8F 42 06 14 7B 41 E0 A3 D7 41 DE 14 7B 62 BE 
[RX] 01 03 18 1E 00 10 22 A0 01 03 20 47 C2 5A 84 47 06 B0 18 46 F2 14 E0 47 04 FA 80 47 C2 3B C4 45 28 1C 80 44 53 BC 00 44 63 8E 00 8B D7 
[RX] 01 03 15 0A 00 1A E0 0F 01 03 34 43 57 80 00 43 57 CC CD 43 58 00 00 42 F9 33 33 42 F8 99 9A 42 F9 CC CD 43 89 00 00 43 68 CC CD 43 63 CC CD 42 B4 33 33 42 06 8F 5C 41 E1 47 AE 41 E2 3D 71 16 31 
[RX] 01 03 20 44 00 02 8F DE 01 03 04 45 BB 88 00 F9 1A 
[RX] 01 03 15 0A 00 1A E0 0F 01 03 34 43 57 80 00 43 57 CC CD 43 58 00 00 42 F9 33 33 42 F8 99 9A 42 F9 CC CD 43 88 99 9A 43 66 CC CD 43 67 00 00 42 B2 1E B8 42 05 33 33 41 DF AE 14 41 DE 3D 71 A7 FD 
[RX] 01 03 18 1E 00 10 22 A0 01 03 20 47 C2 5A 84 47 06 B0 18 46 F2 14 E0 47 04 FA 80 47 C2 3B C8 45 28 1C 80 44 53 BC 00 44 63 8E 00 9A 1B 
[RX] 01 03 00 2B 00 01 F4 02 01 03 02 53 48 84 82 
[RX] 01 03 15 0A 00 1A E0 0F 01 03 34 43 57 80 00 43 57 CC CD 43 58 00 00 42 F9 33 33 42 F8 99 9A 42 F9 CC CD 43 88 33 33 43 67 00 00 43 63 66 66 42 B2 00 00 42 05 33 33 41 DF D7 0A 41 DD 99 9A 37 12 01 03 20 44 00 02 8F DE 01 03 04 45 BB 90 00 F3 1A 
[RX] 01 03 15 0A 00 1A E0 0F 01 03 34 43 57 80 00 43 57 CC CD 43 58 00 00 42 F9 33 33 42 F8 99 9A 42 F9 CC CD 43 87 CC CD 43 66 33 33 43 62 00 00 42 B2 8F 5C 42 05 C2 8F 41 E0 28 F6 41 DE 66 66 D3 27 01 03 18 1E 00 10 22 A0 01 03 20 47 C2 5A 8C 47 06 B0 20 46 F2 14 E0 47 04 FA 88 47 C2 3B CC 45 28 1C 80 44 53 BC 00 44 63 8E 00 46 E6 
[RX] 01 03 15 0A 00 1A E0 0F 01 03 34 43 57 80 00 43 57 CC CD 43 58 00 00 42 F9 33 33 42 F8 99 9A 42 F9 CC CD 43 88 99 9A 43 68 00 00 43 64 00 00 42 B2 3D 71 42 05 70 A4 41 DF D7 0A 41 DE 14 7B 58 77 
[RX] 01 03 20 44 00 02 8F DE 01 03 04 45 BB 88 00 F9 1A 
[RX] 01 03 15 0A 00 1A E0 0F 01 03 34 43 57 80 00 43 57 CC CD 43 58 00 00 42 F9 33 33 42 F8 99 9A 42 F9 CC CD 43 88 19 9A 43 66 00 00 43 62 99 9A 42 B1 7A E1 42 05 1E B8 41 DE 8F 5C 41 DC F5 C3 81 39 01 03 18 1E 00 10 22 A0 01 03 20 47 C2 5A 8C 47 06 B0 20 46 F2 14 E0 47 04 FA 88 47 C2 3B CC 45 28 1C 80 44 53 BC 00 44 63 8E 00 46 E6 
[RX] 01 03 15 0A 00 1A E0 0F 01 03 34 43 57 80 00 43 57 CC CD 43 58 00 00 42 F9 33 33 42 F8 99 9A 42 F9 CC CD 43 87 E6 66 43 66 00 00 43 62 99 9A 42 B4 F5 C3 42 05 5C 29 41 E2 8F 5C 41 E6 8F 5C 92 6F 01 03 00 2B 00 01 F4 02 01 03 02 53 48 84 82 
[RX] 01 03 20 44 00 02 8F DE 01 03 04 45 BB 90 00 F3 1A 
[RX] 01 03 15 0A 00 1A E0 0F 01 03 34 43 57 99 9A 43 57 CC CD 43 58 19 9A 42 F9 66 66 42 F8 99 9A 42 F9 CC CD 43 88 80 00 43 6B 66 66 43 6B 33 33 42 B5 CC CD 42 05 EB 85 41 E5 1E B8 41 E6 14 7B 8D A1 01 03 18 1E 00 10 22 A0 01 03 20 47 C2 5A 94 47 06 B0 28 46 F2 14 F1 47 04 FA 88 47 C2 3B CF 45 28 1C 80 44 53 BC 00 44 63 8E 00 EB 3D 
[RX] 01 03 15 0A 00 1A E0 0F 01 03 34 43 57 80 00 43 57 CC CD 43 58 00 00 42 F9 33 33 42 F8 99 9A 42 F9 CC CD 43 88 33 33 43 6B 33 33 43 67 99 9A 42 B3 66 66 42 04 E1 48 41 E2 B8 52 41 E0 F5 C3 74 6B 01 03 20 44 00 02 8F DE 01 03 04 45 BB 88 00 F9 1A 
[RX] 01 03 15 0A 00 1A E0 0F 01 03 34 43 57 80 00 43 57 CC CD 43 58 00 00 42 F9 33 33 42 F8 99 9A 42 F9 CC CD 43 87 CC CD 43 6A 66 66 43 64 66 66 42 B3 8F 5C 42 05 AE 14 41 E3 AE 14 41 DF 0A 3D C6 E8 
[RX] 01 03 18 1E 00 10 22 A0 01 03 20 47 C2 5A 94 47 06 B0 28 46 F2 14 F1 47 04 FA 88 47 C2 3B D4 45 28 1C 80 44 53 BC 00 44 63 8E 00 CF 26 
[RX] 01 03 15 0A 00 1A E0 0F 01 03 34 43 57 66 66 43 57 99 9A 43 57 E6 66 42 F9 33 33 42 F8 66 66 42 F9 99 9A 43 88 4C CD 43 6B 33 33 43 64 00 00 42 B3 47 AE 42 05 70 A4 41 E3 5C 29 41 DE B8 52 37 E5 
[RX] 01 03 20 44 00 02 8F DE 01 03 04 45 BB 88 00 F9 1A 
[RX] 01 03 00 2B 00 01 F4 02 01 03 02 53 48 84 82 
