3275.251 [RX] 00 10 A9 84 00 03 06 00 AA 00 00 03 E8 96 04 
3275.611 [RX] 00 10 A9 84 00 03 06 00 AA 00 00 03 E8 96 04 
3276.037 [RX] 00 10 A9 84 00 03 06 00 AA 00 00 03 E8 96 04 
3276.457 [RX] 00 10 A9 84 00 03 06 00 AA 00 00 03 E8 96 04 
3277.373 [RX] 07 03 9D 23 00 02 1A 0B 
3277.401 [RX] 07 03 04 02 EE 02 58 FD 24 
3277.509 [RX] 07 03 A2 87 00 02 57 FC 
3277.544 [RX] 07 03 04 00 00 00 00 9C 33 
3277.650 [RX] 07 03 9C 8E 00 01 CA 17 
3277.688 [RX] 07 03 02 00 00 30 44 
3277.775 [RX] 07 03 A2 89 00 02 36 3F 
3277.796 [RX] 07 03 04 00 00 00 00 9C 33 
3277.885 [RX] 07 03 9C 9B 00 01 DB D3 
3277.905 [RX] 07 03 02 00 00 30 44 
3277.991 [RX] 07 03 9C 99 00 01 7A 13 
3278.024 [RX] 07 03 02 00 00 30 44 
3278.132 [RX] 07 03 9C 92 00 02 4B D0 
3278.157 [RX] 07 03 04 00 00 00 00 9C 33
3278.262 [RX] 07 03 A2 97 00 02 56 39 
3278.276 [RX] 07 03 04 7F FF FF FF B4 67 
3278.397 [RX] 07 03 9C 9E 00 01 CB D2 
3278.409 [RX] 07 03 02 00 00 30 44 
3278.517 [RX] 07 03 9C 9C 00 01 6A 12 
3278.552 [RX] 07 03 02 00 00 30 44 
3278.657 [RX] 07 03 9C 92 00 02 4B D0 
3278.696 [RX] 07 03 04 00 00 00 00 9C 33 
3278.812 [RX] 07 03 A2 99 00 02 37 FA 
3278.829 [RX] 07 03 04 7F FF FF FF B4 67 
3278.942 [RX] 07 03 9C A1 00 01 FB DE 
3278.972 [RX] 07 03 02 00 00 30 44 
3279.072 [RX] 07 03 9C 9F 00 01 9A 12 
3279.116 [RX] 07 03 02 00 00 30 44 
3279.222 [RX] 07 03 9C 92 00 02 4B D0 
3279.249 [RX] 07 03 04 00 00 00 00 9C 33 
3279.367 [RX] 07 03 A2 9B 00 02 96 3A 
3279.392 [RX] 07 03 04 7F FF FF FF B4 67 
3279.547 [RX] 07 03 A0 73 00 02 17 B6 
3279.560 [RX] 07 03 04 00 00 00 00 9C 33 
3279.732 [RX] 07 03 A0 18 00 18 E7 A1 
3279.753 [RX] 07 03 30 22 C6 00 00 22 C6 00 00 21 3D 00 00 21 3D 00 00 21 1B 00 00 21 1B 00 00 1A 11 00 00 1A 11 00 00 1A 24 00 00 1A 24 00 00 18 56 00 00 18 56 00 00 5C 45 
3279.922 [RX] 07 03 A0 7B 00 03 57 B4 
3279.956 [RX] 07 03 06 01 3F 01 40 01 9A 9E D2 
3280.047 [RX] 07 03 A0 02 00 02 47 AD 
3280.064 [RX] 07 03 04 00 00 00 00 9C 33 
3280.182 [RX] 07 03 A2 B6 00 02 06 33 
3280.208 [RX] 07 03 04 00 00 00 72 1C 16 
3280.805 [RX] 07 03 A0 00 00 01 A6 6C 
3280.820 [RX] 07 03 02 55 00 0F 14 
3280.905 [RX] 07 03 A0 86 00 16 07 8B 
3280.929 [RX] 07 03 2C 04 00 00 00 00 00 00 00 00 00 00 00 00 00 00 00 00 00 00 00 00 00 00 00 00 00 00 00 00 00 00 00 00 00 04 00 00 00 00 00 00 00 00 00 54 62 
3281.301 [RX] 07 03 A0 30 00 0C 67 A6 
3281.324 [RX] 07 03 18 00 00 00 00 00 00 00 00 00 00 00 00 00 00 00 00 00 00 00 00 00 00 00 00 6D 3A 
3281.491 [RX] 07 03 A0 3C 00 0C A7 A5 
3281.517 [RX] 07 03 18 00 00 00 00 00 00 00 00 00 00 00 00 00 00 00 00 00 01 00 00 00 01 00 00 2C 3A 
3281.626 [RX] 07 03 9C 8F 00 02 DB D6 
3281.660 [RX] 07 03 04 00 00 00 00 9C 33 
3281.791 [RX] 07 03 A0 0B 00 03 56 6F 
3281.804 [RX] 07 03 06 00 00 22 C1 00 00 51 51 
3281.901 [RX] 07 03 A0 85 00 01 B7 85 
3281.937 [RX] 07 03 02 00 00 30 44 
3282.066 [RX] 07 03 A3 0B 00 1E 96 22 
3282.080 [RX] 07 03 3C 56 31 2D 54 47 5F 4D 61 73 74 65 72 5F 56 31 2E 31 34 00 00 00 00 00 00 00 00 00 00 00 00 56 31 2D 54 47 5F 53 6C 61 76 65 5F 56 31 2E 30 30 00 00 00 00 00 00 00 00 00 00 00 00 00 0D 1B 
3282.231 [RX] 07 03 A2 FC 00 0F E6 20 
3282.248 [RX] 07 03 1E 56 31 2D 54 47 5F 4D 61 6E 61 67 65 72 5F 56 31 2E 31 33 00 00 00 00 00 00 00 00 00 00 00 4D D5 
3282.381 [RX] 07 03 A3 47 00 0F 97 F9 
3282.416 [RX] 07 03 1E 56 31 2D 54 47 5F 41 46 43 49 5F 56 31 2E 30 31 00 00 00 00 00 00 00 00 00 00 00 00 00 00 08 FB 
3282.586 [RX] 07 03 9C 54 00 10 2B E0 
3282.609 [RX] 07 03 20 53 49 57 34 30 30 47 20 54 30 37 35 20 57 30 31 00 00 00 00 00 00 00 00 00 00 00 00 00 00 00 00 5E FC 
3282.733 [RX] 07 03 9C 54 00 10 2B E0 
3282.752 [RX] 07 03 20 53 49 57 34 30 30 47 20 54 30 37 35 20 57 30 31 00 00 00 00 00 00 00 00 00 00 00 00 00 00 00 00 5E FC 
3282.893 [RX] 07 03 9D 23 00 02 1A 0B 
3282.920 [RX] 07 03 04 02 EE 02 58 FD 24 
3283.053 [RX] 07 03 9D 23 00 02 1A 0B 
3283.088 [RX] 07 03 04 02 EE 02 58 FD 24 
3283.188 [RX] 07 03 9D 23 00 02 1A 0B 
3283.232 [RX] 07 03 04 02 EE 02 58 FD 24 
3283.324 [RX] 07 03 9D 23 00 02 1A 0B 
3283.340 [RX] 07 03 04 02 EE 02 58 FD 24 
3283.434 [RX] 07 03 9D 23 00 02 1A 0B 
3283.449 [RX] 07 03 04 02 EE 02 58 FD 24 
3283.564 [RX] 07 03 9D 23 00 02 1A 0B 
3283.592 [RX] 07 03 04 02 EE 02 58 FD 24 
3283.717 [RX] 00 10 A9 84 00 03 06 00 AA 00 00 03 E8 96 04 
3284.103 [RX] 00 10 A9 84 00 03 06 00 AA 00 00 03 E8 96 04 
3284.478 [RX] 00 10 A9 84 00 03 06 00 AA 00 00 03 E8 96 04 
3284.724 [RX] 07 03 A3 0B 00 1E 96 22 
3284.744 [RX] 07 03 3C 56 31 2D 54 47 5F 4D 61 73 74 65 72 5F 56 31 2E 31 34 00 00 00 00 00 00 00 00 00 00 00 00 56 31 2D 54 47 5F 53 6C 61 76 65 5F 56 31 2E 30 30 00 00 00 00 00 00 00 00 00 00 00 00 00 0D 1B 
3284.929 [RX] 07 03 A2 FC 00 0F E6 20 
3284.961 [RX] 07 03 1E 56 31 2D 54 47 5F 4D 61 6E 61 67 65 72 5F 56 31 2E 31 33 00 00 00 00 00 00 00 00 00 00 00 4D D5 
3285.095 [RX] 07 03 A3 47 00 0F 97 F9 
3285.129 [RX] 07 03 1E 56 31 2D 54 47 5F 41 46 43 49 5F 56 31 2E 30 31 00 00 00 00 00 00 00 00 00 00 00 00 00 00 08 FB 
3285.285 [RX] 07 03 9C 54 00 10 2B E0 
3285.297 [RX] 07 03 20 53 49 57 34 30 30 47 20 54 30 37 35 20 57 30 31 00 00 00 00 00 00 00 00 00 00 00 00 00 00 00 00 5E FC 
3285.420 [RX] 00 10 A9 84 00 03 06 00 AA 00 00 03 E8 96 04 
3285.471 [RX] 07 03 9C 54 00 10 2B E0 
3285.500 [RX] 07 03 20 53 49 57 34 30 30 47 20 54 30 37 35 20 57 30 31 00 00 00 00 00 00 00 00 00 00 00 00 00 00 00 00 5E FC 
3285.616 [RX] 00 10 A9 84 00 03 06 00 AA 00 00 03 E8 96 04 
3285.661 [RX] 07 03 9D 23 00 02 1A 0B 
3287.498 [RX] 00 10 A9 84 00 03 06 00 AA 00 00 03 E8 96 04 
3287.539 [RX] 00 10 A9 84 00 03 06 00 AA 00 00 03 E8 96 04 
3287.634 [RX] 00 10 A9 84 00 03 06 00 AA 00 00 03 E8 96 04 
3287.729 [RX] 00 10 A9 84 00 03 06 00 AA 00 00 03 E8 96 04 
3287.845 [RX] 00 10 A9 84 00 03 06 00 AA 00 00 03 E8 96 04 
3287.920 [RX] 07 03 9D 23 00 02 1A 0B 
3287.936 [RX] 07 03 04 02 EE 02 58 FD 24 
3288.040 [RX] 00 10 A9 84 00 03 06 00 AA 00 00 03 E8 96 04 
3288.130 [RX] 08 03 A3 0B 00 1E 96 DD 
3288.161 [RX] 08 03 3C 56 31 2D 54 47 5F 4D 61 73 74 65 72 5F 56 31 2E 31 34 00 00 00 00 00 00 00 00 00 00 00 00 56 31 2D 54 47 5F 53 6C 61 76 65 5F 56 31 2E 30 30 00 00 00 00 00 00 00 00 00 00 00 00 00 C2 18 
3288.330 [RX] 00 10 A9 84 00 03 06 00 AA 00 00 03 E8 96 04 
3288.370 [RX] 08 03 A2 FC 00 0F E6 DF 
3288.389 [RX] 08 03 1E 56 31 2D 54 47 5F 4D 61 6E 61 67 65 72 5F 56 31 2E 31 33 00 00 00 00 00 00 00 00 00 00 00 29 D7 
3288.525 [RX] 08 03 A3 47 00 0F 97 06 
3288.557 [RX] 08 03 1E 56 31 2D 54 47 5F 41 46 43 49 5F 56 31 2E 30 31 00 00 00 00 00 00 00 00 00 00 00 00 00 00 6C F9 
3288.715 [RX] 00 10 A9 84 00 03 06 00 AA 00 00 03 E8 96 04 
3288.755 [RX] 08 03 9C 54 00 10 2B 1F 
3288.774 [RX] 08 03 20 53 49 57 34 30 30 47 20 54 30 37 35 20 57 30 31 00 00 00 00 00 00 00 00 00 00 00 00 00 00 00 00 F5 FD 
3288.905 [RX] 08 03 9C 54 00 10 2B 1F 
3288.917 [RX] 08 03 20 53 49 57 34 30 30 47 20 54 30 37 35 20 57 30 31 00 00 00 00 00 00 00 00 00 00 00 00 00 00 00 00 F5 FD 
3289.060 [RX] 08 03 9D 23 00 02 1A F4 
3289.085 [RX] 08 03 04 02 EE 02 58 02 24 
3289.197 [RX] 00 10 A9 84 00 03 06 00 AA 00 00 03 E8 96 04 
3289.292 [RX] 09 03 A3 0B 00 1E 97 0C 
3289.317 [RX] 09 03 3C 56 31 2D 54 47 5F 4D 61 73 74 65 72 5F 56 31 2E 31 34 00 00 00 00 00 00 00 00 00 00 00 00 56 31 2D 54 47 5F 53 6C 61 76 65 5F 56 31 2E 30 30 00 00 00 00 00 00 00 00 00 00 00 00 00 82 D8 
3289.487 [RX] 09 03 A2 FC 00 0F E7 0E 
3289.510 [RX] 09 03 1E 56 31 2D 54 47 5F 4D 61 6E 61 67 65 72 5F 56 31 2E 31 33 00 00 00 00 00 00 00 00 00 00 00 44 17 
3289.647 [RX] 00 10 A9 84 00 03 06 00 AA 00 00 03 E8 96 04 
3289.687 [RX] 09 03 A3 47 00 0F 96 D7 
3289.712 [RX] 09 03 1E 56 31 2D 54 47 5F 41 46 43 49 5F 56 31 2E 30 31 00 00 00 00 00 00 00 00 00 00 00 00 00 00 01 39 
3289.897 [RX] 00 10 A9 84 00 03 06 00 AA 00 00 03 E8 96 04 
3289.937 [RX] 09 03 9C 54 00 10 2A CE 
3289.965 [RX] 09 03 20 53 49 57 34 30 30 47 20 54 30 37 35 20 57 30 31 00 00 00 00 00 00 00 00 00 00 00 00 00 00 00 00 D9 3D 
3290.097 [RX] 09 03 9C 54 00 10 2A CE 
3290.132 [RX] 09 03 20 53 49 57 34 30 30 47 20 54 30 37 35 20 57 30 31 00 00 00 00 00 00 00 00 00 00 00 00 00 00 00 00 D9 3D 
3290.277 [RX] 09 03 9D 23 00 02 1B 25 
3290.300 [RX] 09 03 04 02 EE 02 58 12 E4 
3290.407 [RX] 00 10 A9 84 00 03 06 00 AA 00 00 03 E8 96 04 
3290.487 [RX] 09 03 A3 0B 00 1E 97 0C 
3290.518 [RX] 09 03 3C 56 31 2D 54 47 5F 4D 61 73 74 65 72 5F 56 31 2E 31 34 00 00 00 00 00 00 00 00 00 00 00 00 56 31 2D 54 47 5F 53 6C 61 76 65 5F 56 31 2E 30 30 00 00 00 00 00 00 00 00 00 00 00 00 00 82 D8 
3290.682 [RX] 09 03 A2 FC 00 0F E7 0E 
3290.720 [RX] 09 03 1E 56 31 2D 54 47 5F 4D 61 6E 61 67 65 72 5F 56 31 2E 31 33 00 00 00 00 00 00 00 00 00 00 00 44 17 
3290.847 [RX] 00 10 A9 84 00 03 06 00 AA 00 00 03 E8 96 04 
3290.903 [RX] 09 03 A3 47 00 0F 96 D7 
3290.938 [RX] 09 03 1E 56 31 2D 54 47 5F 41 46 43 49 5F 56 31 2E 30 31 00 00 00 00 00 00 00 00 00 00 00 00 00 00 01 39 
3291.089 [RX] 00 10 A9 84 00 03 06 00 AA 00 00 03 E8 96 04 
3291.169 [RX] 09 03 9C 54 00 10 2A CE 
3291.190 [RX] 09 03 20 53 49 57 34 30 30 47 20 54 30 37 35 20 57 30 31 00 00 00 00 00 00 00 00 00 00 00 00 00 00 00 00 D9 3D 
3291.325 [RX] 09 03 9C 54 00 10 2A CE 
3291.358 [RX] 09 03 20 53 49 57 34 30 30 47 20 54 30 37 35 20 57 30 31 00 00 00 00 00 00 00 00 00 00 00 00 00 00 00 00 D9 3D 
3291.500 [RX] 09 03 9D 23 00 02 1B 25 
3291.526 [RX] 09 03 04 02 EE 02 58 12 E4 
3291.627 [RX] 00 10 A9 84 00 03 06 00 AA 00 00 03 E8 96 04 
3291.902 [RX] 00 10 A9 84 00 03 06 00 AA 00 00 03 E8 96 04 
3292.297 [RX] 00 10 A9 84 00 03 06 00 AA 00 00 03 E8 96 04 
3292.723 [RX] 00 10 A9 84 00 03 06 00 AA 00 00 03 E8 96 04 
3293.118 [RX] 00 10 A9 84 00 03 06 00 AA 00 00 03 E8 96 04 
3293.499 [RX] 00 10 A9 84 00 03 06 00 AA 00 00 03 E8 96 04 
3293.910 [RX] 00 10 A9 84 00 03 06 00 AA 00 00 03 E8 96 04 
