ch1
357.744 [RX] 01 03 00 00 01 DE C4 02 
417.813 [RX] 01 03 00 00 01 DE C4 02
477.870 [RX] 01 03 00 00 01 DE C4 02 

ch2
49.538 [RX] 00 06 9C BD 00 00 36 6F 
49.569 [RX] 00 06 9C B7 00 00 16 6D 
49.600 [RX] 00 06 9C 67 00 00 17 94 
63.752 [RX] 01 03 75 3F 00 0A EF CD 
84.363 [RX] 00 06 9C BD 00 00 36 6F 
84.393 [RX] 00 06 9C B7 00 00 16 6D 
84.424 [RX] 00 06 9C 67 00 00 17 94 
117.304 [RX] 00 06 B9 E5 00 00 BC B0 
117.426 [RX] 00 06 9C B7 00 00 16 6D 
117.456 [RX] 00 06 9C BD 00 00 36 6F 
117.487 [RX] 00 06 9C 67 00 00 17 94 
124.089 [RX] 01 03 75 3F 00 0A EF CD 
151.391 [RX] 00 06 9C BD 00 00 36 6F 
151.422 [RX] 00 06 9C B7 00 00 16 6D 
151.453 [RX] 00 06 9C 67 00 00 17 94 
184.258 [RX] 01 03 75 3F 00 0A EF CD 
186.262 [RX] 00 06 9C BD 00 00 36 6F 
186.293 [RX] 00 06 9C B7 00 00 16 6D 
186.324 [RX] 00 06 9C 67 00 00 17 94 
218.513 [RX] 00 06 9C BD 00 00 36 6F 
218.544 [RX] 00 06 9C B7 00 00 16 6D 
218.575 [RX] 00 06 9C 67 00 00 17 94 
244.570 [RX] 01 03 75 3F 00 0A EF CD 
252.600 [RX] 00 06 B9 E5 00 00 BC B0 
252.721 [RX] 00 06 9C BD 00 00 36 6F 
252.751 [RX] 00 06 9C B7 00 00 16 6D 
252.782 [RX] 00 06 9C 67 00 00 17 94 

ch3
