58612.152 [RX] 01 03 75 3F 00 0A EF CD 
58612.168 [RX] 01 03 14 45 53 32 32 41 30 30 32 39 32 33 34 00 00 00 00 00 00 00 00 67 4E 
58612.301 [RX] 01 03 75 76 00 01 7F DC 
58612.316 [RX] 01 03 02 01 BC B8 65 
58612.434 [RX] 01 03 7D 10 00 01 9D A3 
58612.445 [RX] 01 03 02 1E A2 30 5D 
58612.559 [RX] 01 03 7D 11 00 01 CC 63 
58612.574 [RX] 01 03 02 01 50 B9 E8 
58612.691 [RX] 01 03 7D 12 00 01 3C 63 
58612.703 [RX] 01 03 02 1E A2 30 5D 
58612.820 [RX] 01 03 7D 13 00 01 6D A3 
58612.836 [RX] 01 03 02 00 00 B8 44 
58612.953 [RX] 01 03 7D 14 00 01 DC 62 
58612.969 [RX] 01 03 02 1E 83 F0 45 
58613.078 [RX] 01 03 7D 15 00 01 8D A2 
58613.098 [RX] 01 03 02 01 50 B9 E8 
58613.211 [RX] 01 03 7D 16 00 01 7D A2 
58613.223 [RX] 01 03 02 1E 83 F0 45 
58613.340 [RX] 01 03 7D 17 00 01 2C 62 
58613.355 [RX] 01 03 02 00 00 B8 44 
58613.473 [RX] 01 03 7D 18 00 01 1C 61 
58613.484 [RX] 01 03 02 1E 55 71 DB 
58613.602 [RX] 01 03 7D 19 00 01 4D A1 
58613.617 [RX] 01 03 02 01 4D 79 E1 
58613.730 [RX] 01 03 7D 1A 00 01 BD A1 
58613.742 [RX] 01 03 02 1E 55 71 DB 
58613.859 [RX] 01 03 7D 1B 00 01 EC 61 
58613.875 [RX] 01 03 02 00 00 B8 44 
58613.992 [RX] 01 03 7D 1C 00 01 5D A0 
58614.004 [RX] 01 03 02 1E 7A 30 07 
58614.121 [RX] 01 03 7D 1D 00 01 0C 60 
58614.137 [RX] 01 03 02 01 4A 38 23 
58614.254 [RX] 01 03 7D 1E 00 01 FC 60 
58614.266 [RX] 01 03 02 1E 7A 30 07 
58614.379 [RX] 01 03 7D 1F 00 01 AD A0 
58614.395 [RX] 01 03 02 00 00 B8 44 
58614.512 [RX] 01 03 7D 42 00 01 3C 72 
58614.523 [RX] 01 03 02 0F 11 7D B8 
58614.641 [RX] 01 03 7D 48 00 02 5C 71 
58614.656 [RX] 01 03 04 00 00 38 A9 29 8D 
58614.773 [RX] 01 03 7D 50 00 02 DC 76 
58614.785 [RX] 01 03 04 00 00 26 0A 60 54 
58614.898 [RX] 01 03 7D 54 00 01 DD B6 
58614.914 [RX] 01 03 02 03 E8 B8 FA 
58615.031 [RX] 01 03 7D 55 00 01 8C 76 
58615.043 [RX] 01 03 02 17 73 F6 51 
58615.160 [RX] 01 03 7D 57 00 01 2D B6 
58615.176 [RX] 01 03 02 01 C9 79 82 
58615.293 [RX] 01 03 7D 6A 00 02 FC 7B 
58615.305 [RX] 01 03 04 00 D5 8D 51 4F 67 
58615.422 [RX] 01 03 7D 59 00 01 4C 75 
58615.438 [RX] 01 03 02 02 00 B9 24 
58615.551 [RX] 01 03 7D 48 00 02 5C 71 
58615.562 [RX] 01 03 04 00 00 38 A3 A9 8A 
58615.680 [RX] 01 03 7D 4A 00 02 FD B1 
58615.695 [RX] 01 03 04 00 00 38 89 28 55 
58615.812 [RX] 01 03 7D 4C 00 02 1D B0 
58615.824 [RX] 01 03 04 00 00 38 84 E9 90 
58615.945 [RX] 01 03 7D 45 00 01 8D B3 
58615.957 [RX] 01 03 02 08 BA 3E 37 
58616.070 [RX] 01 03 7D 46 00 01 7D B3 
58616.086 [RX] 01 03 02 08 B2 3F F1 
58616.199 [RX] 01 03 7D 47 00 01 2C 73 
58616.215 [RX] 01 03 02 08 CA 3F D3 
58616.332 [RX] 01 03 7D 72 00 02 7C 7C 
58616.344 [RX] 01 03 04 00 00 03 E4 FA 88 
58616.461 [RX] 01 03 7D 58 00 01 1D B5 
58616.477 [RX] 01 03 02 11 72 34 31 
58616.594 [RX] 01 03 7D 08 00 01 1D A4 
58616.609 [RX] 01 03 02 00 00 B8 44 
58616.719 [RX] 01 03 7D 09 00 01 4C 64 
58616.734 [RX] 01 03 02 00 00 B8 44 
58616.852 [RX] 01 03 7D 0A 00 01 BC 64 
58616.863 [RX] 01 03 02 00 00 B8 44 
58622.000 [RX] 01 03 75 3F 00 0A EF CD 
58622.016 [RX] 01 03 14 45 53 32 32 41 30 30 32 39 32 33 34 00 00 00 00 00 00 00 00 67 4E 
58622.152 [RX] 01 03 75 76 00 01 7F DC 
58622.168 [RX] 01 03 02 01 BC B8 65 
58622.281 [RX] 01 03 7D 10 00 01 9D A3 
58622.297 [RX] 01 03 02 1E A2 30 5D 
58622.410 [RX] 01 03 7D 11 00 01 CC 63 
58622.426 [RX] 01 03 02 01 50 B9 E8 
58622.539 [RX] 01 03 7D 12 00 01 3C 63 
58622.555 [RX] 01 03 02 1E A2 30 5D 
58622.672 [RX] 01 03 7D 13 00 01 6D A3 
58622.684 [RX] 01 03 02 00 00 B8 44 
58622.801 [RX] 01 03 7D 14 00 01 DC 62 
58622.816 [RX] 01 03 02 1E 93 F1 89 
58622.934 [RX] 01 03 7D 15 00 01 8D A2 
58622.945 [RX] 01 03 02 01 4F F8 20 
58623.059 [RX] 01 03 7D 16 00 01 7D A2 
58623.074 [RX] 01 03 02 1E 93 F1 89 
58623.191 [RX] 01 03 7D 17 00 01 2C 62 
58623.203 [RX] 01 03 02 00 00 B8 44 
58623.320 [RX] 01 03 7D 18 00 01 1C 61 
58623.336 [RX] 01 03 02 1E 05 71 E7 
58623.453 [RX] 01 03 7D 19 00 01 4D A1 
58623.465 [RX] 01 03 02 01 50 B9 E8 
58623.586 [RX] 01 03 7D 1A 00 01 BD A1 
58623.598 [RX] 01 03 02 1E 05 71 E7 
58623.711 [RX] 01 03 7D 1B 00 01 EC 61 
58623.723 [RX] 01 03 02 00 00 B8 44 
58623.840 [RX] 01 03 7D 1C 00 01 5D A0 
58623.855 [RX] 01 03 02 1E 52 30 19 
58623.973 [RX] 01 03 7D 1D 00 01 0C 60 
58623.984 [RX] 01 03 02 01 4C B8 21 
58624.102 [RX] 01 03 7D 1E 00 01 FC 60 
58624.117 [RX] 01 03 02 1E 52 30 19 
58624.230 [RX] 01 03 7D 1F 00 01 AD A0 
58624.242 [RX] 01 03 02 00 00 B8 44 
58624.359 [RX] 01 03 7D 42 00 01 3C 72 
58624.375 [RX] 01 03 02 0F 10 BC 78 
58624.492 [RX] 01 03 7D 48 00 02 5C 71 
58624.504 [RX] 01 03 04 00 00 38 A5 29 88 
58624.621 [RX] 01 03 7D 50 00 02 DC 76 
58624.637 [RX] 01 03 04 00 00 26 0D 21 96 
58624.754 [RX] 01 03 7D 54 00 01 DD B6 
58624.766 [RX] 01 03 02 03 E8 B8 FA 
58624.879 [RX] 01 03 7D 55 00 01 8C 76 
58624.895 [RX] 01 03 02 17 72 37 91 
58625.012 [RX] 01 03 7D 57 00 01 2D B6 
58625.023 [RX] 01 03 02 01 C9 79 82 
58625.141 [RX] 01 03 7D 6A 00 02 FC 7B 
58625.156 [RX] 01 03 04 00 D5 8D 53 CE A6 
58625.273 [RX] 01 03 7D 59 00 01 4C 75 
58625.285 [RX] 01 03 02 02 00 B9 24 
58625.398 [RX] 01 03 7D 48 00 02 5C 71 
58625.414 [RX] 01 03 04 00 00 38 B4 E9 84 
58625.531 [RX] 01 03 7D 4A 00 02 FD B1 
58625.543 [RX] 01 03 04 00 00 38 99 29 99 
58625.660 [RX] 01 03 7D 4C 00 02 1D B0 
58625.676 [RX] 01 03 04 00 00 38 93 A9 9E 
58625.793 [RX] 01 03 7D 45 00 01 8D B3 
58625.805 [RX] 01 03 02 08 B9 7E 36 
58625.922 [RX] 01 03 7D 46 00 01 7D B3 
58625.938 [RX] 01 03 02 08 B0 BE 30 
58626.051 [RX] 01 03 7D 47 00 01 2C 73 
58626.062 [RX] 01 03 02 08 C8 BE 12 
58626.180 [RX] 01 03 7D 72 00 02 7C 7C 
58626.195 [RX] 01 03 04 00 00 03 E7 BA 89 
58626.312 [RX] 01 03 7D 58 00 01 1D B5 
58626.328 [RX] 01 03 02 11 72 34 31 
58626.441 [RX] 01 03 7D 08 00 01 1D A4 
58626.457 [RX] 01 03 02 00 00 B8 44 
58626.570 [RX] 01 03 7D 09 00 01 4C 64 
58626.586 [RX] 01 03 02 00 00 B8 44 
58626.699 [RX] 01 03 7D 0A 00 01 BC 64 
58626.715 [RX] 01 03 02 00 00 B8 44 
58631.852 [RX] 01 03 75 3F 00 0A EF CD 
58631.867 [RX] 01 03 14 45 53 32 32 41 30 30 32 39 32 33 34 00 00 00 00 00 00 00 00 67 4E 
58632.000 [RX] 01 03 75 76 00 01 7F DC 
58632.016 [RX] 01 03 02 01 BC B8 65 
58632.133 [RX] 01 03 7D 10 00 01 9D A3 
58632.145 [RX] 01 03 02 1E 8D 71 81 
58632.262 [RX] 01 03 7D 11 00 01 CC 63 
58632.277 [RX] 01 03 02 01 51 78 28 
58632.391 [RX] 01 03 7D 12 00 01 3C 63 
58632.402 [RX] 01 03 02 1E 8D 71 81 
58632.520 [RX] 01 03 7D 13 00 01 6D A3 
58632.535 [RX] 01 03 02 00 00 B8 44 
58632.652 [RX] 01 03 7D 14 00 01 DC 62 
58632.664 [RX] 01 03 02 1E 83 F0 45 
58632.781 [RX] 01 03 7D 15 00 01 8D A2 
58632.797 [RX] 01 03 02 01 51 78 28 
58632.910 [RX] 01 03 7D 16 00 01 7D A2 
58632.926 [RX] 01 03 02 1E 83 F0 45 
58633.039 [RX] 01 03 7D 17 00 01 2C 62 
58633.055 [RX] 01 03 02 00 00 B8 44 
58633.172 [RX] 01 03 7D 18 00 01 1C 61 
58633.184 [RX] 01 03 02 1E 12 31 E9 
58633.301 [RX] 01 03 7D 19 00 01 4D A1 
58633.316 [RX] 01 03 02 01 50 B9 E8 
58633.434 [RX] 01 03 7D 1A 00 01 BD A1 
58633.445 [RX] 01 03 02 1E 12 31 E9 
58633.559 [RX] 01 03 7D 1B 00 01 EC 61 
58633.574 [RX] 01 03 02 00 00 B8 44 
58633.691 [RX] 01 03 7D 1C 00 01 5D A0 
58633.703 [RX] 01 03 02 1E 7A 30 07 
58633.820 [RX] 01 03 7D 1D 00 01 0C 60 
58633.836 [RX] 01 03 02 01 4B F9 E3 
58633.953 [RX] 01 03 7D 1E 00 01 FC 60 
58633.965 [RX] 01 03 02 1E 6F F1 C8 
58634.078 [RX] 01 03 7D 1F 00 01 AD A0 
58634.098 [RX] 01 03 02 00 00 B8 44 
58634.211 [RX] 01 03 7D 42 00 01 3C 72 
58634.223 [RX] 01 03 02 0F 0C BD B1 
58634.340 [RX] 01 03 7D 48 00 02 5C 71 
58634.355 [RX] 01 03 04 00 00 38 C4 E8 60 
58634.473 [RX] 01 03 7D 50 00 02 DC 76 
58634.488 [RX] 01 03 04 00 00 26 1F A1 9B 
58634.602 [RX] 01 03 7D 54 00 01 DD B6 
58634.617 [RX] 01 03 02 03 E8 B8 FA 
58634.730 [RX] 01 03 7D 55 00 01 8C 76 
58634.742 [RX] 01 03 02 17 6C B7 99 
58634.859 [RX] 01 03 7D 57 00 01 2D B6 
58634.875 [RX] 01 03 02 01 C9 79 82 
58634.992 [RX] 01 03 7D 6A 00 02 FC 7B 
58635.008 [RX] 01 03 04 00 D5 8D 56 0E A5 
58635.121 [RX] 01 03 7D 59 00 01 4C 75 
58635.137 [RX] 01 03 02 02 00 B9 24 
58635.254 [RX] 01 03 7D 48 00 02 5C 71 
58635.266 [RX] 01 03 04 00 00 38 C4 E8 60 
58635.379 [RX] 01 03 7D 4A 00 02 FD B1 
58635.395 [RX] 01 03 04 00 00 38 AF A9 8F 
58635.512 [RX] 01 03 7D 4C 00 02 1D B0 
58635.527 [RX] 01 03 04 00 00 38 A1 28 4B 
58635.641 [RX] 01 03 7D 45 00 01 8D B3 
58635.656 [RX] 01 03 02 08 B7 FF F2 
58635.773 [RX] 01 03 7D 46 00 01 7D B3 
58635.785 [RX] 01 03 02 08 B0 BE 30 
58635.898 [RX] 01 03 7D 47 00 01 2C 73 
58635.914 [RX] 01 03 02 08 C7 FE 16 
58636.031 [RX] 01 03 7D 72 00 02 7C 7C 
58636.043 [RX] 01 03 04 00 00 03 E9 3B 4D 
58636.160 [RX] 01 03 7D 58 00 01 1D B5 
58636.176 [RX] 01 03 02 11 72 34 31 
58636.293 [RX] 01 03 7D 08 00 01 1D A4 
58636.305 [RX] 01 03 02 00 00 B8 44 
58636.422 [RX] 01 03 7D 09 00 01 4C 64 
58636.438 [RX] 01 03 02 00 00 B8 44 
58636.551 [RX] 01 03 7D 0A 00 01 BC 64 
58636.566 [RX] 01 03 02 00 00 B8 44 
58641.754 [RX] 01 03 75 3F 00 0A EF CD 
58641.770 [RX] 01 03 14 45 53 32 32 41 30 30 32 39 32 33 34 00 00 00 00 00 00 00 00 67 4E 
58641.898 [RX] 01 03 75 76 00 01 7F DC 
58641.914 [RX] 01 03 02 01 BC B8 65 
58642.031 [RX] 01 03 7D 10 00 01 9D A3 
58642.047 [RX] 01 03 02 1E 66 31 CE 
58642.160 [RX] 01 03 7D 11 00 01 CC 63 
58642.176 [RX] 01 03 02 01 53 F9 E9 
58642.293 [RX] 01 03 7D 12 00 01 3C 63 
58642.305 [RX] 01 03 02 1E 7A 30 07 
58642.422 [RX] 01 03 7D 13 00 01 6D A3 
58642.438 [RX] 01 03 02 00 00 B8 44 
58642.551 [RX] 01 03 7D 14 00 01 DC 62 
58642.566 [RX] 01 03 02 1E 83 F0 45 
58642.680 [RX] 01 03 7D 15 00 01 8D A2 
58642.695 [RX] 01 03 02 01 52 38 29 
58642.812 [RX] 01 03 7D 16 00 01 7D A2 
58642.824 [RX] 01 03 02 1E 83 F0 45 
58642.941 [RX] 01 03 7D 17 00 01 2C 62 
58642.957 [RX] 01 03 02 00 00 B8 44 
58643.070 [RX] 01 03 7D 18 00 01 1C 61 
58643.090 [RX] 01 03 02 1E 2D 71 F9 
58643.199 [RX] 01 03 7D 19 00 01 4D A1 
58643.215 [RX] 01 03 02 01 50 B9 E8 
58643.332 [RX] 01 03 7D 1A 00 01 BD A1 
58643.344 [RX] 01 03 02 1E 2D 71 F9 
58643.461 [RX] 01 03 7D 1B 00 01 EC 61 
58643.477 [RX] 01 03 02 00 00 B8 44 
58643.594 [RX] 01 03 7D 1C 00 01 5D A0 
58643.609 [RX] 01 03 02 1E 96 31 8A 
58643.719 [RX] 01 03 7D 1D 00 01 0C 60 
58643.734 [RX] 01 03 02 01 4A 38 23 
58643.852 [RX] 01 03 7D 1E 00 01 FC 60 
58643.863 [RX] 01 03 02 1E 96 31 8A 
58643.980 [RX] 01 03 7D 1F 00 01 AD A0 
58643.996 [RX] 01 03 02 00 00 B8 44 
58644.113 [RX] 01 03 7D 42 00 01 3C 72 
58644.129 [RX] 01 03 02 0F 0B FC 73 
58644.238 [RX] 01 03 7D 48 00 02 5C 71 
58644.258 [RX] 01 03 04 00 00 39 08 E9 A5 
58644.371 [RX] 01 03 7D 50 00 02 DC 76 
58644.383 [RX] 01 03 04 00 00 26 51 21 AF 
58644.500 [RX] 01 03 7D 54 00 01 DD B6 
58644.516 [RX] 01 03 02 03 E8 B8 FA 
58644.633 [RX] 01 03 7D 55 00 01 8C 76 
58644.648 [RX] 01 03 02 17 68 B6 5A 
58644.762 [RX] 01 03 7D 57 00 01 2D B6 
58644.777 [RX] 01 03 02 01 CA 39 83 
58644.891 [RX] 01 03 7D 6A 00 02 FC 7B 
58644.902 [RX] 01 03 04 00 D5 8D 59 4E A1 
58645.020 [RX] 01 03 7D 59 00 01 4C 75 
58645.035 [RX] 01 03 02 02 00 B9 24 
58645.152 [RX] 01 03 7D 48 00 02 5C 71 
58645.168 [RX] 01 03 04 00 00 39 20 E9 BB 
58645.281 [RX] 01 03 7D 4A 00 02 FD B1 
58645.297 [RX] 01 03 04 00 00 39 04 E9 A0 
58645.410 [RX] 01 03 7D 4C 00 02 1D B0 
58645.426 [RX] 01 03 04 00 00 38 FA 69 B0 
58645.539 [RX] 01 03 7D 45 00 01 8D B3 
58645.555 [RX] 01 03 02 08 B6 3E 32 
58645.672 [RX] 01 03 7D 46 00 01 7D B3 
58645.688 [RX] 01 03 02 08 AF FF F8 
58645.801 [RX] 01 03 7D 47 00 01 2C 73 
58645.816 [RX] 01 03 02 08 C6 3F D6 
58645.934 [RX] 01 03 7D 72 00 02 7C 7C 
58645.945 [RX] 01 03 04 00 00 03 EC FB 4E 
58646.059 [RX] 01 03 7D 58 00 01 1D B5 
58646.074 [RX] 01 03 02 11 72 34 31 
58646.191 [RX] 01 03 7D 08 00 01 1D A4 
58646.207 [RX] 01 03 02 00 00 B8 44 
58646.320 [RX] 01 03 7D 09 00 01 4C 64 
58646.336 [RX] 01 03 02 00 00 B8 44 
58646.453 [RX] 01 03 7D 0A 00 01 BC 64 
58646.465 [RX] 01 03 02 00 00 B8 44 
58651.602 [RX] 01 03 75 3F 00 0A EF CD 
58651.617 [RX] 01 03 14 45 53 32 32 41 30 30 32 39 32 33 34 00 00 00 00 00 00 00 00 67 4E 
58651.754 [RX] 01 03 75 76 00 01 7F DC 
58651.770 [RX] 01 03 02 01 BC B8 65 
58651.879 [RX] 01 03 7D 10 00 01 9D A3 
58651.895 [RX] 01 03 02 1E 52 30 19 
58652.012 [RX] 01 03 7D 11 00 01 CC 63 
58652.023 [RX] 01 03 02 01 57 F8 2A 
58652.141 [RX] 01 03 7D 12 00 01 3C 63 
58652.156 [RX] 01 03 02 1E 52 30 19 
58652.273 [RX] 01 03 7D 13 00 01 6D A3 
58652.289 [RX] 01 03 02 00 00 B8 44 
58652.398 [RX] 01 03 7D 14 00 01 DC 62 
58652.414 [RX] 01 03 02 1E 73 F0 01 
58652.531 [RX] 01 03 7D 15 00 01 8D A2 
58652.543 [RX] 01 03 02 01 55 79 EB 
58652.660 [RX] 01 03 7D 16 00 01 7D A2 
58652.676 [RX] 01 03 02 1E 73 F0 01 
58652.793 [RX] 01 03 7D 17 00 01 2C 62 
58652.809 [RX] 01 03 02 00 00 B8 44 
58652.922 [RX] 01 03 7D 18 00 01 1C 61 
58652.938 [RX] 01 03 02 1E 2D 71 F9 
58653.051 [RX] 01 03 7D 19 00 01 4D A1 
58653.062 [RX] 01 03 02 01 54 B8 2B 
58653.180 [RX] 01 03 7D 1A 00 01 BD A1 
58653.195 [RX] 01 03 02 1E 2D 71 F9 
58653.312 [RX] 01 03 7D 1B 00 01 EC 61 
58653.328 [RX] 01 03 02 00 00 B8 44 
58653.441 [RX] 01 03 7D 1C 00 01 5D A0 
58653.457 [RX] 01 03 02 1E 2A 30 3B 
58653.570 [RX] 01 03 7D 1D 00 01 0C 60 
58653.586 [RX] 01 03 02 01 52 38 29 
58653.699 [RX] 01 03 7D 1E 00 01 FC 60 
58653.715 [RX] 01 03 02 1E 2A 30 3B 
58653.832 [RX] 01 03 7D 1F 00 01 AD A0 
58653.848 [RX] 01 03 02 00 00 B8 44 
58653.961 [RX] 01 03 7D 42 00 01 3C 72 
58653.977 [RX] 01 03 02 0F 0E 3C 70 
58654.094 [RX] 01 03 7D 48 00 02 5C 71 
58654.105 [RX] 01 03 04 00 00 39 9E 69 CB 
58654.219 [RX] 01 03 7D 50 00 02 DC 76 
58654.234 [RX] 01 03 04 00 00 26 C3 A0 02 
58654.352 [RX] 01 03 7D 54 00 01 DD B6 
58654.367 [RX] 01 03 02 03 E8 B8 FA 
58654.480 [RX] 01 03 7D 55 00 01 8C 76 
58654.496 [RX] 01 03 02 17 6D 76 59 
58654.613 [RX] 01 03 7D 57 00 01 2D B6 
58654.625 [RX] 01 03 02 01 CB F8 43 
58654.738 [RX] 01 03 7D 6A 00 02 FC 7B 
58654.758 [RX] 01 03 04 00 D5 8D 5B CF 60 
58654.871 [RX] 01 03 7D 59 00 01 4C 75 
58654.887 [RX] 01 03 02 02 00 B9 24 
58655.000 [RX] 01 03 7D 48 00 02 5C 71 
58655.016 [RX] 01 03 04 00 00 39 E6 69 E9 
58655.133 [RX] 01 03 7D 4A 00 02 FD B1 
58655.145 [RX] 01 03 04 00 00 39 CB A9 F4 
58655.262 [RX] 01 03 7D 4C 00 02 1D B0 
58655.277 [RX] 01 03 04 00 00 39 C3 A8 32 
58655.391 [RX] 01 03 7D 45 00 01 8D B3 
58655.406 [RX] 01 03 02 08 B8 BF F6 
58655.520 [RX] 01 03 7D 46 00 01 7D B3 
58655.535 [RX] 01 03 02 08 B0 BE 30 
58655.652 [RX] 01 03 7D 47 00 01 2C 73 
58655.664 [RX] 01 03 02 08 C7 FE 16 
58655.781 [RX] 01 03 7D 72 00 02 7C 7C 
58655.797 [RX] 01 03 04 00 00 03 EF BB 4F 
58655.910 [RX] 01 03 7D 58 00 01 1D B5 
58655.930 [RX] 01 03 02 11 72 34 31 
58656.039 [RX] 01 03 7D 08 00 01 1D A4 
58656.055 [RX] 01 03 02 00 00 B8 44 
58656.172 [RX] 01 03 7D 09 00 01 4C 64 
58656.184 [RX] 01 03 02 00 00 B8 44 
58656.301 [RX] 01 03 7D 0A 00 01 BC 64 
58656.316 [RX] 01 03 02 00 00 B8 44 
